! Touchstone Ver. 1.0
! Number of ports is 2
# Hz  S RI  R  	50
! SCATTERING PARAMETERS  :
 1.00000000e+08	 8.56285268e-04  4.18392928e-04  9.99142793e-01 -7.42988664e-04  9.99142793e-01 -7.42988664e-04  8.56285268e-04  4.18392928e-04 
 2.00000000e+08	 8.25778420e-04  8.36857152e-04  9.99172272e-01 -1.48604807e-03  9.99172272e-01 -1.48604807e-03  8.25778420e-04  8.36857152e-04 
 3.00000000e+08	 7.95892335e-04  1.25539161e-03  9.99201026e-01 -2.22917717e-03  9.99201026e-01 -2.22917717e-03  7.95892335e-04  1.25539161e-03 
 4.00000000e+08	 7.66627185e-04  1.67399524e-03  9.99229053e-01 -2.97237490e-03  9.99229053e-01 -2.97237490e-03  7.66627185e-04  1.67399524e-03 
 5.00000000e+08	 7.37983143e-04  2.09266697e-03  9.99256353e-01 -3.71564021e-03  9.99256353e-01 -3.71564021e-03  7.37983143e-04  2.09266697e-03 
 6.00000000e+08	 7.31073830e-04  2.51125846e-03  9.99261814e-01 -4.45882476e-03  9.99261814e-01 -4.45882476e-03  7.31073830e-04  2.51125846e-03 
 7.00000000e+08	 7.24787161e-04  2.92986681e-03  9.99266546e-01 -5.20202568e-03  9.99266546e-01 -5.20202568e-03  7.24787161e-04  2.92986681e-03 
 8.00000000e+08	 7.19123179e-04  3.34849096e-03  9.99270550e-01 -5.94524188e-03  9.99270550e-01 -5.94524188e-03  7.19123179e-04  3.34849096e-03 
 9.00000000e+08	 7.14081924e-04  3.76712982e-03  9.99273827e-01 -6.68847232e-03  9.99273827e-01 -6.68847232e-03  7.14081924e-04  3.76712982e-03 
 1.00000000e+09	 7.09663434e-04  4.18578232e-03  9.99276375e-01 -7.43171593e-03  9.99276375e-01 -7.43171593e-03  7.09663434e-04  4.18578232e-03 
 1.10000000e+09	 7.22474558e-04  4.60423499e-03  9.99261588e-01 -8.17475925e-03  9.99261588e-01 -8.17475925e-03  7.22474558e-04  4.60423499e-03 
 1.20000000e+09	 7.35907890e-04  5.02266055e-03  9.99246073e-01 -8.91777499e-03  9.99246073e-01 -8.91777499e-03  7.35907890e-04  5.02266055e-03 
 1.30000000e+09	 7.49963366e-04  5.44105793e-03  9.99229831e-01 -9.66076210e-03  9.99229831e-01 -9.66076210e-03  7.49963366e-04  5.44105793e-03 
 1.40000000e+09	 7.64640919e-04  5.85942604e-03  9.99212862e-01 -1.04037195e-02  9.99212862e-01 -1.04037195e-02  7.64640919e-04  5.85942604e-03 
 1.50000000e+09	 7.79940481e-04  6.27776382e-03  9.99195165e-01 -1.11466462e-02  9.99195165e-01 -1.11466462e-02  7.79940481e-04  6.27776382e-03 
 1.60000000e+09	 7.95861981e-04  6.69607020e-03  9.99176740e-01 -1.18895410e-02  9.99176740e-01 -1.18895410e-02  7.95861981e-04  6.69607020e-03 
 1.70000000e+09	 8.12405345e-04  7.11434411e-03  9.99157589e-01 -1.26324030e-02  9.99157589e-01 -1.26324030e-02  8.12405345e-04  7.11434411e-03 
 1.80000000e+09	 8.29570499e-04  7.53258447e-03  9.99137710e-01 -1.33752310e-02  9.99137710e-01 -1.33752310e-02  8.29570499e-04  7.53258447e-03 
 1.90000000e+09	 8.47357364e-04  7.95079023e-03  9.99117104e-01 -1.41180241e-02  9.99117104e-01 -1.41180241e-02  8.47357364e-04  7.95079023e-03 
 2.00000000e+09	 8.65765861e-04  8.36896030e-03  9.99095771e-01 -1.48607810e-02  9.99095771e-01 -1.48607810e-02  8.65765861e-04  8.36896030e-03 
 2.10000000e+09	 8.84795908e-04  8.78709361e-03  9.99073711e-01 -1.56035009e-02  9.99073711e-01 -1.56035009e-02  8.84795908e-04  8.78709361e-03 
 2.20000000e+09	 9.04447420e-04  9.20518911e-03  9.99050925e-01 -1.63461826e-02  9.99050925e-01 -1.63461826e-02  9.04447420e-04  9.20518911e-03 
 2.30000000e+09	 9.24720311e-04  9.62324571e-03  9.99027411e-01 -1.70888250e-02  9.99027411e-01 -1.70888250e-02  9.24720311e-04  9.62324571e-03 
 2.40000000e+09	 9.45614492e-04  1.00412623e-02  9.99003171e-01 -1.78314271e-02  9.99003171e-01 -1.78314271e-02  9.45614492e-04  1.00412623e-02 
 2.50000000e+09	 9.67129872e-04  1.04592380e-02  9.98978204e-01 -1.85739879e-02  9.98978204e-01 -1.85739879e-02  9.67129872e-04  1.04592380e-02 
 2.60000000e+09	 9.89266357e-04  1.08771715e-02  9.98952511e-01 -1.93165063e-02  9.98952511e-01 -1.93165063e-02  9.89266357e-04  1.08771715e-02 
 2.70000000e+09	 1.01202385e-03  1.12950618e-02  9.98926091e-01 -2.00589812e-02  9.98926091e-01 -2.00589812e-02  1.01202385e-03  1.12950618e-02 
 2.80000000e+09	 1.03540226e-03  1.17129079e-02  9.98898945e-01 -2.08014116e-02  9.98898945e-01 -2.08014116e-02  1.03540226e-03  1.17129079e-02 
 2.90000000e+09	 1.05940148e-03  1.21307087e-02  9.98871073e-01 -2.15437963e-02  9.98871073e-01 -2.15437963e-02  1.05940148e-03  1.21307087e-02 
 3.00000000e+09	 1.08402141e-03  1.25484632e-02  9.98842474e-01 -2.22861345e-02  9.98842474e-01 -2.22861345e-02  1.08402141e-03  1.25484632e-02 
 3.10000000e+09	 1.10926194e-03  1.29661702e-02  9.98813150e-01 -2.30284249e-02  9.98813150e-01 -2.30284249e-02  1.10926194e-03  1.29661702e-02 
 3.20000000e+09	 1.13512298e-03  1.33838286e-02  9.98783099e-01 -2.37706666e-02  9.98783099e-01 -2.37706666e-02  1.13512298e-03  1.33838286e-02 
 3.30000000e+09	 1.16160440e-03  1.38014376e-02  9.98752323e-01 -2.45128584e-02  9.98752323e-01 -2.45128584e-02  1.16160440e-03  1.38014376e-02 
 3.40000000e+09	 1.18870610e-03  1.42189958e-02  9.98720821e-01 -2.52549994e-02  9.98720821e-01 -2.52549994e-02  1.18870610e-03  1.42189958e-02 
 3.50000000e+09	 1.21642797e-03  1.46365024e-02  9.98688594e-01 -2.59970884e-02  9.98688594e-01 -2.59970884e-02  1.21642797e-03  1.46365024e-02 
 3.60000000e+09	 1.24476989e-03  1.50539562e-02  9.98655641e-01 -2.67391245e-02  9.98655641e-01 -2.67391245e-02  1.24476989e-03  1.50539562e-02 
 3.70000000e+09	 1.27373174e-03  1.54713562e-02  9.98621962e-01 -2.74811065e-02  9.98621962e-01 -2.74811065e-02  1.27373174e-03  1.54713562e-02 
 3.80000000e+09	 1.30331340e-03  1.58887012e-02  9.98587559e-01 -2.82230334e-02  9.98587559e-01 -2.82230334e-02  1.30331340e-03  1.58887012e-02 
 3.90000000e+09	 1.33351475e-03  1.63059903e-02  9.98552430e-01 -2.89649041e-02  9.98552430e-01 -2.89649041e-02  1.33351475e-03  1.63059903e-02 
 4.00000000e+09	 1.36433566e-03  1.67232224e-02  9.98516576e-01 -2.97067177e-02  9.98516576e-01 -2.97067177e-02  1.36433566e-03  1.67232224e-02 
 4.10000000e+09	 1.39577602e-03  1.71403964e-02  9.98479997e-01 -3.04484729e-02  9.98479997e-01 -3.04484729e-02  1.39577602e-03  1.71403964e-02 
 4.20000000e+09	 1.42783568e-03  1.75575112e-02  9.98442694e-01 -3.11901689e-02  9.98442694e-01 -3.11901689e-02  1.42783568e-03  1.75575112e-02 
 4.30000000e+09	 1.46051452e-03  1.79745657e-02  9.98404666e-01 -3.19318045e-02  9.98404666e-01 -3.19318045e-02  1.46051452e-03  1.79745657e-02 
 4.40000000e+09	 1.49381240e-03  1.83915590e-02  9.98365913e-01 -3.26733787e-02  9.98365913e-01 -3.26733787e-02  1.49381240e-03  1.83915590e-02 
 4.50000000e+09	 1.52772920e-03  1.88084900e-02  9.98326437e-01 -3.34148903e-02  9.98326437e-01 -3.34148903e-02  1.52772920e-03  1.88084900e-02 
 4.60000000e+09	 1.56226476e-03  1.92253575e-02  9.98286235e-01 -3.41563385e-02  9.98286235e-01 -3.41563385e-02  1.56226476e-03  1.92253575e-02 
 4.70000000e+09	 1.59741895e-03  1.96421606e-02  9.98245310e-01 -3.48977221e-02  9.98245310e-01 -3.48977221e-02  1.59741895e-03  1.96421606e-02 
 4.80000000e+09	 1.63319164e-03  2.00588981e-02  9.98203661e-01 -3.56390400e-02  9.98203661e-01 -3.56390400e-02  1.63319164e-03  2.00588981e-02 
 4.90000000e+09	 1.66958267e-03  2.04755690e-02  9.98161288e-01 -3.63802913e-02  9.98161288e-01 -3.63802913e-02  1.66958267e-03  2.04755690e-02 
 5.00000000e+09	 1.70659189e-03  2.08921723e-02  9.98118191e-01 -3.71214748e-02  9.98118191e-01 -3.71214748e-02  1.70659189e-03  2.08921723e-02 
 5.10000000e+09	 1.74538346e-03  2.13086377e-02  9.98073207e-01 -3.78625204e-02  9.98073207e-01 -3.78625204e-02  1.74538346e-03  2.13086377e-02 
 5.20000000e+09	 1.78479267e-03  2.17250307e-02  9.98027499e-01 -3.86034935e-02  9.98027499e-01 -3.86034935e-02  1.78479267e-03  2.17250307e-02 
 5.30000000e+09	 1.82481935e-03  2.21413501e-02  9.97981069e-01 -3.93443931e-02  9.97981069e-01 -3.93443931e-02  1.82481935e-03  2.21413501e-02 
 5.40000000e+09	 1.86546334e-03  2.25575950e-02  9.97933915e-01 -4.00852179e-02  9.97933915e-01 -4.00852179e-02  1.86546334e-03  2.25575950e-02 
 5.50000000e+09	 1.90672447e-03  2.29737642e-02  9.97886039e-01 -4.08259671e-02  9.97886039e-01 -4.08259671e-02  1.90672447e-03  2.29737642e-02 
 5.60000000e+09	 1.94860259e-03  2.33898567e-02  9.97837441e-01 -4.15666396e-02  9.97837441e-01 -4.15666396e-02  1.94860259e-03  2.33898567e-02 
 5.70000000e+09	 1.99109752e-03  2.38058714e-02  9.97788120e-01 -4.23072343e-02  9.97788120e-01 -4.23072343e-02  1.99109752e-03  2.38058714e-02 
 5.80000000e+09	 2.03420908e-03  2.42218073e-02  9.97738077e-01 -4.30477502e-02  9.97738077e-01 -4.30477502e-02  2.03420908e-03  2.42218073e-02 
 5.90000000e+09	 2.07793712e-03  2.46376633e-02  9.97687312e-01 -4.37881862e-02  9.97687312e-01 -4.37881862e-02  2.07793712e-03  2.46376633e-02 
 6.00000000e+09	 2.12228145e-03  2.50534383e-02  9.97635825e-01 -4.45285413e-02  9.97635825e-01 -4.45285413e-02  2.12228145e-03  2.50534383e-02 
 6.10000000e+09	 2.16724189e-03  2.54691314e-02  9.97583617e-01 -4.52688144e-02  9.97583617e-01 -4.52688144e-02  2.16724189e-03  2.54691314e-02 
 6.20000000e+09	 2.21281826e-03  2.58847414e-02  9.97530687e-01 -4.60090045e-02  9.97530687e-01 -4.60090045e-02  2.21281826e-03  2.58847414e-02 
 6.30000000e+09	 2.25901039e-03  2.63002674e-02  9.97477036e-01 -4.67491105e-02  9.97477036e-01 -4.67491105e-02  2.25901039e-03  2.63002674e-02 
 6.40000000e+09	 2.30581808e-03  2.67157081e-02  9.97422664e-01 -4.74891315e-02  9.97422664e-01 -4.74891315e-02  2.30581808e-03  2.67157081e-02 
 6.50000000e+09	 2.35324116e-03  2.71310627e-02  9.97367571e-01 -4.82290663e-02  9.97367571e-01 -4.82290663e-02  2.35324116e-03  2.71310627e-02 
 6.60000000e+09	 2.40127943e-03  2.75463300e-02  9.97311757e-01 -4.89689140e-02  9.97311757e-01 -4.89689140e-02  2.40127943e-03  2.75463300e-02 
 6.70000000e+09	 2.44993270e-03  2.79615090e-02  9.97255223e-01 -4.97086734e-02  9.97255223e-01 -4.97086734e-02  2.44993270e-03  2.79615090e-02 
 6.80000000e+09	 2.49920078e-03  2.83765986e-02  9.97197968e-01 -5.04483435e-02  9.97197968e-01 -5.04483435e-02  2.49920078e-03  2.83765986e-02 
 6.90000000e+09	 2.54908348e-03  2.87915978e-02  9.97139994e-01 -5.11879234e-02  9.97139994e-01 -5.11879234e-02  2.54908348e-03  2.87915978e-02 
 7.00000000e+09	 2.59958059e-03  2.92065055e-02  9.97081299e-01 -5.19274118e-02  9.97081299e-01 -5.19274118e-02  2.59958059e-03  2.92065055e-02 
 7.10000000e+09	 2.65069192e-03  2.96213207e-02  9.97021884e-01 -5.26668079e-02  9.97021884e-01 -5.26668079e-02  2.65069192e-03  2.96213207e-02 
 7.20000000e+09	 2.70241727e-03  3.00360423e-02  9.96961750e-01 -5.34061106e-02  9.96961750e-01 -5.34061106e-02  2.70241727e-03  3.00360423e-02 
 7.30000000e+09	 2.75475643e-03  3.04506693e-02  9.96900897e-01 -5.41453188e-02  9.96900897e-01 -5.41453188e-02  2.75475643e-03  3.04506693e-02 
 7.40000000e+09	 2.80770919e-03  3.08652007e-02  9.96839324e-01 -5.48844315e-02  9.96839324e-01 -5.48844315e-02  2.80770919e-03  3.08652007e-02 
 7.50000000e+09	 2.86127535e-03  3.12796353e-02  9.96777033e-01 -5.56234476e-02  9.96777033e-01 -5.56234476e-02  2.86127535e-03  3.12796353e-02 
 7.60000000e+09	 2.91545470e-03  3.16939722e-02  9.96714022e-01 -5.63623661e-02  9.96714022e-01 -5.63623661e-02  2.91545470e-03  3.16939722e-02 
 7.70000000e+09	 2.97024703e-03  3.21082103e-02  9.96650293e-01 -5.71011861e-02  9.96650293e-01 -5.71011861e-02  2.97024703e-03  3.21082103e-02 
 7.80000000e+09	 3.02565212e-03  3.25223485e-02  9.96585846e-01 -5.78399063e-02  9.96585846e-01 -5.78399063e-02  3.02565212e-03  3.25223485e-02 
 7.90000000e+09	 3.08166975e-03  3.29363857e-02  9.96520681e-01 -5.85785259e-02  9.96520681e-01 -5.85785259e-02  3.08166975e-03  3.29363857e-02 
 8.00000000e+09	 3.13829970e-03  3.33503211e-02  9.96454798e-01 -5.93170437e-02  9.96454798e-01 -5.93170437e-02  3.13829970e-03  3.33503211e-02 
 8.10000000e+09	 3.19554176e-03  3.37641534e-02  9.96388197e-01 -6.00554588e-02  9.96388197e-01 -6.00554588e-02  3.19554176e-03  3.37641534e-02 
 8.20000000e+09	 3.25339569e-03  3.41778818e-02  9.96320878e-01 -6.07937700e-02  9.96320878e-01 -6.07937700e-02  3.25339569e-03  3.41778818e-02 
 8.30000000e+09	 3.31186129e-03  3.45915050e-02  9.96252842e-01 -6.15319764e-02  9.96252842e-01 -6.15319764e-02  3.31186129e-03  3.45915050e-02 
 8.40000000e+09	 3.37093830e-03  3.50050221e-02  9.96184090e-01 -6.22700770e-02  9.96184090e-01 -6.22700770e-02  3.37093830e-03  3.50050221e-02 
 8.50000000e+09	 3.43062652e-03  3.54184320e-02  9.96114620e-01 -6.30080707e-02  9.96114620e-01 -6.30080707e-02  3.43062652e-03  3.54184320e-02 
 8.60000000e+09	 3.49092570e-03  3.58317338e-02  9.96044434e-01 -6.37459564e-02  9.96044434e-01 -6.37459564e-02  3.49092570e-03  3.58317338e-02 
 8.70000000e+09	 3.55183561e-03  3.62449262e-02  9.95973532e-01 -6.44837331e-02  9.95973532e-01 -6.44837331e-02  3.55183561e-03  3.62449262e-02 
 8.80000000e+09	 3.61335602e-03  3.66580084e-02  9.95901913e-01 -6.52213999e-02  9.95901913e-01 -6.52213999e-02  3.61335602e-03  3.66580084e-02 
 8.90000000e+09	 3.67548668e-03  3.70709793e-02  9.95829579e-01 -6.59589556e-02  9.95829579e-01 -6.59589556e-02  3.67548668e-03  3.70709793e-02 
 9.00000000e+09	 3.73822736e-03  3.74838378e-02  9.95756529e-01 -6.66963993e-02  9.95756529e-01 -6.66963993e-02  3.73822736e-03  3.74838378e-02 
 9.10000000e+09	 3.80157782e-03  3.78965828e-02  9.95682763e-01 -6.74337298e-02  9.95682763e-01 -6.74337298e-02  3.80157782e-03  3.78965828e-02 
 9.20000000e+09	 3.86553780e-03  3.83092134e-02  9.95608283e-01 -6.81709463e-02  9.95608283e-01 -6.81709463e-02  3.86553780e-03  3.83092134e-02 
 9.30000000e+09	 3.93010706e-03  3.87217286e-02  9.95533087e-01 -6.89080476e-02  9.95533087e-01 -6.89080476e-02  3.93010706e-03  3.87217286e-02 
 9.40000000e+09	 3.99528535e-03  3.91341272e-02  9.95457177e-01 -6.96450328e-02  9.95457177e-01 -6.96450328e-02  3.99528535e-03  3.91341272e-02 
 9.50000000e+09	 4.06107243e-03  3.95464082e-02  9.95380552e-01 -7.03819007e-02  9.95380552e-01 -7.03819007e-02  4.06107243e-03  3.95464082e-02 
 9.60000000e+09	 4.12746803e-03  3.99585707e-02  9.95303213e-01 -7.11186505e-02  9.95303213e-01 -7.11186505e-02  4.12746803e-03  3.99585707e-02 
 9.70000000e+09	 4.19447190e-03  4.03706135e-02  9.95225160e-01 -7.18552810e-02  9.95225160e-01 -7.18552810e-02  4.19447190e-03  4.03706135e-02 
 9.80000000e+09	 4.26208379e-03  4.07825357e-02  9.95146394e-01 -7.25917912e-02  9.95146394e-01 -7.25917912e-02  4.26208379e-03  4.07825357e-02 
 9.90000000e+09	 4.33030344e-03  4.11943362e-02  9.95066914e-01 -7.33281801e-02  9.95066914e-01 -7.33281801e-02  4.33030344e-03  4.11943362e-02 
 1.00000000e+10	 4.39913057e-03  4.16060139e-02  9.94986721e-01 -7.40644467e-02  9.94986721e-01 -7.40644467e-02  4.39913057e-03  4.16060139e-02 
 1.01000000e+10	 4.46628356e-03  4.20178366e-02  9.94908096e-01 -7.48008588e-02  9.94908096e-01 -7.48008588e-02  4.46628356e-03  4.20178366e-02 
 1.02000000e+10	 4.53404445e-03  4.24295398e-02  9.94828759e-01 -7.55371517e-02  9.94828759e-01 -7.55371517e-02  4.53404445e-03  4.24295398e-02 
 1.03000000e+10	 4.60241301e-03  4.28411225e-02  9.94748707e-01 -7.62733245e-02  9.94748707e-01 -7.62733245e-02  4.60241301e-03  4.28411225e-02 
 1.04000000e+10	 4.67138896e-03  4.32525835e-02  9.94667943e-01 -7.70093761e-02  9.94667943e-01 -7.70093761e-02  4.67138896e-03  4.32525835e-02 
 1.05000000e+10	 4.74097205e-03  4.36639218e-02  9.94586466e-01 -7.77453055e-02  9.94586466e-01 -7.77453055e-02  4.74097205e-03  4.36639218e-02 
 1.06000000e+10	 4.81116201e-03  4.40751365e-02  9.94504276e-01 -7.84811118e-02  9.94504276e-01 -7.84811118e-02  4.81116201e-03  4.40751365e-02 
 1.07000000e+10	 4.88195859e-03  4.44862264e-02  9.94421374e-01 -7.92167938e-02  9.94421374e-01 -7.92167938e-02  4.88195859e-03  4.44862264e-02 
 1.08000000e+10	 4.95336152e-03  4.48971907e-02  9.94337760e-01 -7.99523505e-02  9.94337760e-01 -7.99523505e-02  4.95336152e-03  4.48971907e-02 
 1.09000000e+10	 5.02537052e-03  4.53080281e-02  9.94253435e-01 -8.06877810e-02  9.94253435e-01 -8.06877810e-02  5.02537052e-03  4.53080281e-02 
 1.10000000e+10	 5.09798533e-03  4.57187378e-02  9.94168397e-01 -8.14230842e-02  9.94168397e-01 -8.14230842e-02  5.09798533e-03  4.57187378e-02 
 1.11000000e+10	 5.17120568e-03  4.61293186e-02  9.94082649e-01 -8.21582591e-02  9.94082649e-01 -8.21582591e-02  5.17120568e-03  4.61293186e-02 
 1.12000000e+10	 5.24503129e-03  4.65397696e-02  9.93996189e-01 -8.28933047e-02  9.93996189e-01 -8.28933047e-02  5.24503129e-03  4.65397696e-02 
 1.13000000e+10	 5.31946189e-03  4.69500897e-02  9.93909019e-01 -8.36282199e-02  9.93909019e-01 -8.36282199e-02  5.31946189e-03  4.69500897e-02 
 1.14000000e+10	 5.39449719e-03  4.73602779e-02  9.93821138e-01 -8.43630037e-02  9.93821138e-01 -8.43630037e-02  5.39449719e-03  4.73602779e-02 
 1.15000000e+10	 5.47013692e-03  4.77703331e-02  9.93732547e-01 -8.50976552e-02  9.93732547e-01 -8.50976552e-02  5.47013692e-03  4.77703331e-02 
 1.16000000e+10	 5.54638078e-03  4.81802544e-02  9.93643246e-01 -8.58321733e-02  9.93643246e-01 -8.58321733e-02  5.54638078e-03  4.81802544e-02 
 1.17000000e+10	 5.62322851e-03  4.85900407e-02  9.93553236e-01 -8.65665570e-02  9.93553236e-01 -8.65665570e-02  5.62322851e-03  4.85900407e-02 
 1.18000000e+10	 5.70067981e-03  4.89996910e-02  9.93462516e-01 -8.73008052e-02  9.93462516e-01 -8.73008052e-02  5.70067981e-03  4.89996910e-02 
 1.19000000e+10	 5.77873438e-03  4.94092042e-02  9.93371087e-01 -8.80349171e-02  9.93371087e-01 -8.80349171e-02  5.77873438e-03  4.94092042e-02 
 1.20000000e+10	 5.85739195e-03  4.98185795e-02  9.93278949e-01 -8.87688915e-02  9.93278949e-01 -8.87688915e-02  5.85739195e-03  4.98185795e-02 
 1.21000000e+10	 5.93665221e-03  5.02278156e-02  9.93186103e-01 -8.95027274e-02  9.93186103e-01 -8.95027274e-02  5.93665221e-03  5.02278156e-02 
 1.22000000e+10	 6.01651488e-03  5.06369116e-02  9.93092549e-01 -9.02364238e-02  9.93092549e-01 -9.02364238e-02  6.01651488e-03  5.06369116e-02 
 1.23000000e+10	 6.09697964e-03  5.10458666e-02  9.92998287e-01 -9.09699798e-02  9.92998287e-01 -9.09699798e-02  6.09697964e-03  5.10458666e-02 
 1.24000000e+10	 6.17804621e-03  5.14546794e-02  9.92903317e-01 -9.17033943e-02  9.92903317e-01 -9.17033943e-02  6.17804621e-03  5.14546794e-02 
 1.25000000e+10	 6.25971428e-03  5.18633490e-02  9.92807640e-01 -9.24366663e-02  9.92807640e-01 -9.24366663e-02  6.25971428e-03  5.18633490e-02 
 1.26000000e+10	 6.34198355e-03  5.22718745e-02  9.92711256e-01 -9.31697948e-02  9.92711256e-01 -9.31697948e-02  6.34198355e-03  5.22718745e-02 
 1.27000000e+10	 6.42485371e-03  5.26802548e-02  9.92614165e-01 -9.39027788e-02  9.92614165e-01 -9.39027788e-02  6.42485371e-03  5.26802548e-02 
 1.28000000e+10	 6.50832446e-03  5.30884889e-02  9.92516368e-01 -9.46356173e-02  9.92516368e-01 -9.46356173e-02  6.50832446e-03  5.30884889e-02 
 1.29000000e+10	 6.59239548e-03  5.34965758e-02  9.92417864e-01 -9.53683092e-02  9.92417864e-01 -9.53683092e-02  6.59239548e-03  5.34965758e-02 
 1.30000000e+10	 6.67706646e-03  5.39045145e-02  9.92318655e-01 -9.61008537e-02  9.92318655e-01 -9.61008537e-02  6.67706646e-03  5.39045145e-02 
 1.31000000e+10	 6.76233709e-03  5.43123039e-02  9.92218741e-01 -9.68332496e-02  9.92218741e-01 -9.68332496e-02  6.76233709e-03  5.43123039e-02 
 1.32000000e+10	 6.84820705e-03  5.47199431e-02  9.92118121e-01 -9.75654959e-02  9.92118121e-01 -9.75654959e-02  6.84820705e-03  5.47199431e-02 
 1.33000000e+10	 6.93467602e-03  5.51274310e-02  9.92016796e-01 -9.82975917e-02  9.92016796e-01 -9.82975917e-02  6.93467602e-03  5.51274310e-02 
 1.34000000e+10	 7.02174369e-03  5.55347666e-02  9.91914767e-01 -9.90295360e-02  9.91914767e-01 -9.90295360e-02  7.02174369e-03  5.55347666e-02 
 1.35000000e+10	 7.10940972e-03  5.59419489e-02  9.91812033e-01 -9.97613278e-02  9.91812033e-01 -9.97613278e-02  7.10940972e-03  5.59419489e-02 
 1.36000000e+10	 7.19767380e-03  5.63489770e-02  9.91708596e-01 -1.00492966e-01  9.91708596e-01 -1.00492966e-01  7.19767380e-03  5.63489770e-02 
 1.37000000e+10	 7.28653560e-03  5.67558497e-02  9.91604455e-01 -1.01224450e-01  9.91604455e-01 -1.01224450e-01  7.28653560e-03  5.67558497e-02 
