! Created with skrf (http://scikit-rf.org).
# Hz S RI R 50.0 
!freq ReS11 ImS11 ReS12 ImS12 ReS13 ImS13
! ReS14 ImS14
! ReS21 ImS21 ReS22 ImS22 ReS23 ImS23
! ReS24 ImS24
! ReS31 ImS31 ReS32 ImS32 ReS33 ImS33
! ReS34 ImS34
! ReS41 ImS41 ReS42 ImS42 ReS43 ImS43
! ReS44 ImS44
!
100000000.0 0.0012464771236398442 -0.0001451029012786804 4.0389829998330315e-05 0.001005385937840735 0.9987389514187327 -0.00307267622331228 -3.524434591548149e-05 -0.00012567794532418954
 4.0389829995216445e-05 0.0010053859378515032 0.0012464771235580208 -0.00014510290128621713 -3.5244345912235484e-05 -0.00012567794533380078 0.9987389514188145 -0.003072676223317587
 0.9987389514187326 -0.003072676223261391 -3.524434591552152e-05 -0.00012567794531191765 0.0012464771236400107 -0.00014510290130987768 4.038982999837206e-05 0.0010053859378230702
 -3.524434591227913e-05 -0.00012567794530950486 0.998738951418815 -0.0030726762233603336 4.038982999514022e-05 0.0010053859378422742 0.0012464771235578542 -0.00014510290126787785
775757575.7575758 0.0010461979582215286 -0.001121267257270739 0.00024345986878462116 0.007796932260515501 0.99854905459987 -0.023835592036216095 -5.517000209000535e-05 -0.0009763993570834451
 0.00024345986878102256 0.007796932260543204 0.0010461979581432579 -0.001121267257292489 -5.5170002084631515e-05 -0.0009763993570430064 0.9985490545999476 -0.023835592036211672
 0.9985490545998696 -0.02383559203620792 -5.517000209051924e-05 -0.0009763993570840322 0.0010461979582219172 -0.0011212672572750763 0.00024345986878466244 0.007796932260516186
 -5.517000208480454e-05 -0.0009763993570415428 0.9985490545999475 -0.023835592036218135 0.00024345986878103706 0.007796932260541589 0.0010461979581435354 -0.0011212672572861874
1451515151.5151515 0.0008174524568312913 -0.002089107589263627 0.0007269636240575613 0.01457546143880246 0.9978799427149232 -0.044586978441625895 -9.7535561582985e-05 -0.001829671228827856
 0.0007269636240546755 0.01457546143885499 0.0008174524567566843 -0.0020891075892864232 -9.753556157376069e-05 -0.0018296712287537526 0.997879942714996 -0.04458697844162822
 0.9978799427149232 -0.04458697844162174 -9.753556158289474e-05 -0.0018296712288263708 0.0008174524568311248 -0.002089107589267052 0.0007269636240574278 0.014575461438801274
 -9.753556157380824e-05 -0.0018296712287541978 0.9978799427149967 -0.04458697844162729 0.0007269636240546625 0.014575461438855061 0.0008174524567562957 -0.0020891075892871813
2127272727.2727273 0.000613799849846719 -0.003050985236512791 0.0014896234476155761 0.02132746287794962 0.9966792271326914 -0.06530970095301902 -0.00016223934141436195 -0.0026842663086829592
 0.001489623447614424 0.021327462878026372 0.0006137998497724451 -0.0030509852365401807 -0.00016223934139961797 -0.0026842663085757676 0.9966792271327631 -0.06530970095302836
 0.9966792271326914 -0.0653097009530211 -0.00016223934141418892 -0.002684266308682075 0.000613799849846608 -0.0030509852365113556 0.0014896234476154241 0.02132746287794872
 -0.0001622393414001912 -0.0026842663085760764 0.9966792271327625 -0.06530970095302792 0.0014896234476146234 0.02132746287802675 0.0006137998497726116 -0.003050985236540213
2803030303.030303 0.0006051678528533611 -0.004023045668499307 0.0025276568669001806 0.028034303358493714 0.9947784497742209 -0.08597289316844187 -0.0002471510749190696 -0.0035337677123262407
 0.0025276568669023378 0.028034303358595546 0.0006051678527668192 -0.004023045668540192 -0.00024715107489839796 -0.003533767712185551 0.9947784497743026 -0.08597289316845302
 0.9947784497742209 -0.08597289316844016 -0.0002471510749191806 -0.003533767712325726 0.0006051678528533055 -0.00402304566850276 0.0025276568669001685 0.0280343033584929
 -0.00024715107489815217 -0.0035337677121846474 0.9947784497743029 -0.08597289316845264 0.0025276568669021175 0.028034303358594637 0.0006051678527669302 -0.004023045668539175
3478787878.787879 0.0005542349058679785 -0.004993371741391341 0.0038395923450775396 0.03468820886067654 0.9924173222949562 -0.10657388336975487 -0.00035324123264476686 -0.0043824835432133315
 0.003839592345084084 0.03468820886080246 0.000554234905770612 -0.0049933717414381434 -0.000353241232616562 -0.004382483543039486 0.9924173222950462 -0.10657388336976834
 0.9924173222949555 -0.10657388336975362 -0.000353241232645018 -0.004382483543213608 0.0005542349058682561 -0.00499337174139174 0.0038395923450778562 0.03468820886067679
 -0.0003532412326160756 -0.004382483543039379 0.9924173222950468 -0.10657388336976811 0.003839592345083905 0.034688208860802226 0.0005542349057703344 -0.0049933717414384115
4154545454.5454545 0.00047202515488586894 -0.005961533994348563 0.0054234945002799954 0.041277041038406875 0.9895876846964119 -0.12709864853384203 -0.0004815763981983745 -0.005230206896615876
 0.00542349450029158 0.04127704103855605 0.0004720251547765675 -0.0059615339944004715 -0.0004815763981608418 -0.005230206896408475 0.9895876846965117 -0.1270986485338614
 0.9895876846964127 -0.12709864853384173 -0.0004815763981985881 -0.005230206896616064 0.0004720251548856469 -0.005961533994348242 0.005423494500280093 0.04127704103840736
 -0.00048157639816068275 -0.005230206896409052 0.9895876846965115 -0.12709864853386132 0.005423494500291699 0.04127704103855663 0.00047202515477684504 -0.00596153399440024
4830303030.30303 0.00036144093725476445 -0.006926814056602417 0.007276139631429535 0.04778897518609382 0.9862900747847521 -0.1475336299353003 -0.0006325395081779976 -0.006076854585717158
 0.007276139631447534 0.04778897518626715 0.00036144093713424974 -0.0069268140566632695 -0.0006325395081298094 -0.006076854585477329 0.9862900747848596 -0.14753362993532404
 0.9862900747847524 -0.14753362993529961 -0.0006325395081779264 -0.0060768545857173666 0.00036144093725465343 -0.006926814056603067 0.007276139631429664 0.047788975186094027
 -0.000632539508129524 -0.0060768545854771715 0.98629007478486 -0.1475336299353238 0.0072761396314475705 0.047788975186267 0.00036144093713380565 -0.006926814056663438
5506060606.060606 0.0002226583095721879 -0.007888271628158628 0.009393518975215166 0.054212500275162015 0.982528323145216 -0.1678656983371787 -0.0008063209936042515 -0.0069224328121686145
 0.00939351897524032 0.05421250027535781 0.00022265830943934972 -0.00788827162822461 -0.0008063209935436758 -0.006922432811896112 0.9825283231453319 -0.1678656983372065
 0.9825283231452158 -0.16786569833717874 -0.0008063209936040065 -0.006922432812168446 0.00022265830957202137 -0.007888271628158233 0.009393518975215058 0.05421250027516164
 -0.0008063209935436949 -0.006922432811896047 0.9825283231453321 -0.1678656983372055 0.00939351897524043 0.05421250027535773 0.00022265830943885012 -0.007888271628225176
6181818181.818182 5.589786875848102e-05 -0.008844983975520316 0.011771090595356897 0.060536339393415683 0.9783067630215607 -0.1880819443032402 -0.001003153047891166 -0.007766925150859897
 0.011771090595390624 0.06053633939363505 5.5897868613652424e-05 -0.00884498397559292 -0.0010031530478174728 -0.007766925150555969 0.9783067630216844 -0.18808194430327269
 0.9783067630215605 -0.1880819443032412 -0.0010031530478911766 -0.007766925150860296 5.5897868758814084e-05 -0.008844983975519681 0.01177109059535696 0.06053633939341602
 -0.0010031530478174105 -0.007766925150556176 0.9783067630216845 -0.18808194430327416 0.011771090595390714 0.06053633939363523 5.589786861348589e-05 -0.008844983975592056
6857575757.575758 -0.0001385772002816532 -0.009796049075428767 0.014403795199238352 0.06674947734542235 0.9736302148403754 -0.20816970395555695 -0.0012233074538107727 -0.008610288754417685
 0.014403795199281245 0.06674947734566353 -0.0001385772004388608 -0.009796049075505218 -0.0012233074537220713 -0.008610288754082282 0.9736302148405069 -0.20816970395559542
 0.9736302148403753 -0.208169703955557 -0.0012233074538104808 -0.00861028875441769 -0.0001385772002815422 -0.00979604907542829 0.014403795199238175 0.0667494773454223
 -0.0012233074537221235 -0.008610288754082623 0.9736302148405072 -0.20816970395559548 0.014403795199281373 0.06674947734566394 -0.00013857720043908284 -0.009796049075505263
7533333333.333333 -0.00036046334396988566 -0.01074058854090923 0.017286073585167955 0.07284118701014636 0.9685039691423021 -0.2281165834836734 -0.0014670931137676234 -0.009452450777394764
 0.017286073585221596 0.07284118701040992 -0.0003604633441401939 -0.010740588540991566 -0.0014670931136630356 -0.009452450777028828 0.9685039691424415 -0.228116583483717
 0.9685039691423023 -0.2281165834836736 -0.0014670931137675284 -0.009452450777394695 -0.0003604633439699967 -0.010740588540909226 0.017286073585168014 0.07284118701014641
 -0.0014670931136627572 -0.009452450777028925 0.9685039691424415 -0.22811658348371727 0.017286073585221377 0.07284118701040998 -0.00036046334414013836 -0.01074058854099167
8209090909.090909 -0.0006094191015875716 -0.011677750305966208 0.020411885608774386 0.07880105434661511 0.9629337680325762 -0.24791048229534696 -0.0017348533077288291 -0.010293305044228299
 0.020411885608839185 0.07880105434690021 -0.0006094191017715911 -0.011677750306053482 -0.0017348533076068872 -0.010293305043832307 0.9629337680327237 -0.24791048229539642
 0.9629337680325772 -0.24791048229534624 -0.0017348533077289282 -0.010293305044227964 -0.0006094191015883488 -0.0116777503059668 0.02041188560877441 0.07880105434661483
 -0.0017348533076067389 -0.010293305043831946 0.9629337680327235 -0.24791048229539592 0.020411885608839102 0.07880105434689982 -0.0006094191017712025 -0.01167775030605374
8884848484.848484 -0.0008850677821792274 -0.012606711048123548 0.023774730549007743 0.0846190019494971 0.9569257852714218 -0.2675396147100672 -0.002026962705217318 -0.011132708982116614
 0.023774730549084605 0.08461900194980293 -0.0008850677823755704 -0.01260671104821424 -0.00202696270507631 -0.011132708981690567 0.9569257852715762 -0.2675396147101229
 0.9569257852714219 -0.26753961471006726 -0.002026962705217262 -0.011132708982116329 -0.000885067782179505 -0.012606711048123376 0.02377473054900754 0.08461900194949694
 -0.0020269627050764276 -0.011132708981690703 0.9569257852715762 -0.2675396147101227 0.023774730549084678 0.08461900194980318 -0.0008850677823757924 -0.012606711048214316
9560606060.60606 -0.0011870003282190567 -0.01352667833118772 0.02736766874742787 0.09028531106827246 0.9504866051317281 -0.2869925301083439 -0.002343824159482825 -0.011970480836880433
 0.027367668747517983 0.09028531106859924 -0.0011870003284285557 -0.013526678331281822 -0.002343824159322019 -0.011970480836426064 0.9504866051318901 -0.2869925301084061
 0.9504866051317286 -0.28699253010834386 -0.0023438241594827174 -0.011970480836880435 -0.0011870003282192232 -0.013526678331187529 0.027367668747427878 0.09028531106827245
 -0.002343824159322032 -0.011970480836426031 0.9504866051318894 -0.286992530108406 0.027367668747518076 0.09028531106859919 -0.0011870003284285002 -0.013526678331281752
10236363636.363636 -0.0015147783360942024 -0.01443689245386193 0.031183344388911502 0.0957906420158675 0.9436232001570932 -0.3062581314620276 -0.0026858653132836173 -0.012806397186648232
 0.03118334438901559 0.09579064201621385 -0.0015147783363173017 -0.014436892453959706 -0.0026858653131016427 -0.012806397186165889 0.9436232001572615 -0.3062581314620965
 0.9436232001570933 -0.30625813146202796 -0.002685865313283777 -0.01280639718664825 -0.0015147783360940914 -0.014436892453862132 0.031183344388911557 0.0957906420158676
 -0.002685865313101842 -0.012806397186165906 0.9436232001572613 -0.3062581314620967 0.031183344389015683 0.09579064201621387 -0.0015147783363169132 -0.014436892453959262
10912121212.121212 -0.001867937202465586 -0.015336627993157275 0.03521400928765833 0.10112605290519189 0.9363429079576489 -0.3253256921835317 -0.003053535046632314 -0.013640190764897732
 0.03521400928777725 0.10112605290555757 -0.001867937202701786 -0.015336627993256743 -0.003053535046427696 -0.01364019076438824 0.9363429079578236 -0.32532569218360763
 0.9363429079576484 -0.32532569218353113 -0.003053535046632142 -0.013640190764897845 -0.0018679372024656415 -0.015336627993157294 0.03521400928765836 0.10112605290519192
 -0.0030535350464278082 -0.013640190764388138 0.9363429079578236 -0.32532569218360763 0.035214009287777334 0.10112605290555755 -0.001867937202701897 -0.015336627993256791
11587878787.878788 -0.0022459893650256246 -0.0162251950349781 0.03945154753941775 0.10628301666473303 0.928653407184169 -0.34418487124456787 -0.0034472997973915296 -0.01447154860105392
 0.03945154753955231 0.10628301666511719 -0.0022459893652754803 -0.01622519503507911 -0.003447299797163631 -0.014471548600518054 0.9286534071843504 -0.34418487124465114
 0.9286534071841692 -0.3441848712445681 -0.003447299797391499 -0.014471548601054048 -0.0022459893650256246 -0.01622519503497808 0.0394515475394177 0.10628301666473314
 -0.0034472997971633865 -0.014471548600518117 0.9286534071843504 -0.3441848712446508 0.0394515475395524 0.10628301666511716 -0.002245989365275536 -0.016225195035079312
12263636363.636364 -0.0026484276059577927 -0.01710194008757327 0.04388750089918446 0.11125343629711067 0.9205626928227152 -0.3628257265278759 -0.0038676397857652675 -0.015300110483522535
 0.04388750089933558 0.11125343629751248 -0.0026484276062209156 -0.017101940087675124 -0.003867639785512561 -0.015300110482960816 0.920562692822902 -0.36282572652796663
 0.9205626928227149 -0.3628257265278766 -0.0038676397857653503 -0.015300110483522547 -0.0026484276059575707 -0.017101940087573066 0.043887500899184646 0.11125343629711061
 -0.0038676397855123635 -0.015300110482961125 0.9205626928229024 -0.3628257265279663 0.04388750089933565 0.11125343629751275 -0.0026484276062210266 -0.017101940087675422
12939393939.39394 -0.0030747283866184305 -0.017966246676904527 0.04851309474319365 0.11602965835715973 0.9120790509525953 -0.381238726388072 -0.00431504517348098 -0.016125467746780024
 0.04851309474336191 0.11602965835757872 -0.0030747283868952646 -0.01796624667700786 -0.004315045173202517 -0.01612546774619386 0.9120790509527885 -0.3812387263881703
 0.9120790509525951 -0.38123872638807277 -0.004315045173481009 -0.016125467746780045 -0.003074728386618153 -0.017966246676904038 0.04851309474319367 0.1160296583571598
 -0.004315045173202252 -0.016125467746194232 0.9120790509527889 -0.38123872638817025 0.04851309474336192 0.11602965835757896 -0.0030747283868953756 -0.017966246677007934
13615151515.151516 -0.003524355182495331 -0.01881753562614815 0.053319264474849935 0.1206044846385126 0.9032110331097305 -0.39941475941028814 -0.004790012187896989 -0.01694716238099976
 0.05331926447503604 0.12060448463894788 -0.003524355182786043 -0.018817535626251908 -0.00479001218759148 -0.01694716238039 0.9032110331099292 -0.39941475941039417
 0.9032110331097302 -0.3994147594102881 -0.004790012187896835 -0.0169471623809999 -0.003524355182494998 -0.018817535626148078 0.0533192644748499 0.12060448463851267
 -0.004790012187591182 -0.016947162380390204 0.9032110331099292 -0.39941475941039434 0.05331926447503607 0.12060448463894793 -0.003524355182786154 -0.018817535626251568
14290909090.90909 -0.003996761788385539 -0.019655265024630976 0.0582966822361953 0.12497118206972044 0.8939674303956182 -0.4173451423673664 -0.005293039240334604 -0.01776468645968013
 0.0582966822363999 0.12497118207017113 -0.003996761788689851 -0.019655265024733637 -0.005293039240000928 -0.01776468645904778 0.8939674303958224 -0.41734514236748105
 0.8939674303956184 -0.4173451423673662 -0.005293039240334418 -0.017764686459679997 -0.003996761788385872 -0.019655265024631125 0.058296682236195246 0.12497118206972027
 -0.005293039240001023 -0.017764686459047718 0.8939674303958223 -0.4173451423674805 0.058296682236399874 0.12497118207017102 -0.0039967617886901285 -0.01965526502473392
14966666666.666666 -0.004491395564928613 -0.020478929894383092 0.06343578378956974 0.12912349083253338 0.8843572474691773 -0.4350216263880505 -0.005824623066722774 -0.018577481877937126
 0.06343578378979339 0.12912349083299868 -0.004491395565246192 -0.020478929894485038 -0.005824623066360328 -0.018577481877283003 0.8843572474693862 -0.4350216263881732
 0.8843572474691769 -0.4350216263880504 -0.005824623066722923 -0.018577481877937067 -0.004491395564928169 -0.02047892989438304 0.06343578378956968 0.1291234908325334
 -0.005824623066360327 -0.018577481877283152 0.8843572474693866 -0.4350216263881733 0.0634357837897935 0.1291234908329988 -0.004491395565246525 -0.020478929894484774
15642424242.424242 -0.005007700599093334 -0.0212880615651644 0.06872679543820427 0.13305563072598237 0.8743896765547348 -0.45243640135972263 -0.006385254917132157 -0.019384940391499225
 0.06872679543844769 0.1330556307264616 -0.005007700599424902 -0.021288061565265012 -0.006385254916739635 -0.01938494039082461 0.8743896765549489 -0.4524364013598539
 0.8743896765547348 -0.45243640135972285 -0.006385254917132074 -0.01938494039149943 -0.005007700599093279 -0.021288061565164173 0.06872679543820429 0.1330556307259826
 -0.00638525491673976 -0.019384940390824532 0.8743896765549488 -0.452436401359854 0.0687267954384478 0.13305563072646154 -0.005007700599424902 -0.021288061565264905
16318181818.181818 -0.005545120752950661 -0.022082226771262474 0.074159760859481 0.13676230581025514 0.8640740715945623 -0.4695820985996672 -0.0069754168190421136 -0.020186403944093184
 0.07415976085974485 0.13676230581074705 -0.0055451207532956626 -0.022082226771360635 -0.006975416818618875 -0.020186403943398837 0.864074071594781 -0.4695820985998077
 0.8640740715945626 -0.46958209859966726 -0.006975416819042523 -0.020186403944092955 -0.005545120752951049 -0.022082226771262495 0.07415976085948112 0.13676230581025506
 -0.006975416818619155 -0.020186403943398767 0.864074071594781 -0.4695820985998075 0.07415976085974485 0.1367623058107471 -0.005545120753295718 -0.022082226771360618
16993939393.939394 -0.006103102576955899 -0.022861026485550023 0.07972456773043332 0.14023870737397948 0.8534199226685981 -0.4864517918385728 -0.007595577937235054 -0.02098116526878261
 0.07972456773071773 0.14023870737448335 -0.006103102577314168 -0.022861026485645884 -0.007595577936780004 -0.020981165268069802 0.853419922668821 -0.4864517918387221
 0.8534199226685981 -0.48645179183857346 -0.007595577937234987 -0.0209811652687826 -0.006103102576955788 -0.02286102648554969 0.07972456773043321 0.14023870737397948
 -0.007595577936780031 -0.02098116526807 0.8534199226688213 -0.48645179183872234 0.07972456773071787 0.14023870737448346 -0.006103102577314168 -0.022861026485645614
17669696969.696968 -0.006681098066084745 -0.02362409450820432 0.08541097403161879 0.14348051527734423 0.8424368307975595 -0.5030389965688835 -0.008246191051087998 -0.02176846874701212
 0.08541097403192463 0.14348051527785927 -0.006681098066455726 -0.023624094508297264 -0.008246191050600241 -0.021768468746281522 0.842436830797786 -0.5030389965690415
 0.8424368307975589 -0.5030389965688833 -0.008246191051087988 -0.021768468747012 -0.006681098066084523 -0.023624094508204498 0.08541097403161874 0.14348051527734407
 -0.008246191050600295 -0.021768468746281754 0.8424368307977868 -0.5030389965690417 0.08541097403192476 0.1434805152778595 -0.006681098066455948 -0.023624094508297097
18345454545.454544 -0.007278567239384914 -0.024371095829127394 0.09120863392270159 0.14648389773145398 0.8311344832385366 -0.5193376678187125 -0.008927689167797969 -0.022547511507536044
 0.09120863392302934 0.14648389773197928 -0.007278567239769995 -0.02437109582921678 -0.008927689167277007 -0.022547511506789658 0.8311344832387673 -0.5193376678188806
 0.8311344832385368 -0.5193376678187126 -0.008927689167798146 -0.022547511507535953 -0.007278567239385303 -0.024371095829127255 0.09120863392270165 0.14648389773145393
 -0.00892768916727693 -0.022547511506789467 0.8311344832387673 -0.5193376678188806 0.09120863392302916 0.14648389773197917 -0.007278567239769773 -0.02437109582921678
19021212121.21212 -0.007894980525832762 -0.025101724784455097 0.0971071230907814 0.14924550958139893 0.8195226293745647 -0.5353421964192193 -0.009640482287718487 -0.0233174447461799
