! Created with skrf (http://scikit-rf.org).
# Hz S RI R 50.0 
!freq ReS11 ImS11 ReS12 ImS12 ReS13 ImS13
! ReS14 ImS14
! ReS21 ImS21 ReS22 ImS22 ReS23 ImS23
! ReS24 ImS24
! ReS31 ImS31 ReS32 ImS32 ReS33 ImS33
! ReS34 ImS34
! ReS41 ImS41 ReS42 ImS42 ReS43 ImS43
! ReS44 ImS44
!
100000000.0 0.001246477123646783 -0.00014510290129382498 4.038983001237413e-05 0.0010053859378186217 0.9987389514187256 -0.003072676223310258 -3.5244345929398974e-05 -0.00012567794532142588
 4.038982997142161e-05 0.0010053859378289134 0.0012464771235947136 -0.0001451029012575905 -3.5244345888569255e-05 -0.00012567794531001303 0.9987389514187779 -0.0030726762233453547
 0.9987389514187259 -0.0030726762232977482 -3.5244345929440106e-05 -0.0001256779453319715 0.001246477123646783 -0.00014510290131506754 4.0389830012380674e-05 0.001005385937837986
 -3.5244345888295534e-05 -0.00012567794530544762 0.9987389514187783 -0.003072676223331116 4.038982997145392e-05 0.0010053859378394152 0.0012464771235946026 -0.00014510290126781692
775757575.7575758 0.0010461979582279124 -0.001121267257290599 0.000243459868803236 0.007796932260496686 0.9985490545998632 -0.02383559203621267 -5.517000210987893e-05 -0.0009763993571020478
 0.00024345986874855594 0.007796932260549372 0.0010461979581787295 -0.0011212672572900643 -5.5170002052069434e-05 -0.0009763993570424626 0.9985490545999127 -0.023835592036205645
 0.9985490545998634 -0.023835592036218836 -5.517000210991645e-05 -0.0009763993570968529 0.0010461979582278569 -0.0011212672572877016 0.00024345986880318577 0.007796932260491583
 -5.5170002052359254e-05 -0.0009763993570436816 0.9985490545999132 -0.02383559203621184 0.00024345986874883073 0.007796932260551327 0.0010461979581783964 -0.0011212672572840322
1451515151.5151515 0.0008174524568367869 -0.0020891075892786777 0.0007269636240798889 0.014575461438761275 0.9978799427149168 -0.04458697844163578 -9.753556160895275e-05 -0.0018296712288578404
 0.0007269636240140335 0.014575461438865994 0.0008174524567902686 -0.002089107589272423 -9.753556153221825e-05 -0.001829671228749327 0.9978799427149638 -0.04458697844162779
 0.9978799427149161 -0.0445869784416361 -9.753556160874527e-05 -0.0018296712288557613 0.0008174524568369534 -0.002089107589277616 0.0007269636240799025 0.014575461438759487
 -9.753556153230153e-05 -0.001829671228750605 0.9978799427149638 -0.04458697844162205 0.0007269636240140466 0.014575461438867326 0.0008174524567901575 -0.002089107589277965
2127272727.2727273 0.000613799849851715 -0.0030509852365327435 0.0014896234476406527 0.021327462877887275 0.9966792271326848 -0.06530970095303115 -0.00016223934144668904 -0.002684266308725054
 0.0014896234475659945 0.021327462878044184 0.0006137998498059183 -0.003050985236529037 -0.0001622393413492683 -0.002684266308568956 0.9966792271327316 -0.06530970095302178
 0.9966792271326849 -0.06530970095303054 -0.00016223934144693865 -0.0026842663087268525 0.0006137998498517705 -0.0030509852365330882 0.0014896234476407502 0.021327462877889038
 -0.000162239341349543 -0.002684266308569894 0.9966792271327313 -0.06530970095302288 0.001489623447566118 0.02132746287804473 0.0006137998498061403 -0.0030509852365284812
2803030303.030303 0.0006051678528580795 -0.004023045668528738 0.002527656866926746 0.028034303358413865 0.9947784497742131 -0.0859728931684533 -0.0002471510749583042 -0.0035337677123831804
 0.0025276568668472603 0.028034303358620324 0.0006051678528066207 -0.004023045668520754 -0.0002471510748401153 -0.003533767712177939 0.9947784497742669 -0.08597289316844507
 0.9947784497742136 -0.08597289316845261 -0.0002471510749582959 -0.0035337677123830685 0.0006051678528583571 -0.004023045668529392 0.002527656866926678 0.02803430335841363
 -0.00024715107484005763 -0.0035337677121781595 0.9947784497742668 -0.08597289316844502 0.002527656866847295 0.02803430335862047 0.0006051678528064541 -0.004023045668521226
3478787878.787879 0.0005542349058730855 -0.004993371741424438 0.003839592345104316 0.03468820886057726 0.9924173222949467 -0.10657388336976972 -0.00035324123269069583 -0.004382483543283848
 0.003839592345023647 0.034688208860834416 0.0005542349058152984 -0.004993371741416442 -0.0003532412325509901 -0.004382483543030785 0.992417322295007 -0.1065738833697581
 0.9924173222949471 -0.10657388336976958 -0.0003532412326909979 -0.004382483543284318 0.000554234905872919 -0.004993371741425513 0.003839592345104355 0.03468820886057765
 -0.0003532412325509527 -0.004382483543030351 0.9924173222950075 -0.10657388336975998 0.003839592345023858 0.03468820886083421 0.0005542349058150764 -0.004993371741414681
4154545454.5454545 0.00047202515488981023 -0.005961533994388729 0.005423494500305836 0.04127704103828886 0.9895876846964025 -0.12709864853386288 -0.0004815763982515105 -0.005230206896699685
 0.0054234945002267065 0.04127704103859548 0.00047202515482758223 -0.005961533994374376 -0.0004815763980885458 -0.005230206896399743 0.9895876846964684 -0.12709864853385078
 0.9895876846964016 -0.12709864853386443 -0.0004815763982518001 -0.0052302068966987095 0.0004720251548905874 -0.005961533994386881 0.005423494500305872 0.04127704103828783
 -0.00048157639808853864 -0.005230206896400083 0.9895876846964686 -0.1270986485338507 0.0054234945002266145 0.04127704103859571 0.00047202515482713814 -0.005961533994375599
4830303030.30303 0.0003614409372589833 -0.006926814056648077 0.007276139631453609 0.04778897518595606 0.9862900747847405 -0.1475336299353252 -0.0006325395082389173 -0.006076854585813145
 0.0072761396313780966 0.04778897518631366 0.00036144093718964987 -0.006926814056635671 -0.0006325395080502925 -0.0060768545854678144 0.9862900747848145 -0.147533629935309
 0.9862900747847403 -0.1475336299353242 -0.0006325395082390245 -0.006076854585813226 0.0003614409372588723 -0.00692681405664846 0.007276139631453734 0.047788975185956276
 -0.0006325395080501725 -0.006076854585467535 0.9862900747848137 -0.14753362993530966 0.007276139631378079 0.047788975186313434 0.0003614409371899274 -0.006926814056635236
5506060606.060606 0.0002226583095750745 -0.007888271628210078 0.009393518975236728 0.05421250027500439 0.9825283231452029 -0.16786569833720644 -0.0008063209936733965 -0.00692243281227641
 0.009393518975166666 0.05421250027541161 0.00022265830950157772 -0.007888271628193276 -0.0008063209934574054 -0.006922432811886417 0.9825283231452828 -0.16786569833719034
 0.9825283231452028 -0.1678656983372061 -0.0008063209936733904 -0.006922432812276273 0.00022265830957529653 -0.007888271628210378 0.009393518975236671 0.05421250027500428
 -0.0008063209934571671 -0.006922432811886269 0.9825283231452828 -0.16786569833719123 0.009393518975166715 0.0542125002754114 0.00022265830950163323 -0.00788827162819233
6181818181.818182 5.589786876053493e-05 -0.008844983975579477 0.011771090595375167 0.0605363393932396 0.9783067630215461 -0.18808194430327096 -0.0010031530479691956 -0.007766925150979877
 0.011771090595312842 0.06053633939369523 5.589786868204216e-05 -0.008844983975558116 -0.001003153047723532 -0.007766925150545919 0.9783067630216327 -0.188081944303255
 0.9783067630215458 -0.1880819443032724 -0.0010031530479690841 -0.007766925150979379 5.589786876097902e-05 -0.008844983975578624 0.011771090595375167 0.060536339393239214
 -0.001003153047723451 -0.007766925150545986 0.978306763021633 -0.18808194430325395 0.01177109059531287 0.06053633939369546 5.589786868182012e-05 -0.008844983975559079
6857575757.575758 -0.0001385772002805985 -0.009796049075492185 0.014403795199252317 0.06674947734522657 0.9736302148403593 -0.2081697039555921 -0.0012233074538980735 -0.008610288754548659
 0.01440379519919998 0.06674947734573172 -0.00013857720036458687 -0.009796049075468823 -0.0012233074536208502 -0.008610288754072676 0.9736302148404523 -0.20816970395557485
 0.9736302148403586 -0.20816970395559178 -0.001223307453897973 -0.00861028875454858 -0.0001385772002801544 -0.009796049075492563 0.014403795199252351 0.06674947734522654
 -0.0012233074536210139 -0.008610288754072545 0.9736302148404526 -0.20816970395557466 0.01440379519920007 0.06674947734573163 -0.0001385772003642538 -0.009796049075468712
7533333333.333333 -0.00036046334397027424 -0.010740588540979652 0.01728607358517736 0.07284118700993206 0.9685039691422839 -0.2281165834837121 -0.0014670931138649158 -0.009452450777536738
 0.017286073585136764 0.07284118701048509 -0.00036046334405853697 -0.010740588540951355 -0.001467093113554529 -0.009452450777019374 0.9685039691423838 -0.22811658348369468
 0.9685039691422839 -0.22811658348371147 -0.0014670931138645155 -0.009452450777536366 -0.00036046334397032975 -0.010740588540980117 0.017286073585177208 0.07284118700993172
 -0.001467093113554396 -0.009452450777019797 0.9685039691423847 -0.22811658348369374 0.017286073585136928 0.07284118701048542 -0.0003604633440591476 -0.010740588540952766
8209090909.090909 -0.0006094191015899586 -0.011677750306043861 0.020411885608777856 0.07880105434638182 0.9629337680325561 -0.2479104822953887 -0.0017348533078363746 -0.010293305044380672
 0.020411885608751623 0.07880105434698256 -0.000609419101683828 -0.011677750306012973 -0.0017348533074909747 -0.010293305043823274 0.9629337680326638 -0.24791048229537138
 0.9629337680325567 -0.24791048229538926 -0.0017348533078363712 -0.010293305044380632 -0.0006094191015900696 -0.011677750306043323 0.02041188560877797 0.07880105434638168
 -0.0017348533074907945 -0.010293305043823548 0.9629337680326641 -0.2479104822953716 0.020411885608751557 0.07880105434698276 -0.0006094191016836059 -0.011677750306013118
8884848484.848484 -0.0008850677821831687 -0.012606711048206397 0.02377473054900464 0.08461900194924524 0.9569257852714002 -0.2675396147101122 -0.0020269627053354795 -0.011132708982279022
 0.023774730548994413 0.08461900194989372 -0.0008850677822816455 -0.01260671104817253 -0.0020269627049530007 -0.011132708981683108 0.9569257852715147 -0.2675396147100945
 0.9569257852714002 -0.2675396147101118 -0.002026962705335514 -0.011132708982279305 -0.0008850677821830022 -0.012606711048206475 0.023774730549004745 0.08461900194924551
 -0.0020269627049529304 -0.011132708981683042 0.9569257852715143 -0.2675396147100959 0.02377473054899431 0.08461900194989366 -0.0008850677822809239 -0.012606711048171407
9560606060.60606 -0.0011870003282251074 -0.013526678331276425 0.027367668747417813 0.09028531106800303 0.9504866051317047 -0.28699253010839254 -0.002343824159612254 -0.011970480837052957
 0.027367668747425345 0.09028531106869689 -0.0011870003283269148 -0.013526678331238098 -0.0023438241591911295 -0.011970480836419772 0.9504866051318257 -0.28699253010837555
 0.9504866051317042 -0.28699253010839265 -0.0023438241596123437 -0.01197048083705277 -0.0011870003282247188 -0.013526678331275948 0.027367668747417757 0.09028531106800292
 -0.002343824159191164 -0.011970480836419706 0.9504866051318257 -0.2869925301083762 0.02736766874742528 0.0902853110686969 -0.0011870003283270814 -0.013526678331237444
10236363636.363636 -0.001514778336101752 -0.01443689245395625 0.0311833443888934 0.09579064201558013 0.943623200157067 -0.30625813146208036 -0.0026858653134249153 -0.012806397186829882
 0.03118334438892098 0.09579064201631923 -0.0015147783362080003 -0.014436892453913459 -0.002685865312963577 -0.012806397186161177 0.9436232001571951 -0.30625813146206415
 0.9436232001570667 -0.3062581314620799 -0.0026858653134249925 -0.012806397186829886 -0.0015147783361014189 -0.01443689245395632 0.03118334438889364 0.0957906420155801
 -0.0026858653129632963 -0.01280639718616124 0.9436232001571954 -0.30625813146206426 0.03118334438892092 0.0957906420163192 -0.0015147783362081668 -0.014436892453913226
10912121212.121212 -0.001867937202475911 -0.015336627993257648 0.0352140092876317 0.10112605290488719 0.9363429079576203 -0.3253256921835875 -0.0030535350467854566 -0.013640190765088316
 0.035214009287680814 0.10112605290567078 -0.0018679372025864893 -0.01533662799321122 -0.0030535350462816352 -0.013640190764385145 0.9363429079577554 -0.3253256921835716
 0.9363429079576193 -0.32532569218358787 -0.0030535350467853057 -0.013640190765088234 -0.001867937202475467 -0.015336627993257053 0.03521400928763162 0.10112605290488716
 -0.003053535046282036 -0.013640190764385355 0.9363429079577552 -0.3253256921835723 0.03521400928768101 0.10112605290567106 -0.0018679372025862118 -0.015336627993210734
11587878787.878788 -0.0022459893650383367 -0.01622519503508412 0.03945154753938163 0.10628301666441123 0.9286534071841384 -0.34418487124462716 -0.0034472997975571362 -0.014471548601252835
 0.039451547539454616 0.10628301666523801 -0.002245989365152301 -0.016225195035032534 -0.0034472997970100977 -0.014471548600517213 0.9286534071842802 -0.3441848712446136
 0.9286534071841379 -0.34418487124462693 -0.003447299797557122 -0.014471548601252819 -0.002245989365038281 -0.01622519503508406 0.03945154753938164 0.1062830166644112
 -0.0034472997970098674 -0.01447154860051713 0.9286534071842807 -0.3441848712446136 0.03945154753945446 0.10628301666523793 -0.002245989365152856 -0.016225195035032596
12263636363.636364 -0.0026484276059726697 -0.01710194008768425 0.04388750089913851 0.1112534362967722 0.9205626928226811 -0.3628257265279388 -0.003867639785943588 -0.015300110483728944
 0.04388750089923647 0.11125343629764078 -0.002648427606090964 -0.01710194008762991 -0.003867639785351119 -0.015300110482962846 0.9205626928228304 -0.3628257265279262
 0.9205626928226809 -0.36282572652793843 -0.003867639785943647 -0.015300110483728997 -0.002648427605972725 -0.01710194008768441 0.04388750089913848 0.11125343629677226
 -0.003867639785351774 -0.01530011048296261 0.9205626928228301 -0.3628257265279271 0.043887500899236626 0.11125343629764076 -0.0026484276060907974 -0.01710194008762861
12939393939.39394 -0.0030747283866361386 -0.017966246677021482 0.04851309474313681 0.11602965835680501 0.9120790509525589 -0.38123872638813794 -0.004315045173672604 -0.016125467746993985
 0.04851309474326215 0.11602965835771487 -0.0030747283867577635 -0.017966246676961544 -0.004315045173033662 -0.016125467746198458 0.912079050952715 -0.3812387263881278
 0.9120790509525588 -0.38123872638813805 -0.004315045173672524 -0.016125467746994075 -0.003074728386636194 -0.01796624667702109 0.04851309474313675 0.1160296583568051
 -0.004315045173033849 -0.016125467746198198 0.912079050952715 -0.3812387263881283 0.04851309474326215 0.11602965835771481 -0.0030747283867578745 -0.017966246676961197
13615151515.151516 -0.003524355182516037 -0.018817535626270712 0.053319264474781955 0.12060448463814241 0.9032110331096904 -0.3994147594103577 -0.004790012188102084 -0.016947162381220418
 0.05331926447493576 0.12060448463909139 -0.003524355182640826 -0.018817535626204973 -0.004790012187415307 -0.016947162380397267 0.903211033109854 -0.39941475941035043
 0.903211033109691 -0.39941475941035776 -0.004790012188101756 -0.016947162381220356 -0.00352435518251637 -0.018817535626270636 0.05331926447478183 0.12060448463814227
 -0.004790012187415053 -0.01694716238039739 0.9032110331098543 -0.39941475941035 0.05331926447493587 0.12060448463909139 -0.00352435518264127 -0.01881753562620535
14290909090.90909 -0.003996761788410297 -0.019655265024758242 0.05829668223611506 0.12497118206933489 0.8939674303955759 -0.41734514236743914 -0.005293039240553297 -0.017764686459907073
 0.05829668223629933 0.12497118207032198 -0.003996761788537584 -0.019655265024688333 -0.005293039239817298 -0.017764686459058543 0.8939674303957457 -0.41734514236743414
 0.8939674303955756 -0.41734514236743925 -0.005293039240553405 -0.017764686459906955 -0.003996761788409853 -0.019655265024758502 0.05829668223611517 0.12497118206933483
 -0.0052930392398177085 -0.017764686459058543 0.8939674303957457 -0.4173451423674341 0.05829668223629948 0.12497118207032208 -0.0039967617885379725 -0.01965526502468838
14966666666.666666 -0.0044913955649558135 -0.020478929894515933 0.06343578378947695 0.12912349083213298 0.884357247469131 -0.435021626388127 -0.005824623066955744 -0.018577481878169686
 0.06343578378969317 0.12912349083315722 -0.00449139556508682 -0.020478929894440633 -0.005824623066169267 -0.018577481877297332 0.8843572474693082 -0.43502162638812386
 0.884357247469131 -0.4350216263881268 -0.005824623066955786 -0.018577481878169738 -0.0044913955649555914 -0.02047892989451591 0.06343578378947688 0.1291234908321331
 -0.0058246230661693175 -0.018577481877297276 0.8843572474693082 -0.4350216263881244 0.06343578378969315 0.12912349083315722 -0.004491395565086653 -0.02047892989444032
15642424242.424242 -0.005007700599124532 -0.021288061565302364 0.06872679543809831 0.13305563072556795 0.8743896765546854 -0.4524364013598022 -0.006385254917379374 -0.019384940391737247
 0.068726795438348 0.13305563072662732 -0.005007700599257703 -0.021288061565221728 -0.006385254916541343 -0.01938494039084284 0.8743896765548689 -0.45243640135980256
 0.8743896765546855 -0.45243640135980256 -0.006385254917379429 -0.01938494039173716 -0.005007700599124532 -0.021288061565301997 0.06872679543809833 0.1330556307255678
 -0.006385254916541171 -0.019384940390842997 0.8743896765548694 -0.45243640135980245 0.06872679543834787 0.13305563072662752 -0.005007700599257925 -0.021288061565222175
16318181818.181818 -0.005545120752984856 -0.022082226771405297 0.0741597608593616 0.13676230580982712 0.8640740715945089 -0.46958209859975075 -0.006975416819304099 -0.02018640394433536
 0.07415976085964587 0.13676230581092025 -0.005545120753121302 -0.02208222677131974 -0.0069754168184131835 -0.02018640394342121 0.8640740715946997 -0.4695820985997544
 0.8640740715945092 -0.46958209859975064 -0.006975416819304057 -0.020186403944335313 -0.005545120752985466 -0.02208222677140508 0.0741597608593616 0.136762305809827
 -0.00697541681841316 -0.02018640394342125 0.8640740715946997 -0.4695820985997543 0.07415976085964582 0.1367623058109203 -0.0055451207531213575 -0.02208222677131995
16993939393.939394 -0.006103102576994313 -0.022861026485697176 0.0797245677302994 0.14023870737353833 0.8534199226685415 -0.4864517918386594 -0.007595577937511462 -0.020981165269029274
 0.07972456773061974 0.14023870737466376 -0.006103102577132258 -0.02286102648560691 -0.007595577936566763 -0.020981165268096732 0.8534199226687385 -0.48645179183866627
 0.8534199226685413 -0.48645179183865894 -0.007595577937511868 -0.020981165269029038 -0.0061031025769939795 -0.022861026485697815 0.0797245677302995 0.14023870737353822
 -0.007595577936566795 -0.020981165268096756 0.8534199226687389 -0.4864517918386664 0.07972456773061974 0.1402387073746638 -0.006103102577132591 -0.0228610264856069
17669696969.696968 -0.006681098066127156 -0.02362409450835687 0.08541097403147023 0.1434805152768906 0.8424368307974989 -0.5030389965689724 -0.008246191051379626 -0.02176846874726225
 0.08541097403182771 0.14348051527804645 -0.00668109806626721 -0.023624094508260935 -0.008246191050380061 -0.02176846874631369 0.8424368307977028 -0.5030389965689834
 0.8424368307974988 -0.5030389965689728 -0.008246191051379675 -0.021768468747262164 -0.006681098066126823 -0.02362409450835666 0.08541097403147027 0.1434805152768906
 -0.008246191050379973 -0.02176846874631382 0.8424368307977026 -0.5030389965689832 0.08541097403182765 0.14348051527804653 -0.006681098066267321 -0.023624094508261147
18345454545.454544 -0.007278567239431766 -0.024371095829284282 0.09120863392253789 0.14648389773098835 0.8311344832384715 -0.5193376678188056 -0.00892768916810499 -0.022547511507789275
 0.09120863392293385 0.14648389773217352 -0.007278567239573597 -0.02437109582918328 -0.008927689167049484 -0.02254751150682653 0.831134483238682 -0.5193376678188203
 0.8311344832384715 -0.5193376678188057 -0.00892768916810497 -0.02254751150778934 -0.007278567239431766 -0.024371095829284282 0.09120863392253796 0.14648389773098833
 -0.008927689167049491 -0.022547511506826552 0.8311344832386824 -0.5193376678188206 0.09120863392293399 0.14648389773217346 -0.007278567239573819 -0.024371095829183058
19021212121.21212 -0.00789498052588311 -0.025101724784616176 0.0971071230906021 0.1492455095809221 0.8195226293744949 -0.535342196419315 -0.009640482288041034 -0.023317444746435618
