! Created with skrf (http://scikit-rf.org).
# Hz S RI R 50.0 
!freq ReS11 ImS11 ReS21 ImS21 ReS12 ImS12 ReS22 ImS22
100000000.0 5.538443164676554e-05 -9.15696913916539e-05 0.9999424116501592 -0.0006025743918886338 0.9999424116501592 -0.000602574392045435 5.538443164659901e-05 -9.156969145213286e-05
200000000.0 5.38045141769139e-05 -0.00018313744351718337 0.9999413058101436 -0.0012051476193975976 0.9999413058101438 -0.0012051476194055058 5.380451417696941e-05 -0.0001831374435923162
300000000.0 5.2114256614610444e-05 -0.00027470312156396273 0.9999398284752312 -0.0018077194386568476 0.9999398284752308 -0.0018077194386109533 5.211425661433289e-05 -0.00027470312152359853
400000000.0 5.031366174684804e-05 -0.00036626659086166067 0.9999379796472887 -0.0024102896054872956 0.9999379796472886 -0.0024102896054990614 5.0313661746681504e-05 -0.0003662665909046998
500000000.0 4.8402732528318726e-05 -0.00045782771702543214 0.9999357593283722 -0.0030128578759723093 0.9999357593283718 -0.0030128578759915864 4.840273252804117e-05 -0.00045782771702077615
600000000.0 5.1344703219269316e-05 -0.0005494015843330658 0.9999282042752351 -0.003615408787128188 0.9999282042752349 -0.0036154087871291328 5.134470321943585e-05 -0.0005494015843378185
700000000.0 5.417628246617845e-05 -0.0006409779122198154 0.9999202777889373 -0.004217952240920405 0.9999202777889373 -0.00421795224089865 5.4176282466456005e-05 -0.0006409779122036282
800000000.0 5.689746845966015e-05 -0.0007325565660324402 0.9999119798749708 -0.00482048799338732 0.9999119798749709 -0.004820487993403045 5.689746845971566e-05 -0.0007325565660464503
900000000.0 5.950825955691741e-05 -0.0008241374112581815 0.9999033105390153 -0.005423015800566622 0.9999033105390152 -0.005423015800577009 5.9508259556806387e-05 -0.000824137411268828
1000000000.0 6.200865428318547e-05 -0.0009157203132289699 0.9998942697869364 -0.006025535418481739 0.9998942697869364 -0.006025535418489056 6.20086542832965e-05 -0.0009157203132391097
1100000000.0 6.225831897832546e-05 -0.0010072931055483954 0.9998869979779414 -0.006628058635238649 0.9998869979779418 -0.006628058635254568 6.225831897821443e-05 -0.0010072931055640012
1200000000.0 6.239763189869185e-05 -0.0010988654981291667 0.9998793547259816 -0.007230575362243817 0.9998793547259818 -0.007230575362242354 6.239763189880287e-05 -0.0010988654981298157
1300000000.0 6.242659434491094e-05 -0.0011904373564393727 0.999871340036244 -0.007833085355418951 0.9998713400362439 -0.007833085355424438 6.24265943447444e-05 -0.0011904373564419197
1400000000.0 6.234520778342079e-05 -0.0012820085459442402 0.9998629539141024 -0.008435588370825798 0.9998629539141024 -0.008435588370815622 6.234520778353181e-05 -0.00128200854593644
1500000000.0 6.215347384991299e-05 -0.0013735789321492676 0.9998541963651182 -0.009038084164387304 0.9998541963651184 -0.009038084164398455 6.215347385019054e-05 -0.0013735789321562735
1600000000.0 6.185139434755627e-05 -0.0014651483805477954 0.9998450673950396 -0.009640572492141019 0.9998450673950393 -0.00964057249214472 6.185139434700115e-05 -0.0014651483805521203
1700000000.0 6.143897124533115e-05 -0.0015567167566175166 0.9998355670098011 -0.010243053110031576 0.9998355670098013 -0.010243053110056214 6.143897124527564e-05 -0.001556716756642148
1800000000.0 6.091620668180475e-05 -0.0016482839258958933 0.9998256952155253 -0.010845525774142124 0.9998256952155251 -0.010845525774130284 6.0916206681971286e-05 -0.0016482839258855698
1900000000.0 6.028310296307682e-05 -0.0017398497538095394 0.9998154520185201 -0.011447990240419197 0.9998154520185203 -0.01144799024041955 6.028310296363193e-05 -0.0017398497538114717
2000000000.0 5.953966256277976e-05 -0.0018314141059095185 0.9998048374252824 -0.012050446264880148 0.9998048374252819 -0.012050446264879798 5.953966256233567e-05 -0.0018314141059089023
2100000000.0 5.8685888120246776e-05 -0.0019229768476857652 0.9997938514424938 -0.012652893603568605 0.9997938514424936 -0.012652893603566338 5.868588812008024e-05 -0.0019229768476894322
2200000000.0 5.772178244539683e-05 -0.0020145378446192927 0.9997824940770242 -0.013255332012507729 0.9997824940770241 -0.013255332012508832 5.7721782445119274e-05 -0.0020145378446254896
2300000000.0 5.664734851323905e-05 -0.002106096962297272 0.9997707653359307 -0.01385776124770316 0.9997707653359307 -0.01385776124770396 5.664734851323905e-05 -0.0021060969622979544
2400000000.0 5.546258946848015e-05 -0.0021976540661851765 0.9997586652264563 -0.014460181065210074 0.9997586652264562 -0.01446018106521204 5.546258946836913e-05 -0.0021976540661872664
2500000000.0 5.416750862219377e-05 -0.0022892090218130244 0.9997461937560312 -0.015062591221062602 0.999746193756031 -0.015062591221072327 5.4167508621916216e-05 -0.0022892090218244025
2600000000.0 5.276210945287518e-05 -0.002380761694724479 0.999733350932273 -0.015664991471326405 0.9997333509322728 -0.015664991471331886 5.276210945276416e-05 -0.0023807616947305672
2700000000.0 5.1246395606829864e-05 -0.0024723119504406837 0.9997201367629853 -0.016267381572042612 0.9997201367629857 -0.01626738157204031 5.124639560710742e-05 -0.002472311950439066
2800000000.0 4.962037089928373e-05 -0.0025638596545063445 0.9997065512561594 -0.016869761279280884 0.9997065512561594 -0.01686976127927613 4.962037089928373e-05 -0.0025638596545041444
2900000000.0 4.788403931066387e-05 -0.0026554046724733167 0.9996925944199733 -0.017472130349093094 0.9996925944199735 -0.017472130349093125 4.7884039310830406e-05 -0.0026554046724738306
3000000000.0 4.603740499103948e-05 -0.002746946869886266 0.999678266262792 -0.018074488537578075 0.9996782662627914 -0.01807448853757614 4.603740499076192e-05 -0.0027469468698880194
3100000000.0 4.408047225590295e-05 -0.0028384861123051043 0.9996635667931655 -0.018676835600800863 0.999663566793166 -0.01867683560080379 4.408047225606948e-05 -0.0028384861123055016
3200000000.0 4.2013245591054904e-05 -0.002930022265298155 0.9996484960198344 -0.019279171294868797 0.9996484960198344 -0.019279171294869654 4.201324559083286e-05 -0.00293002226529909
3300000000.0 3.983572964699755e-05 -0.003021555194439448 0.9996330539517225 -0.019881495375866268 0.9996330539517227 -0.019881495375871642 3.983572964694204e-05 -0.0030215551944438013
3400000000.0 3.7547929243819667e-05 -0.003113084765293313 0.9996172405979425 -0.020483807599915076 0.9996172405979423 -0.020483807599919548 3.7547929243819667e-05 -0.0031130847652983892
3500000000.0 3.5149849368310004e-05 -0.0032046108434600805 0.9996010559677934 -0.0210861077231168 0.9996010559677928 -0.021086107723121333 3.514984936775489e-05 -0.003204610843463177
3600000000.0 3.264149517384629e-05 -0.0032961332945240836 0.9995845000707602 -0.021688395501601336 0.9995845000707599 -0.021688395501606884 3.264149517373527e-05 -0.003296133294528276
3700000000.0 3.002287198355935e-05 -0.0033876519840939133 0.9995675729165159 -0.02229067069151469 0.9995675729165157 -0.022290670691514032 3.0022871983226285e-05 -0.003387651984094326
3800000000.0 2.729398528550364e-05 -0.0034791667777729143 0.9995502745149203 -0.022892933048961783 0.9995502745149198 -0.022892933048961568 2.7293985285281597e-05 -0.0034791667777734772
3900000000.0 2.4454840737320183e-05 -0.0035706775411712063 0.9995326048760182 -0.0234951823301205 0.9995326048760185 -0.02349518233012031 2.445484073720916e-05 -0.0035706775411725494
4000000000.0 2.150544416257283e-05 -0.003662184139920198 0.9995145640100443 -0.02409741829113698 0.9995145640100441 -0.02409741829113738 2.1505444162461806e-05 -0.0036621841399226635
4100000000.0 1.8445801553190755e-05 -0.0037536864396609457 0.9994961519274166 -0.024699640688183595 0.9994961519274166 -0.024699640688179127 1.8445801553079733e-05 -0.003753686439652471
4200000000.0 1.5275919068413746e-05 -0.003845184306011151 0.9994773686387424 -0.02530184927742831 0.9994773686387425 -0.025301849277432637 1.5275919068358235e-05 -0.00384518430601241
4300000000.0 1.1995803034126062e-05 -0.003936677604641362 0.999458214154815 -0.025904043815071297 0.9994582141548146 -0.02590404381506732 1.199580303401504e-05 -0.003936677604640424
4400000000.0 8.60545994468831e-06 -0.004028166201205372 0.9994386884866135 -0.026506224057288037 0.9994386884866131 -0.026506224057292214 8.605459944466265e-06 -0.00402816620121022
4500000000.0 5.1048964608835234e-06 -0.004119649961370801 0.999418791645305 -0.027108389760309347 0.9994187916453048 -0.027108389760311276 5.104896460828012e-06 -0.0041196499613763305
4600000000.0 1.4941194118045509e-06 -0.004211128750813609 0.9993985236422422 -0.027710540680339277 0.9993985236422422 -0.02771054068034329 1.4941194119155732e-06 -0.004211128750815688
4700000000.0 -2.2268642068112854e-06 -0.004302602435225906 0.9993778844889663 -0.028312676573599864 0.999377884488966 -0.028312676573601862 -2.2268642069223077e-06 -0.004302602435229412
4800000000.0 -6.058047231860542e-06 -0.004394070880307107 0.9993568741972026 -0.028914797196337414 0.9993568741972025 -0.028914797196334528 -6.058047231860542e-06 -0.004394070880304735
4900000000.0 -9.99942233220752e-06 -0.004485533951751729 0.9993354927788654 -0.02951690230479226 0.9993354927788652 -0.029516902304793646 -9.99942233220752e-06 -0.0044855339517502245
5000000000.0 -1.4050982010405111e-05 -0.004576991515295089 0.9993137402460543 -0.030118991655222922 0.9993137402460543 -0.030118991655222378 -1.4050982010460622e-05 -0.004576991515294544
5100000000.0 -1.9169304535715526e-05 -0.004668418501344699 0.9992925733967486 -0.03072108994742393 0.9992925733967486 -0.030721089947421065 -1.9169304535715526e-05 -0.0046684185013439895
5200000000.0 -2.4397753967952962e-05 -0.004759838733854202 0.9992710354313625 -0.03132317297218704 0.9992710354313619 -0.03132317297218495 -2.4397753967952962e-05 -0.004759838733852342
5300000000.0 -2.9736321293272194e-05 -0.004851252078638313 0.9992491263619994 -0.031925240485802905 0.9992491263619991 -0.031925240485800435 -2.9736321293327705e-05 -0.004851252078636652
5400000000.0 -3.518499733123903e-05 -0.004942658401516179 0.9992268462009517 -0.03252729224455914 0.9992268462009518 -0.03252729224455909 -3.51849973310725e-05 -0.004942658401516302
5500000000.0 -4.074377273249885e-05 -0.0050340575683209534 0.9992041949606968 -0.033129328004780155 0.9992041949606962 -0.03312932800477928 -4.074377273294294e-05 -0.005034057568320382
5600000000.0 -4.641263798355055e-05 -0.005125449444904532 0.9991811726538987 -0.03373134752277726 0.9991811726538986 -0.033731347522774874 -4.641263798355055e-05 -0.005125449444902254
5700000000.0 -5.219158340102892e-05 -0.005216833897124797 0.9991577792934083 -0.03433335055488497 0.9991577792934085 -0.034333350554882396 -5.219158340102892e-05 -0.005216833897121409
5800000000.0 -5.808059913547936e-05 -0.005308210790845319 0.9991340148922633 -0.03493533685745581 0.9991340148922632 -0.03493533685745622 -5.808059913542385e-05 -0.005308210790845302
5900000000.0 -6.407967517085833e-05 -0.005399579991968857 0.9991098794636868 -0.03553730618684718 0.9991098794636869 -0.03553730618684832 -6.407967517052526e-05 -0.005399579991970681
6000000000.0 -7.018880132314553e-05 -0.005490941366391641 0.9990853730210896 -0.03613925829943125 0.9990853730210895 -0.0361392582994295 -7.018880132314553e-05 -0.005490941366389204
6100000000.0 -7.640796724189824e-05 -0.005582294780015059 0.9990604955780674 -0.03674119295159933 0.999060495578068 -0.03674119295159765 -7.640796724178722e-05 -0.005582294780013821
6200000000.0 -8.273716240975171e-05 -0.005673640098785078 0.9990352471484051 -0.037343109899735376 0.9990352471484054 -0.03734310989973756 -8.273716240958517e-05 -0.005673640098786975
6300000000.0 -8.917637614180851e-05 -0.005764977188640715 0.9990096277460709 -0.037945008900262416 0.9990096277460709 -0.037945008900263005 -8.917637614186402e-05 -0.0057649771886405755
6400000000.0 -9.572559758658228e-05 -0.0058563059155298395 0.998983637385221 -0.03854688970961134 0.9989836373852208 -0.03854688970960794 -9.572559758663779e-05 -0.005856305915527464
6500000000.0 -0.0001023848157256646 -0.005947626145434086 0.9989572760801976 -0.03914875208421019 0.9989572760801977 -0.03914875208421062 -0.0001023848157256646 -0.00594762614543582
6600000000.0 -0.000109154019373503 -0.006038937744335147 0.9989305438455296 -0.03975059578052503 0.9989305438455294 -0.03975059578052198 -0.00010915401937339198 -0.006038937744333785
6700000000.0 -0.00011603319717762295 -0.006130240578232952 0.9989034406959316 -0.04035242055501425 0.9989034406959318 -0.04035242055501317 -0.00011603319717734539 -0.0061302405782320485
6800000000.0 -0.00012302233761835035 -0.0062215345131519315 0.9988759666463052 -0.040954226164166996 0.9988759666463056 -0.040954226164164706 -0.00012302233761823933 -0.006221534513151682
6900000000.0 -0.00013012142901047685 -0.006312819415130977 0.9988481217117391 -0.041556012364471144 0.9988481217117388 -0.04155601236447092 -0.00013012142901047685 -0.006312819415129405
7000000000.0 -0.00013733045950076184 -0.006404095150202682 0.9988199059075054 -0.04215777891244922 0.9988199059075057 -0.042157778912447104 -0.00013733045950020673 -0.00640409515019993
7100000000.0 -0.00014464941706804346 -0.006495361584438019 0.9987913192490653 -0.04275952556462569 0.9987913192490652 -0.04275952556462659 -0.00014464941706832102 -0.00649536158443702
7200000000.0 -0.00015207828952762403 -0.006586618583922733 0.9987623617520652 -0.043361252077542475 0.9987623617520651 -0.043361252077541795 -0.00015207828952773506 -0.006586618583922198
7300000000.0 -0.0001596170645253303 -0.006677866014758505 0.9987330334323378 -0.043962958207750036 0.9987330334323378 -0.04396295820775113 -0.00015961706452549684 -0.006677866014760226
7400000000.0 -0.00016726572954062213 -0.006769103743047178 0.9987033343059015 -0.044564643711833295 0.9987033343059015 -0.044564643711835425 -0.00016726572954073315 -0.00676910374305032
7500000000.0 -0.00017502427188714753 -0.006860331634931473 0.998673264388962 -0.04516630834637379 0.9986732643889621 -0.045166308346374265 -0.00017502427188720304 -0.006860331634933801
7600000000.0 -0.00018289267871146597 -0.006951549556557601 0.9986428236979105 -0.045767951867979315 0.9986428236979106 -0.04576795186797468 -0.00018289267871124393 -0.006951549556554214
7700000000.0 -0.00019087093699254876 -0.007042757374086165 0.9986120122493238 -0.04636957403326482 0.9986120122493242 -0.04636957403326468 -0.00019087093699254876 -0.007042757374086248
7800000000.0 -0.0001989590335442215 -0.007133954953708995 0.9985808300599663 -0.046971174598871644 0.9985808300599663 -0.04697117459886886 -0.000198959033544166 -0.007133954953707302
7900000000.0 -0.00020715695501238862 -0.0072251421616180665 0.9985492771467868 -0.04757275332145353 0.9985492771467869 -0.0475727533214545 -0.00020715695501244413 -0.007225142161617782
8000000000.0 -0.0002154646878771982 -0.007316318864040291 0.9985173535269215 -0.048174309957682904 0.9985173535269216 -0.048174309957681516 -0.00021546468787742024 -0.007316318864039122
8100000000.0 -0.00022388221845220935 -0.007407484927212274 0.9984850592176922 -0.048775844264240996 0.9984850592176922 -0.04877584426424149 -0.00022388221845232037 -0.0074074849272110395
8200000000.0 -0.0002324095328836706 -0.007498640217385121 0.9984523942366059 -0.04937735599783753 0.9984523942366061 -0.04937735599783588 -0.0002324095328835596 -0.007498640217385
8300000000.0 -0.00024104661715190767 -0.00758978460083537 0.9984193586013569 -0.049978844915189766 0.9984193586013577 -0.04997884491519383 -0.00024104661715163012 -0.007589784600836849
8400000000.0 -0.00024979345707004663 -0.007680917943857293 0.9983859523298263 -0.050580310773041995 0.998385952329826 -0.05058031077304344 -0.0002497934570703242 -0.007680917943859063
8500000000.0 -0.0002586500382865675 -0.007772040112767707 0.9983521754400775 -0.05118175332814422 0.9983521754400777 -0.05118175332814615 -0.0002586500382865675 -0.0077720401127696695
8600000000.0 -0.000267616346281363 -0.007863150973897707 0.9983180279503642 -0.051783172337272476 0.998318027950364 -0.05178317233727422 -0.000267616346281474 -0.007863150973898616
8700000000.0 -0.00027669236636879146 -0.007954250393589815 0.9982835098791228 -0.05238456755722112 0.9982835098791228 -0.052384567557222636 -0.0002766923663690135 -0.007954250393590554
8800000000.0 -0.00028587808369706647 -0.00804533823822525 0.9982486212449775 -0.05298593874479955 0.9982486212449773 -0.05298593874479926 -0.0002858780836971775 -0.008045338238225494
8900000000.0 -0.00029517348324725745 -0.008136414374186999 0.9982133620667374 -0.05358728565683496 0.9982133620667372 -0.05358728565683604 -0.00029517348324775705 -0.008136414374188758
9000000000.0 -0.00030457854983551025 -0.008227478667893305 0.9981777323633978 -0.054188608050172046 0.9981777323633977 -0.05418860805017521 -0.0003045785498358988 -0.008227478667896469
9100000000.0 -0.0003140932681107711 -0.008318530985771537 0.9981417321541399 -0.054789905681685735 0.99814173215414 -0.05478990568168604 -0.00031409326811043803 -0.008318530985772489
9200000000.0 -0.000323717622553954 -0.008409571194272929 0.9981053614583308 -0.0553911783082517 0.9981053614583304 -0.05539117830825312 -0.00032371762255434255 -0.008409571194274965
9300000000.0 -0.0003334515974843244 -0.008500599159878752 0.9980686202955227 -0.05599242568677599 0.9980686202955229 -0.055992425686776946 -0.0003334515974838248 -0.008500599159879859
9400000000.0 -0.0003432951770490633 -0.008591614749070609 0.9980315086854542 -0.056593647574185314 0.9980315086854545 -0.05659364757418577 -0.00034329517704922985 -0.008591614749070857
9500000000.0 -0.00035324834523448034 -0.008682617828372222 0.9979940266480498 -0.05719484372741711 0.9979940266480498 -0.05719484372741861 -0.0003532483452346469 -0.00868261782837284
9600000000.0 -0.0003633110858576871 -0.008773608264319253 0.9979561742034192 -0.05779601390343658 0.997956174203419 -0.057796013903437506 -0.00036331108585779814 -0.008773608264319312
9700000000.0 -0.000373483382570039 -0.008864585923465803 0.9979179513718575 -0.05839715785922837 0.9979179513718572 -0.058397157859228166 -0.0003734833825702055 -0.008864585923465564
9800000000.0 -0.0003837652188577456 -0.008955550672396454 0.9978793581738461 -0.05899827535178913 0.9978793581738463 -0.05899827535178835 -0.0003837652188576901 -0.008955550672394834
9900000000.0 -0.0003941565780398726 -0.009046502377709282 0.997840394630052 -0.05959936613814462 0.9978403946300518 -0.05959936613814459 -0.00039415657804015014 -0.009046502377709873
10000000000.0 -0.0004046574432702288 -0.009137440906036621 0.9978010607613277 -0.06020042997533268 0.9978010607613272 -0.06020042997533355 -0.0004046574432707284 -0.009137440906037188
10100000000.0 -0.0004156864888234524 -0.009228344497715521 0.9977617756225551 -0.06080148827272684 0.9977617756225552 -0.060801488272726564 -0.0004156864888235634 -0.009228344497716062
10200000000.0 -0.00042682497411017373 -0.009319234218475615 0.9977221201825788 -0.06140251956386779 0.9977221201825786 -0.061402519563868024 -0.00042682497411028475 -0.009319234218476066
10300000000.0 -0.0004380728813433432 -0.00941010993504656 0.9976820944625622 -0.06200352360587098 0.9976820944625623 -0.0620035236058709 -0.0004380728813432322 -0.009410109935046327
10400000000.0 -0.00044943019256965533 -0.009500971514193416 0.9976416984838561 -0.06260450015585418 0.9976416984838559 -0.0626045001558555 -0.00044943019257026595 -0.009500971514194729
10500000000.0 -0.000460896889671214 -0.009591818822694307 0.9976009322679951 -0.06320544897097459 0.9976009322679944 -0.063205448970975 -0.00046089688967149156 -0.009591818822694791
10600000000.0 -0.00047247295436286807 -0.009682651727355008 0.9975597958366995 -0.06380636980840212 0.9975597958366995 -0.06380636980840143 -0.00047247295436270154 -0.009682651727354843
10700000000.0 -0.00048415836819415414 -0.009773470095009952 0.9975182892118761 -0.06440726242532432 0.9975182892118765 -0.06440726242532475 -0.0004841583681939321 -0.009773470095009916
