! Created with skrf (http://scikit-rf.org).
# Hz S RI R 50.0 
!freq ReS11 ImS11 ReS12 ImS12 ReS13 ImS13
! ReS14 ImS14
! ReS21 ImS21 ReS22 ImS22 ReS23 ImS23
! ReS24 ImS24
! ReS31 ImS31 ReS32 ImS32 ReS33 ImS33
! ReS34 ImS34
! ReS41 ImS41 ReS42 ImS42 ReS43 ImS43
! ReS44 ImS44
!
100000000.0 0.0006605101480006148 -0.0005589722258967172 5.172916849720048e-05 0.0024161186190334643 0.9992957325639351 -0.006176508328800262 -3.098375894081002e-05 -0.00018963738802260606
 5.172916847743898e-05 0.002416118619043353 0.0006605101479985609 -0.0005589722258996983 -3.098375892100913e-05 -0.00018963738802246812 0.9992957325639373 -0.006176508328778092
 0.9992957325639358 -0.006176508328778221 -3.098375894109689e-05 -0.00018963738803310623 0.0006605101480003928 -0.0005589722259153581 5.1729168497388784e-05 0.002416118619043014
 -3.0983758920972627e-05 -0.0001896373880185256 0.9992957325639378 -0.006176508328788725 5.172916847746862e-05 0.002416118619042308 0.0006605101479980613 -0.0005589722258839405
200000000.0 0.0006566510729879016 -0.0011179408083832503 0.00010958575578753247 0.004831566890450934 0.999205504619674 -0.012352237806589488 -3.8101308876395184e-05 -0.0003792172012231448
 0.00010958575576116436 0.004831566890469385 0.0006566510729848485 -0.0011179408083880453 -3.8101308849274816e-05 -0.0003792172011987874 0.9992055046196773 -0.012352237806573315
 0.999205504619674 -0.012352237806592194 -3.810130887506537e-05 -0.00037921720122162486 0.000656651072987624 -0.001117940808376096 0.00010958575578689302 0.004831566890449657
 -3.810130884948364e-05 -0.00037921720120216376 0.9992055046196766 -0.012352237806598325 0.0001095857557614179 0.004831566890474684 0.0006566510729852371 -0.0011179408083641972
300000000.0 0.0006468187430342387 -0.0016768233909999009 0.00019707128678266966 0.0072459481214938275 0.9990709352710108 -0.018526764579850405 -4.4869458856643776e-05 -0.0005687950762733382
 0.00019707128675074847 0.007245948121527231 0.0006468187430300754 -0.0016768233910044597 -4.486945882335091e-05 -0.0005687950762449938 0.9990709352710152 -0.018526764579837842
 0.9990709352710121 -0.018526764579851494 -4.4869458856057744e-05 -0.0005687950762745029 0.000646818743033295 -0.0016768233910002752 0.0001970712867825008 0.007245948121495106
 -4.4869458823795005e-05 -0.0005687950762450615 0.9990709352710143 -0.01852676457984241 0.0001970712867509477 0.007245948121525636 0.000646818743030908 -0.0016768233910030802
400000000.0 0.0006310158519670095 -0.0022355376756238196 0.0003141654719266486 0.009658865940025997 0.998892044262115 -0.02469966510363905 -5.1290838593505745e-05 -0.0007584265850087581
 0.00031416547188913935 0.009658865940064525 0.0006310158519637343 -0.00223553767560676 -5.129083855406812e-05 -0.0007584265849717456 0.9988920442621188 -0.024699665103635672
 0.998892044262115 -0.024699665103642368 -5.1290838593367035e-05 -0.000758426585006053 0.0006310158519671205 -0.002235537675620471 0.0003141654719268185 0.009658865940024342
 -5.129083855418828e-05 -0.0007584265849726935 0.9988920442621188 -0.024699665103634565 0.00031416547188934795 0.0096588659400659 0.0006310158519638454 -0.0022355376756074043
500000000.0 0.0006092466559930454 -0.0027940014601908853 0.0004608419726227971 0.01206992440432672 0.9986688571303427 -0.03087051624798503 -5.736965312104511e-05 -0.0009481671947049954
 0.00046084197257954384 0.012069924404381104 0.0006092466559889931 -0.002794001460192336 -5.736965307443726e-05 -0.000948167194657957 0.9986688571303475 -0.030870516247976487
 0.9986688571303434 -0.030870516247973656 -5.736965312044339e-05 -0.0009481671947044765 0.0006092466559927678 -0.0027940014602050433 0.00046084197262265746 0.012069924404326185
 -5.736965307463417e-05 -0.00094816719465328 0.9986688571303475 -0.030870516247982815 0.00046084197257975016 0.012069924404377281 0.0006092466559890486 -0.0027940014601868933
600000000.0 0.0006275380164261768 -0.003353619389039 0.0006328224889033459 0.01447815058648581 0.9983553694901366 -0.037037407890209206 -5.885620755819515e-05 -0.001137495336043327
 0.0006328224888572486 0.014478150586548276 0.0006275380164220135 -0.00335361938903229 -5.885620750748454e-05 -0.0011374953359851443 0.9983553694901413 -0.03703740789020195
 0.998355369490137 -0.03703740789020726 -5.885620755817791e-05 -0.0011374953360414868 0.0006275380164260103 -0.003353619389039773 0.0006328224889031696 0.014478150586485656
 -5.885620750778479e-05 -0.001137495335985672 0.998355369490141 -0.037037407890200214 0.0006328224888574707 0.01447815058654907 0.00062753801642218 -0.0033536193890311107
700000000.0 0.0006398384872082774 -0.003913317002299365 0.0008342943639400343 0.01688353554456729 0.9979976813457785 -0.04320091050782237 -5.998626863372841e-05 -0.0013268520463133166
 0.0008342943638911782 0.016883535544638513 0.0006398384872046137 -0.0039133170022871 -5.998626857865085e-05 -0.0013268520462461986 0.9979976813457836 -0.04320091050781356
 0.9979976813457787 -0.043200910507825624 -5.99862686337566e-05 -0.0013268520463141109 0.0006398384872083884 -0.00391331700229422 0.0008342943639399805 0.01688353554456873
 -5.998626857878747e-05 -0.0013268520462483132 0.9979976813457838 -0.04320091050781176 0.0008342943638912598 0.01688353554464061 0.0006398384872043361 -0.003913317002286604
800000000.0 0.0006461498762938 -0.00447301172966612 0.0010652087621463788 0.019285685769669915 0.9975958402406574 -0.049360603301268846 -6.076275658381758e-05 -0.0015162930741178375
 0.001065208762094962 0.019285685769752606 0.0006461498762891926 -0.004473011729658732 -6.0762756524086484e-05 -0.0015162930740405915 0.9975958402406631 -0.04936060330125757
 0.9975958402406577 -0.04936060330126947 -6.076275658381738e-05 -0.0015162930741181608 0.0006461498762938 -0.0044730117296676265 0.001065208762146387 0.019285685769669728
 -6.076275652415971e-05 -0.0015162930740417755 0.9975958402406631 -0.04936060330125623 0.0010652087620949863 0.019285685769753702 0.0006461498762897477 -0.004473011729658585
900000000.0 0.0006464755567971991 -0.005032621111165719 0.001325510865550723 0.021684208691979075 0.9971498994463953 -0.05551606636527581 -6.119016937960081e-05 -0.001705874041912586
 0.0013255108654967283 0.021684208692074436 0.0006464755567929803 -0.005032621111153487 -6.11901693148924e-05 -0.0017058740418264553 0.9971498994464012 -0.05551606636526555
 0.997149899446395 -0.05551606636527863 -6.119016937936538e-05 -0.0017058740419133812 0.0006464755567971436 -0.005032621111162813 0.001325510865550731 0.021684208691979817
 -6.119016931516435e-05 -0.0017058740418254231 0.9971498994464008 -0.05551606636526794 0.0013255108654967014 0.021684208692073763 0.0006464755567930358 -0.005032621111151466
1000000000.0 0.0006408204624640534 -0.005592062834735719 0.0016151398949502615 0.024078712788574354 0.9966599179420328 -0.0616668807932427 -6.127457803555819e-05 -0.001895650406476838
 0.0016151398948939023 0.024078712788681317 0.0006408204624600011 -0.005592062834720106 -6.127457796614337e-05 -0.0018956504063825674 0.996659917942039 -0.06166688079323248
 0.9966599179420328 -0.06166688079324298 -6.127457803592297e-05 -0.0018956504064777911 0.0006408204624639979 -0.005592062834735037 0.001615139894950318 0.024078712788575228
 -6.127457796689855e-05 -0.0018956504063830592 0.996659917942039 -0.061666880793233986 0.0016151398948940033 0.024078712788681438 0.0006408204624598346 -0.005592062834719994
1100000000.0 0.0006007466777271375 -0.0061494098266740415 0.0019311336306012368 0.026469806102377924 0.9961544318641844 -0.0678144762363697 -5.8142251757920284e-05 -0.002086674039387901
 0.001931133630544406 0.0264698061024947 0.0006007466777232517 -0.006149409826657891 -5.81422516853852e-05 -0.002086674039284026 0.9961544318641908 -0.06781447623635627
 0.9961544318641842 -0.06781447623637032 -5.8142251758263854e-05 -0.0020866740393891254 0.0006007466777277481 -0.006149409826673172 0.0019311336306013975 0.026469806102379638
 -5.814225168545307e-05 -0.002086674039283889 0.9961544318641915 -0.06781447623635962 0.0019311336305444656 0.026469806102495226 0.0006007466777231407 -0.006149409826655103
1200000000.0 0.0005547505751040127 -0.0067060924019189515 0.0022763441402985363 0.028856280841921003 0.9956050063526865 -0.07395692282864008 -5.471826338095816e-05 -0.002278182008345055
 0.0022763441402410545 0.028856280842046472 0.0005547505750998494 -0.006706092401903174 -5.471826330477559e-05 -0.002278182008230823 0.9956050063526939 -0.07395692282862451
 0.9956050063526869 -0.07395692282863575 -5.4718263380936113e-05 -0.0022781820083436757 0.0005547505751038462 -0.006706092401922678 0.002276344140298486 0.02885628084191979
 -5.471826330496682e-05 -0.0022781820082300713 0.9956050063526939 -0.07395692282862365 0.002276344140241226 0.028856280842045525 0.0005547505750999049 -0.006706092401903516
1300000000.0 0.0005028466870233284 -0.007262029899605617 0.0026506965296491224 0.031237748614286756 0.9950117137031854 -0.08009380468233168 -5.1017642295964024e-05 -0.0024702281080818188
 0.0026506965295917673 0.031237748614422543 0.0005028466870193316 -0.007262029899582644 -5.101764221655009e-05 -0.0024702281079583264 0.9950117137031924 -0.08009380468231797
 0.9950117137031852 -0.0800938046823341 -5.101764229637581e-05 -0.0024702281080819493 0.0005028466870232173 -0.007262029899603083 0.0026506965296493063 0.031237748614286964
 -5.10176422164137e-05 -0.002470228107958475 0.9950117137031926 -0.08009380468231775 0.0026506965295916025 0.031237748614422876 0.0005028466870189985 -0.007262029899583251
1400000000.0 0.00044505105373554565 -0.007817142047279011 0.0030541100372235928 0.03361382243719013 0.9943746318249431 -0.08622470726834014 -4.705693728519065e-05 -0.002662865721178414
 0.0030541100371661587 0.03361382243733864 0.0004450510537308827 -0.007817142047259173 -4.705693720160008e-05 -0.002662865721047121 0.9943746318249514 -0.08622470726832356
 0.9943746318249435 -0.08622470726833864 -4.705693728497857e-05 -0.00266286572117955 0.00044505105373504605 -0.007817142047280169 0.003054110037223636 0.03361382243719115
 -4.705693720174569e-05 -0.002662865721046131 0.9943746318249509 -0.08622470726832332 0.0030541100371662385 0.033613822437337425 0.00044505105373104925 -0.007817142047258635
1500000000.0 0.0003813812116366666 -0.008371348996679122 0.0034864980661577652 0.03598411684365349 0.9936938442095478 -0.09234921751742439 -4.28542045811331e-05 -0.002856147780394713
 0.003486498066100247 0.03598411684381006 0.0003813812116322812 -0.008371348996657034 -4.285420449416904e-05 -0.0028561477802537378 0.9936938442095564 -0.09234921751740555
 0.993693844209548 -0.0923492175174224 -4.2854204581053195e-05 -0.002856147780393784 0.0003813812116362225 -0.008371348996681561 0.003486498066157899 0.03598411684365219
 -4.285420449374264e-05 -0.0028561477802530435 0.9936938442095561 -0.09234921751740602 0.0034864980661002665 0.03598411684380928 0.00038138121163244776 -0.00837134899665707
1600000000.0 0.0003118561806194631 -0.008924571359070203 0.00394776821798996 0.038348247985849473 0.992969439897392 -0.0984669239206395 -3.8428994937716055e-05 -0.003050126731384566
 0.003947768217933039 0.03834824798601736 0.00031185618061546627 -0.008924571359047102 -3.8428994846961286e-05 -0.003050126731234941 0.9929694398974005 -0.09846692392061972
 0.9929694398973921 -0.0984669239206388 -3.842899493777937e-05 -0.0030501267313853093 0.00031185618061913 -0.008924571359070922 0.003947768217990332 0.03834824798584993
 -3.842899484658905e-05 -0.0030501267312354097 0.992969439897401 -0.09846692392061815 0.003947768217932857 0.03834824798601809 0.00031185618061529974 -0.00892457135904731
1700000000.0 0.00023649645046425194 -0.009476730240197172 0.004437822328710302 0.04070583373807267 0.9922015134419635 -0.10457741662885855 -3.380233971739121e-05 -0.0032448544958368995
 0.0044378223286534665 0.04070583373825185 0.00023649645046064371 -0.009476730240172402 -3.38023396225357e-05 -0.0032448544956779238 0.9922015134419726 -0.10457741662883745
 0.9922015134419636 -0.10457741662885608 -3.380233971756511e-05 -0.0032448544958369368 0.00023649645046430745 -0.009476730240198652 0.0044378223287103325 0.04070583373807253
 -3.38023396223166e-05 -0.0032448544956772928 0.9922015134419728 -0.10457741662883782 0.004437822328653369 0.040705833738250784 0.0002364964504605327 -0.009476730240171443
1800000000.0 0.00015532396628675782 -0.010027747274779092 0.004956556506989727 0.04305649379873236 0.9913901648719621 -0.11068028755136355 -2.8996736014978366e-05 -0.0034403824350379046
 0.004956556506933074 0.04305649379892089 0.00015532396628342715 -0.010027747274751241 -2.899673591554372e-05 -0.003440382434869102 0.9913901648719718 -0.11068028755134326
 0.9913901648719623 -0.11068028755136539 -2.8996736014528165e-05 -0.003440382435037545 0.0001553239662866468 -0.01002774727477754 0.004956556506989607 0.043056493798732214
 -2.8996735915553734e-05 -0.00344038243486896 0.9913901648719718 -0.11068028755134376 0.004956556506933062 0.04305649379892092 0.00015532396628337164 -0.01002774727475175
1900000000.0 6.836211305116802e-05 -0.010577544660554303 0.0055038611745653245 0.04539984979136456 0.9905354996512811 -0.116775130453414 -2.4036130829257202e-05 -0.003636761313919651
 0.005503861174509446 0.04539984979156435 6.836211304778184e-05 -0.010577544660525713 -2.4036130725920823e-05 -0.0036367613137421734 0.9905354996512914 -0.11677513045339086
 0.990535499651281 -0.11677513045341315 -2.403613082926471e-05 -0.003636761313919334 6.836211305116802e-05 -0.01057754466055461 0.005503861174565285 0.04539984979136448
 -2.4036130725490747e-05 -0.003636761313742114 0.9905354996512912 -0.11677513045339095 0.00550386117450929 0.04539984979156385 6.836211304783735e-05 -0.010577544660525254
2000000000.0 -2.4364300823198626e-05 -0.01112604519182003 0.006079621108749163 0.047735525364579826 0.9896376286368748 -0.12286154105274927 -1.8945904305797022e-05 -0.0038340412655949356
 0.00607962110869404 0.047735525364790456 -2.4364300826862362e-05 -0.011126045191789469 -1.8945904197548407e-05 -0.0038340412654094833 0.9896376286368859 -0.12286154105272432
 0.9896376286368752 -0.12286154105274937 -1.8945904305652742e-05 -0.00383404126559498 -2.436430082336516e-05 -0.011126045191819964 0.006079621108748894 0.04773552536457981
 -1.8945904197722124e-05 -0.003834041265408366 0.9896376286368856 -0.1228615410527254 0.00607962110869404 0.04773552536478945 -2.4364300826695828e-05 -0.011126045191789237
2100000000.0 -0.00012282906075672395 -0.011673172292437858 0.006683715487027477 0.05006314629090458 0.9886966680345548 -0.12893911711500922 -1.3752852057827871e-05 -0.004032271756420803
 0.006683715486973205 0.05006314629112435 -0.00012282906075955502 -0.011673172292405559 -1.3752851945340744e-05 -0.004032271756225396 0.9886966680345657 -0.12893911711498368
 0.988696668034555 -0.12893911711500988 -1.375285205780185e-05 -0.004032271756420951 -0.00012282906075683497 -0.011673172292436838 0.006683715487027531 0.05006314629090455
 -1.3752851945083571e-05 -0.0040322717562259296 0.9886966680345662 -0.12893911711498432 0.006683715486973053 0.05006314629112485 -0.00012282906075955502 -0.0116731722924052
2200000000.0 -0.00022700456417751314 -0.0122188500483051 0.0073160179337196695 0.05238234056445897 0.9877127393527341 -0.13500745854796342 -8.485166594104557e-06 -0.0042315015516068664
 0.007316017933666532 0.052382340564690336 -0.00022700456418023318 -0.012218850048273555 -8.48516647681459e-06 -0.004231501551403238 0.9877127393527456 -0.13500745854793572
 0.9877127393527338 -0.13500745854796217 -8.485166593917939e-06 -0.004231501551607306 -0.0002270045641773466 -0.012218850048305746 0.007316017933719653 0.05238234056445947
 -8.485166476487161e-06 -0.004231501551402587 0.9877127393527456 -0.13500745854793733 0.0073160179336664004 0.0523823405646896 -0.00022700456418001114 -0.012218850048272011
2300000000.0 -0.00033686183955128346 -0.012763003239248213 0.007976396568660341 0.05469273849743211 0.9866859693541709 -0.141066167494535 -3.172417864251843e-06 -0.004431778681405228
 0.007976396568608234 0.05469273849767356 -0.00033686183955383697 -0.012763003239214064 -3.17241774201889e-06 -0.004431778681193098 0.9866859693541832 -0.1410661674945068
 0.986685969354171 -0.14106616749453482 -3.1724178639616835e-06 -0.004431778681405913 -0.0003368618395513945 -0.01276300323924848 0.007976396568660293 0.05469273849743291
 -3.172417741988492e-06 -0.004431778681192867 0.9866859693541832 -0.14106616749450812 0.007976396568608346 0.05469273849767331 -0.00033686183955372595 -0.012763003239211982
2400000000.0 -0.00045237056624991556 -0.013305557370304841 0.008664714057868972 0.05699397281529051 0.9856164900057354 -0.14711484842456474 2.1544670532075037e-06 -0.00463315040789583
 0.008664714057817852 0.0569939728155414 -0.00045237056625074823 -0.013305557370265498 2.15446717999828e-06 -0.004633150407674551 0.9856164900057477 -0.1471148484245382
 0.9856164900057349 -0.14711484842456463 2.154467053123329e-06 -0.00463315040789567 -0.000452370566249527 -0.013305557370304606 0.00866471405786879 0.05699397281529038
 2.154467180024924e-06 -0.004633150407674548 0.9856164900057475 -0.14711484842453834 0.00866471405781804 0.05699397281554181 -0.0004523705662511368 -0.013305557370265285
2500000000.0 -0.0005734990952310226 -0.013846438702393226 0.00938082766616849 0.059285678750681206 0.9845044384262387 -0.15315310822526917 7.463225100823567e-06 -0.004835663192396219
 0.009380827666119397 0.059285678750943295 -0.0005734990952324659 -0.013846438702355246 7.463225232607921e-06 -0.004835663192166462 0.9845044384262516 -0.15315310822524023
 0.9845044384262385 -0.15315310822526945 7.463225100618964e-06 -0.0048356631923961516 -0.0005734990952312446 -0.013846438702393429 0.009380827666168875 0.059285678750681414
 7.463225232743148e-06 -0.004835663192166539 0.9845044384262521 -0.15315310822524017 0.009380827666119421 0.05928567875094312 -0.0005734990952327434 -0.013846438702355166
2600000000.0 -0.0007002144705280378 -0.01438557428233887 0.010124589311718566 0.061567494135988506 0.9833499568323741 -0.15918055629031708 1.272027921219449e-05 -0.005039362663521906
 0.010124589311670814 0.06156749413626028 -0.0007002144705296476 -0.014385574282299328 1.2720279349456422e-05 -0.005039362663283784 0.9833499568323881 -0.15918055629028594
 0.9833499568323741 -0.1591805562903174 1.2720279212301798e-05 -0.005039362663521969 -0.0007002144705283153 -0.01438557428233915 0.010124589311718642 0.0615674941359885
 1.2720279349305095e-05 -0.005039362663283987 0.983349956832388 -0.1591805562902861 0.010124589311670878 0.06156749413626028 -0.0007002144705295366 -0.014385574282300079
2700000000.0 -0.0008324824514999718 -0.014922891972211763 0.010895845622414042 0.06383905949448179 0.982153192482794 -0.16519680460753305 1.789076107502862e-05 -0.005244293585915608
 0.010895845622367771 0.06383905949476376 -0.000832482451500971 -0.014922891972170347 1.7890761217466712e-05 -0.005244293585668517 0.9821531924828086 -0.16519680460750127
 0.9821531924827944 -0.16519680460753328 1.7890761075181535e-05 -0.005244293585915291 -0.0008324824515001383 -0.014922891972211388 0.010895845622413849 0.06383905949448151
 1.7890761217504984e-05 -0.005244293585668721 0.9821531924828085 -0.16519680460750227 0.010895845622367797 0.06383905949476382 -0.00083248245150086 -0.014922891972168943
2800000000.0 -0.0009702675358410073 -0.015458320477985427 0.011694437994117832 0.06610001813002656 0.9809142976203764 -0.1712014678451385 2.293853466683296e-05 -0.005450499829664733
 0.011694437994073653 0.06610001813031935 -0.0009702675358412849 -0.015458320477942305 2.293853481478735e-05 -0.005450499829409509 0.9809142976203914 -0.17120146784510598
 0.9809142976203764 -0.17120146784513723 2.2938534666702408e-05 -0.005450499829664511 -0.0009702675358411739 -0.01545832047798644 0.011694437994117821 0.06610001813002639
 2.2938534814438344e-05 -0.005450499829409252 0.9809142976203913 -0.1712014678451052 0.011694437994073478 0.066100018130319 -0.0009702675358413404 -0.015458320477943092
