! Touchstone Ver. 1.0
! Number of ports is 2
# Hz  S RI  R  	50
! SCATTERING PARAMETERS  :
 1.00000000e+08	 9.77162189e-01 -1.49483637e-01  2.28377923e-02  1.49288762e-01  2.28377923e-02  1.49288762e-01  9.77162189e-01 -1.49483637e-01 
 7.69000000e+08	 4.19796617e-01 -4.94274881e-01  5.80202260e-01  4.92776298e-01  5.80202260e-01  4.92776298e-01  4.19796617e-01 -4.94274881e-01 
 1.43800000e+09	 1.71440127e-01 -3.78295957e-01  8.28555946e-01  3.75493669e-01  8.28555946e-01  3.75493669e-01  1.71440127e-01 -3.78295957e-01 
 2.10700000e+09	 8.79025914e-02 -2.85212311e-01  9.12088979e-01  2.81106326e-01  9.12088979e-01  2.81106326e-01  8.79025914e-02 -2.85212311e-01 
 2.77600000e+09	 5.25951016e-02 -2.25943282e-01  9.47390266e-01  2.20533609e-01  9.47390266e-01  2.20533609e-01  5.25951016e-02 -2.25943282e-01 
 3.44500000e+09	 3.47865651e-02 -1.86624083e-01  9.65190900e-01  1.79910736e-01  9.65190900e-01  1.79910736e-01  3.47865651e-02 -1.86624083e-01 
 4.11400000e+09	 2.46409826e-02 -1.59086162e-01  9.75326881e-01  1.51069159e-01  9.75326881e-01  1.51069159e-01  2.46409826e-02 -1.59086162e-01 
 4.78300000e+09	 1.83379143e-02 -1.38908438e-01  9.81618648e-01  1.29587799e-01  9.81618648e-01  1.29587799e-01  1.83379143e-02 -1.38908438e-01 
 5.45200000e+09	 1.41621505e-02 -1.23587243e-01  9.85781410e-01  1.12962992e-01  9.85781410e-01  1.12962992e-01  1.41621505e-02 -1.23587243e-01 
 6.12100000e+09	 1.12555250e-02 -1.11621884e-01  9.88673336e-01  9.96940478e-02  9.88673336e-01  9.96940478e-02  1.12555250e-02 -1.11621884e-01 
 6.79000000e+09	 9.15142500e-03 -1.02065382e-01  9.90761036e-01  8.88339917e-02  9.90761036e-01  8.88339917e-02  9.15142500e-03 -1.02065382e-01 
 7.45900000e+09	 7.57892899e-03 -9.42933379e-02  9.92315434e-01  7.97584262e-02  9.92315434e-01  7.97584262e-02  7.57892899e-03 -9.42933379e-02 
 8.12800000e+09	 6.37217490e-03 -8.78784669e-02  9.93502390e-01  7.20400712e-02  9.93502390e-01  7.20400712e-02  6.37217490e-03 -8.78784669e-02 
 8.79700000e+09	 5.42508916e-03 -8.25190171e-02  9.94427979e-01  6.53771780e-02  9.94427979e-01  6.53771780e-02  5.42508916e-03 -8.25190171e-02 
 9.46600000e+09	 4.66730891e-03 -7.79960724e-02  9.95162563e-01  5.95508334e-02  9.95162563e-01  5.95508334e-02  4.66730891e-03 -7.79960724e-02 
 1.01350000e+10	 4.05068758e-03 -7.41470839e-02  9.95754290e-01  5.43984921e-02  9.95754290e-01  5.43984921e-02  4.05068758e-03 -7.41470839e-02 
 1.08040000e+10	 3.54138896e-03 -7.08488970e-02  9.96236995e-01  4.97970028e-02  9.96236995e-01  4.97970028e-02  3.54138896e-03 -7.08488970e-02 
 1.14730000e+10	 3.11507572e-03 -6.80065401e-02  9.96635017e-01  4.56513971e-02  9.96635017e-01  4.56513971e-02  3.11507572e-03 -6.80065401e-02 
 1.21420000e+10	 2.75388311e-03 -6.55456236e-02  9.96966219e-01  4.18872887e-02  9.96966219e-01  4.18872887e-02  2.75388311e-03 -6.55456236e-02 
 1.28110000e+10	 2.44445966e-03 -6.34070658e-02  9.97243954e-01  3.84455993e-02  9.97243954e-01  3.84455993e-02  2.44445966e-03 -6.34070658e-02 
 1.34800000e+10	 2.17666595e-03 -6.15433574e-02  9.97478362e-01  3.52788230e-02  9.97478362e-01  3.52788230e-02  2.17666595e-03 -6.15433574e-02 
 1.41490000e+10	 1.94269066e-03 -5.99158667e-02  9.97677253e-01  3.23483313e-02  9.97677253e-01  3.23483313e-02  1.94269066e-03 -5.99158667e-02 
 1.48180000e+10	 1.73643776e-03 -5.84928625e-02  9.97846723e-01  2.96223963e-02  9.97846723e-01  2.96223963e-02  1.73643776e-03 -5.84928625e-02 
 1.54870000e+10	 1.55309385e-03 -5.72480419e-02  9.97991588e-01  2.70747186e-02  9.97991588e-01  2.70747186e-02  1.55309385e-03 -5.72480419e-02 
 1.61560000e+10	 1.38881761e-03 -5.61594192e-02  9.98115687e-01  2.46833156e-02  9.98115687e-01  2.46833156e-02  1.38881761e-03 -5.61594192e-02 
 1.68250000e+10	 1.24051350e-03 -5.52084761e-02  9.98222117e-01  2.24296724e-02  9.98222117e-01  2.24296724e-02  1.24051350e-03 -5.52084761e-02 
 1.74940000e+10	 1.10566461e-03 -5.43795052e-02  9.98313395e-01  2.02980850e-02  9.98313395e-01  2.02980850e-02  1.10566461e-03 -5.43795052e-02 
 1.81630000e+10	 9.82207639e-04 -5.36590967e-02  9.98391584e-01  1.82751467e-02  9.98391584e-01  1.82751467e-02  9.82207639e-04 -5.36590967e-02 
 1.88320000e+10	 8.68438221e-04 -5.30357336e-02  9.98458390e-01  1.63493440e-02  9.98458390e-01  1.63493440e-02  8.68438221e-04 -5.30357336e-02 
 1.95010000e+10	 7.62938582e-04 -5.24994694e-02  9.98515229e-01  1.45107337e-02  9.98515229e-01  1.45107337e-02  7.62938582e-04 -5.24994694e-02 
 2.01700000e+10	 6.64521612e-04 -5.20416696e-02  9.98563289e-01  1.27506845e-02  9.98563289e-01  1.27506845e-02  6.64521612e-04 -5.20416696e-02 
 2.08390000e+10	 5.72187274e-04 -5.16548025e-02  9.98603572e-01  1.10616681e-02  9.98603572e-01  1.10616681e-02  5.72187274e-04 -5.16548025e-02 
 2.15080000e+10	 4.85088327e-04 -5.13322684e-02  9.98636923e-01  9.43708810e-03  9.98636923e-01  9.43708810e-03  4.85088327e-04 -5.13322684e-02 
 2.21770000e+10	 4.02503155e-04 -5.10682602e-02  9.98664066e-01  7.87114072e-03  9.98664066e-01  7.87114072e-03  4.02503155e-04 -5.10682602e-02 
 2.28460000e+10	 3.23814073e-04 -5.08576478e-02  9.98685617e-01  6.35869916e-03  9.98685617e-01  6.35869916e-03  3.23814073e-04 -5.08576478e-02 
 2.35150000e+10	 2.48489876e-04 -5.06958824e-02  9.98702109e-01  4.89521785e-03  9.98702109e-01  4.89521785e-03  2.48489876e-04 -5.06958824e-02 
 2.41840000e+10	 1.76071714e-04 -5.05789162e-02  9.98714001e-01  3.47665241e-03  9.98714001e-01  3.47665241e-03  1.76071714e-04 -5.05789162e-02 
 2.48530000e+10	 1.06161586e-04 -5.05031355e-02  9.98721690e-01  2.09939250e-03  9.98721690e-01  2.09939250e-03  1.06161586e-04 -5.05031355e-02 
 2.55220000e+10	 3.84129175e-05 -5.04653043e-02  9.98725525e-01  7.60205188e-04  9.98725525e-01  7.60205188e-04  3.84129175e-05 -5.04653043e-02 
 2.61910000e+10	-2.74772111e-05 -5.04625156e-02  9.98725807e-01 -5.43813057e-04  9.98725807e-01 -5.43813057e-04 -2.74772111e-05 -5.04625156e-02 
 2.68600000e+10	-9.17744919e-05 -5.04921511e-02  9.98722804e-01 -1.81527724e-03  9.98722804e-01 -1.81527724e-03 -9.17744919e-05 -5.04921511e-02 
 2.75290000e+10	-1.54712744e-04 -5.05518461e-02  9.98716749e-01 -3.05654878e-03  9.98716749e-01 -3.05654878e-03 -1.54712744e-04 -5.05518461e-02 
 2.81980000e+10	-2.16498389e-04 -5.06394595e-02  9.98707849e-01 -4.26976545e-03  9.98707849e-01 -4.26976545e-03 -2.16498389e-04 -5.06394595e-02 
 2.88670000e+10	-2.77314210e-04 -5.07530481e-02  9.98696287e-01 -5.45686726e-03  9.98696287e-01 -5.45686726e-03 -2.77314210e-04 -5.07530481e-02 
 2.95360000e+10	-3.37322524e-04 -5.08908439e-02  9.98682226e-01 -6.61961874e-03  9.98682226e-01 -6.61961874e-03 -3.37322524e-04 -5.08908439e-02 
 3.02050000e+10	-3.96667867e-04 -5.10512353e-02  9.98665811e-01 -7.75962834e-03  9.98665811e-01 -7.75962834e-03 -3.96667867e-04 -5.10512353e-02 
 3.08740000e+10	-4.55479276e-04 -5.12327497e-02  9.98647171e-01 -8.87836527e-03  9.98647171e-01 -8.87836527e-03 -4.55479276e-04 -5.12327497e-02 
 3.15430000e+10	-5.13872239e-04 -5.14340391e-02  9.98626422e-01 -9.97717425e-03  9.98626422e-01 -9.97717425e-03 -5.13872239e-04 -5.14340391e-02 
 3.22120000e+10	-5.71950363e-04 -5.16538672e-02  9.98603669e-01 -1.10572884e-02  9.98603669e-01 -1.10572884e-02 -5.71950363e-04 -5.16538672e-02 
 3.28810000e+10	-6.29806808e-04 -5.18910977e-02  9.98579004e-01 -1.21198405e-02  9.98579004e-01 -1.21198405e-02 -6.29806808e-04 -5.18910977e-02 
 3.35500000e+10	-6.87525519e-04 -5.21446849e-02  9.98552512e-01 -1.31658732e-02  9.98552512e-01 -1.31658732e-02 -6.87525519e-04 -5.21446849e-02 
 3.42190000e+10	-7.45182303e-04 -5.24136645e-02  9.98524269e-01 -1.41963474e-02  9.98524269e-01 -1.41963474e-02 -7.45182303e-04 -5.24136645e-02 
 3.48880000e+10	-8.02845745e-04 -5.26971458e-02  9.98494345e-01 -1.52121505e-02  9.98494345e-01 -1.52121505e-02 -8.02845745e-04 -5.26971458e-02 
 3.55570000e+10	-8.60578021e-04 -5.29943051e-02  9.98462801e-01 -1.62141029e-02  9.98462801e-01 -1.62141029e-02 -8.60578021e-04 -5.29943051e-02 
 3.62260000e+10	-9.18435598e-04 -5.33043791e-02  9.98429696e-01 -1.72029647e-02  9.98429696e-01 -1.72029647e-02 -9.18435598e-04 -5.33043791e-02 
 3.68950000e+10	-9.76469851e-04 -5.36266598e-02  9.98395080e-01 -1.81794405e-02  9.98395080e-01 -1.81794405e-02 -9.76469851e-04 -5.36266598e-02 
 3.75640000e+10	-1.03472760e-03 -5.39604894e-02  9.98359001e-01 -1.91441849e-02  9.98359001e-01 -1.91441849e-02 -1.03472760e-03 -5.39604894e-02 
 3.82330000e+10	-1.09325157e-03 -5.43052560e-02  9.98321502e-01 -2.00978065e-02  9.98321502e-01 -2.00978065e-02 -1.09325157e-03 -5.43052560e-02 
 3.89020000e+10	-1.15208085e-03 -5.46603896e-02  9.98282623e-01 -2.10408721e-02  9.98282623e-01 -2.10408721e-02 -1.15208085e-03 -5.46603896e-02 
 3.95710000e+10	-1.21125120e-03 -5.50253584e-02  9.98242400e-01 -2.19739101e-02  9.98242400e-01 -2.19739101e-02 -1.21125120e-03 -5.50253584e-02 
 4.02400000e+10	-1.27079542e-03 -5.53996661e-02  9.98200867e-01 -2.28974135e-02  9.98200867e-01 -2.28974135e-02 -1.27079542e-03 -5.53996661e-02 
 4.09090000e+10	-1.33074364e-03 -5.57828485e-02  9.98158053e-01 -2.38118434e-02  9.98158053e-01 -2.38118434e-02 -1.33074364e-03 -5.57828485e-02 
 4.15780000e+10	-1.39112353e-03 -5.61744713e-02  9.98113988e-01 -2.47176306e-02  9.98113988e-01 -2.47176306e-02 -1.39112353e-03 -5.61744713e-02 
 4.22470000e+10	-1.45196061e-03 -5.65741275e-02  9.98068696e-01 -2.56151791e-02  9.98068696e-01 -2.56151791e-02 -1.45196061e-03 -5.65741275e-02 
 4.29160000e+10	-1.51327836e-03 -5.69814352e-02  9.98022203e-01 -2.65048673e-02  9.98022203e-01 -2.65048673e-02 -1.51327836e-03 -5.69814352e-02 
 4.35850000e+10	-1.57509847e-03 -5.73960361e-02  9.97974531e-01 -2.73870504e-02  9.97974531e-01 -2.73870504e-02 -1.57509847e-03 -5.73960361e-02 
 4.42540000e+10	-1.63744097e-03 -5.78175932e-02  9.97925699e-01 -2.82620620e-02  9.97925699e-01 -2.82620620e-02 -1.63744097e-03 -5.78175932e-02 
 4.49230000e+10	-1.70032439e-03 -5.82457896e-02  9.97875727e-01 -2.91302157e-02  9.97875727e-01 -2.91302157e-02 -1.70032439e-03 -5.82457896e-02 
 4.55920000e+10	-1.76376589e-03 -5.86803269e-02  9.97824634e-01 -2.99918069e-02  9.97824634e-01 -2.99918069e-02 -1.76376589e-03 -5.86803269e-02 
 4.62610000e+10	-1.82778137e-03 -5.91209236e-02  9.97772435e-01 -3.08471135e-02  9.97772435e-01 -3.08471135e-02 -1.82778137e-03 -5.91209236e-02 
 4.69300000e+10	-1.89238557e-03 -5.95673146e-02  9.97719145e-01 -3.16963976e-02  9.97719145e-01 -3.16963976e-02 -1.89238557e-03 -5.95673146e-02 
 4.75990000e+10	-1.95759220e-03 -6.00192491e-02  9.97664779e-01 -3.25399066e-02  9.97664779e-01 -3.25399066e-02 -1.95759220e-03 -6.00192491e-02 
 4.82680000e+10	-2.02341398e-03 -6.04764905e-02  9.97609351e-01 -3.33778740e-02  9.97609351e-01 -3.33778740e-02 -2.02341398e-03 -6.04764905e-02 
 4.89370000e+10	-2.08986275e-03 -6.09388148e-02  9.97552873e-01 -3.42105204e-02  9.97552873e-01 -3.42105204e-02 -2.08986275e-03 -6.09388148e-02 
 4.96060000e+10	-2.15694955e-03 -6.14060101e-02  9.97495355e-01 -3.50380545e-02  9.97495355e-01 -3.50380545e-02 -2.15694955e-03 -6.14060101e-02 
 5.02750000e+10	-2.22468463e-03 -6.18778756e-02  9.97436811e-01 -3.58606739e-02  9.97436811e-01 -3.58606739e-02 -2.22468463e-03 -6.18778756e-02 
 5.09440000e+10	-2.29307758e-03 -6.23542210e-02  9.97377248e-01 -3.66785656e-02  9.97377248e-01 -3.66785656e-02 -2.29307758e-03 -6.23542210e-02 
 5.16130000e+10	-2.36213733e-03 -6.28348658e-02  9.97316678e-01 -3.74919068e-02  9.97316678e-01 -3.74919068e-02 -2.36213733e-03 -6.28348658e-02 
 5.22820000e+10	-2.43187222e-03 -6.33196386e-02  9.97255109e-01 -3.83008657e-02  9.97255109e-01 -3.83008657e-02 -2.43187222e-03 -6.33196386e-02 
 5.29510000e+10	-2.50229006e-03 -6.38083767e-02  9.97192550e-01 -3.91056019e-02  9.97192550e-01 -3.91056019e-02 -2.50229006e-03 -6.38083767e-02 
 5.36200000e+10	-2.57339811e-03 -6.43009252e-02  9.97129008e-01 -3.99062669e-02  9.97129008e-01 -3.99062669e-02 -2.57339811e-03 -6.43009252e-02 
 5.42890000e+10	-2.64520321e-03 -6.47971369e-02  9.97064491e-01 -4.07030047e-02  9.97064491e-01 -4.07030047e-02 -2.64520321e-03 -6.47971369e-02 
 5.49580000e+10	-2.71771172e-03 -6.52968717e-02  9.96999006e-01 -4.14959521e-02  9.96999006e-01 -4.14959521e-02 -2.71771172e-03 -6.52968717e-02 
 5.56270000e+10	-2.79092963e-03 -6.57999961e-02  9.96932560e-01 -4.22852395e-02  9.96932560e-01 -4.22852395e-02 -2.79092963e-03 -6.57999961e-02 
 5.62960000e+10	-2.86486252e-03 -6.63063830e-02  9.96865159e-01 -4.30709908e-02  9.96865159e-01 -4.30709908e-02 -2.86486252e-03 -6.63063830e-02 
 5.69650000e+10	-2.93951565e-03 -6.68159109e-02  9.96796809e-01 -4.38533240e-02  9.96796809e-01 -4.38533240e-02 -2.93951565e-03 -6.68159109e-02 
 5.76340000e+10	-3.01489392e-03 -6.73284642e-02  9.96727516e-01 -4.46323518e-02  9.96727516e-01 -4.46323518e-02 -3.01489392e-03 -6.73284642e-02 
 5.83030000e+10	-3.09100195e-03 -6.78439324e-02  9.96657285e-01 -4.54081814e-02  9.96657285e-01 -4.54081814e-02 -3.09100195e-03 -6.78439324e-02 
 5.89720000e+10	-3.16784407e-03 -6.83622097e-02  9.96586121e-01 -4.61809152e-02  9.96586121e-01 -4.61809152e-02 -3.16784407e-03 -6.83622097e-02 
 5.96410000e+10	-3.24542434e-03 -6.88831955e-02  9.96514028e-01 -4.69506509e-02  9.96514028e-01 -4.69506509e-02 -3.24542434e-03 -6.88831955e-02 
 6.03100000e+10	-3.32374657e-03 -6.94067930e-02  9.96441013e-01 -4.77174817e-02  9.96441013e-01 -4.77174817e-02 -3.32374657e-03 -6.94067930e-02 
 6.09790000e+10	-3.40281434e-03 -6.99329100e-02  9.96367078e-01 -4.84814969e-02  9.96367078e-01 -4.84814969e-02 -3.40281434e-03 -6.99329100e-02 
 6.16480000e+10	-3.48263102e-03 -7.04614581e-02  9.96292228e-01 -4.92427816e-02  9.96292228e-01 -4.92427816e-02 -3.48263102e-03 -7.04614581e-02 
 6.23170000e+10	-3.56319975e-03 -7.09923525e-02  9.96216466e-01 -5.00014172e-02  9.96216466e-01 -5.00014172e-02 -3.56319975e-03 -7.09923525e-02 
 6.29860000e+10	-3.64452351e-03 -7.15255122e-02  9.96139798e-01 -5.07574818e-02  9.96139798e-01 -5.07574818e-02 -3.64452351e-03 -7.15255122e-02 
 6.36550000e+10	-3.72660508e-03 -7.20608592e-02  9.96062225e-01 -5.15110500e-02  9.96062225e-01 -5.15110500e-02 -3.72660508e-03 -7.20608592e-02 
 6.43240000e+10	-3.80944708e-03 -7.25983191e-02  9.95983753e-01 -5.22621932e-02  9.95983753e-01 -5.22621932e-02 -3.80944708e-03 -7.25983191e-02 
 6.49930000e+10	-3.89305198e-03 -7.31378201e-02  9.95904383e-01 -5.30109797e-02  9.95904383e-01 -5.30109797e-02 -3.89305198e-03 -7.31378201e-02 
 6.56620000e+10	-3.97742207e-03 -7.36792935e-02  9.95824119e-01 -5.37574753e-02  9.95824119e-01 -5.37574753e-02 -3.97742207e-03 -7.36792935e-02 
 6.63310000e+10	-4.06255953e-03 -7.42226731e-02  9.95742964e-01 -5.45017428e-02  9.95742964e-01 -5.45017428e-02 -4.06255953e-03 -7.42226731e-02 
 6.70000000e+10	-4.14846639e-03 -7.47678956e-02  9.95660921e-01 -5.52438425e-02  9.95660921e-01 -5.52438425e-02 -4.14846639e-03 -7.47678956e-02 
