! Touchstone Ver. 1.0
! Number of ports is 2
# Hz  S RI  R  	50
! SCATTERING PARAMETERS  :
 1.00000000e+08	 9.99990423e-01 -3.52252305e-03  1.23743601e-06  2.86779775e-04  1.23743601e-06  2.86779775e-04  9.99990423e-01 -3.52252305e-03 
 2.99701493e+08	 9.99933840e-01 -1.05567815e-02  9.76781368e-06  8.59425051e-04  9.76781368e-06  8.59425051e-04  9.99933840e-01 -1.05567815e-02 
 4.99402985e+08	 9.99827440e-01 -1.75903415e-02  2.63557641e-05  1.43191358e-03  2.63557641e-05  1.43191358e-03  9.99827440e-01 -1.75903415e-02 
 6.99104478e+08	 9.99671232e-01 -2.46228014e-02  5.09988291e-05  2.00415048e-03  5.09988291e-05  2.00415048e-03  9.99671232e-01 -2.46228014e-02 
 8.98805970e+08	 9.99465228e-01 -3.16537594e-02  8.36933688e-05  2.57604087e-03  8.36933688e-05  2.57604087e-03  9.99465228e-01 -3.16537594e-02 
 1.09850746e+09	 9.99209443e-01 -3.86828139e-02  1.24434522e-04  3.14748997e-03  1.24434522e-04  3.14748997e-03  9.99209443e-01 -3.86828139e-02 
 1.29820896e+09	 9.98903899e-01 -4.57095637e-02  1.73216241e-04  3.71840305e-03  1.73216241e-04  3.71840305e-03  9.98903899e-01 -4.57095637e-02 
 1.49791045e+09	 9.98548617e-01 -5.27336077e-02  2.30031356e-04  4.28868548e-03  2.30031356e-04  4.28868548e-03  9.98548617e-01 -5.27336077e-02 
 1.69761194e+09	 9.98143627e-01 -5.97545451e-02  2.94871491e-04  4.85824273e-03  2.94871491e-04  4.85824273e-03  9.98143627e-01 -5.97545451e-02 
 1.89731343e+09	 9.97688959e-01 -6.67719755e-02  3.67727099e-04  5.42698040e-03  3.67727099e-04  5.42698040e-03  9.97688959e-01 -6.67719755e-02 
 2.09701493e+09	 9.97184649e-01 -7.37854988e-02  4.48587457e-04  5.99480424e-03  4.48587457e-04  5.99480424e-03  9.97184649e-01 -7.37854988e-02 
 2.29671642e+09	 9.96630736e-01 -8.07947153e-02  5.37440671e-04  6.56162015e-03  5.37440671e-04  6.56162015e-03  9.96630736e-01 -8.07947153e-02 
 2.49641791e+09	 9.96027263e-01 -8.77992260e-02  6.34273680e-04  7.12733420e-03  6.34273680e-04  7.12733420e-03  9.96027263e-01 -8.77992260e-02 
 2.69611940e+09	 9.95374277e-01 -9.47986322e-02  7.39072258e-04  7.69185268e-03  7.39072258e-04  7.69185268e-03  9.95374277e-01 -9.47986322e-02 
 2.89582090e+09	 9.94671829e-01 -1.01792536e-01  8.51821015e-04  8.25508204e-03  8.51821015e-04  8.25508204e-03  9.94671829e-01 -1.01792536e-01 
 3.09552239e+09	 9.93919974e-01 -1.08780540e-01  9.72503405e-04  8.81692901e-03  9.72503405e-04  8.81692901e-03  9.93919974e-01 -1.08780540e-01 
 3.29522388e+09	 9.93118769e-01 -1.15762246e-01  1.10110173e-03  9.37730052e-03  1.10110173e-03  9.37730052e-03  9.93118769e-01 -1.15762246e-01 
 3.49492537e+09	 9.92268278e-01 -1.22737260e-01  1.23759713e-03  9.93610378e-03  1.23759713e-03  9.93610378e-03  9.92268278e-01 -1.22737260e-01 
 3.69462687e+09	 9.91368565e-01 -1.29705186e-01  1.38196962e-03  1.04932463e-02  1.38196962e-03  1.04932463e-02  9.91368565e-01 -1.29705186e-01 
 3.89432836e+09	 9.90419701e-01 -1.36665629e-01  1.53419805e-03  1.10486357e-02  1.53419805e-03  1.10486357e-02  9.90419701e-01 -1.36665629e-01 
 4.09402985e+09	 9.89421760e-01 -1.43618196e-01  1.69426015e-03  1.16021803e-02  1.69426015e-03  1.16021803e-02  9.89421760e-01 -1.43618196e-01 
 4.29373134e+09	 9.88374818e-01 -1.50562493e-01  1.86213252e-03  1.21537883e-02  1.86213252e-03  1.21537883e-02  9.88374818e-01 -1.50562493e-01 
 4.49343284e+09	 9.87278957e-01 -1.57498130e-01  2.03779062e-03  1.27033685e-02  2.03779062e-03  1.27033685e-02  9.87278957e-01 -1.57498130e-01 
 4.69313433e+09	 9.86134262e-01 -1.64424714e-01  2.22120880e-03  1.32508300e-02  2.22120880e-03  1.32508300e-02  9.86134262e-01 -1.64424714e-01 
 4.89283582e+09	 9.84940820e-01 -1.71341856e-01  2.41236029e-03  1.37960823e-02  2.41236029e-03  1.37960823e-02  9.84940820e-01 -1.71341856e-01 
 5.09253731e+09	 9.83698726e-01 -1.78249168e-01  2.61121602e-03  1.43390354e-02  2.61121602e-03  1.43390354e-02  9.83698726e-01 -1.78249168e-01 
 5.29223881e+09	 9.82408075e-01 -1.85146261e-01  2.81774680e-03  1.48795997e-02  2.81774680e-03  1.48795997e-02  9.82408075e-01 -1.85146261e-01 
 5.49194030e+09	 9.81068967e-01 -1.92032748e-01  3.03192352e-03  1.54176856e-02  3.03192352e-03  1.54176856e-02  9.81068967e-01 -1.92032748e-01 
 5.69164179e+09	 9.79681503e-01 -1.98908246e-01  3.25371505e-03  1.59532043e-02  3.25371505e-03  1.59532043e-02  9.79681503e-01 -1.98908246e-01 
 5.89134328e+09	 9.78245792e-01 -2.05772368e-01  3.48308916e-03  1.64860673e-02  3.48308916e-03  1.64860673e-02  9.78245792e-01 -2.05772368e-01 
 6.09104478e+09	 9.76761945e-01 -2.12624733e-01  3.72001250e-03  1.70161866e-02  3.72001250e-03  1.70161866e-02  9.76761945e-01 -2.12624733e-01 
 6.29074627e+09	 9.75230074e-01 -2.19464958e-01  3.96445069e-03  1.75434747e-02  3.96445069e-03  1.75434747e-02  9.75230074e-01 -2.19464958e-01 
 6.49044776e+09	 9.73650298e-01 -2.26292664e-01  4.21636827e-03  1.80678447e-02  4.21636827e-03  1.80678447e-02  9.73650298e-01 -2.26292664e-01 
 6.69014925e+09	 9.72022739e-01 -2.33107471e-01  4.47572873e-03  1.85892099e-02  4.47572873e-03  1.85892099e-02  9.72022739e-01 -2.33107471e-01 
 6.88985075e+09	 9.70347520e-01 -2.39909002e-01  4.74249455e-03  1.91074845e-02  4.74249455e-03  1.91074845e-02  9.70347520e-01 -2.39909002e-01 
 7.08955224e+09	 9.68624771e-01 -2.46696882e-01  5.01662714e-03  1.96225830e-02  5.01662714e-03  1.96225830e-02  9.68624771e-01 -2.46696882e-01 
 7.28925373e+09	 9.66854624e-01 -2.53470735e-01  5.29808691e-03  2.01344205e-02  5.29808691e-03  2.01344205e-02  9.66854624e-01 -2.53470735e-01 
 7.48895522e+09	 9.65037213e-01 -2.60230188e-01  5.58683324e-03  2.06429126e-02  5.58683324e-03  2.06429126e-02  9.65037213e-01 -2.60230188e-01 
 7.68865672e+09	 9.63172679e-01 -2.66974871e-01  5.88282453e-03  2.11479756e-02  5.88282453e-03  2.11479756e-02  9.63172679e-01 -2.66974871e-01 
 7.88835821e+09	 9.61261162e-01 -2.73704414e-01  6.18601816e-03  2.16495263e-02  6.18601816e-03  2.16495263e-02  9.61261162e-01 -2.73704414e-01 
 8.08805970e+09	 9.59302809e-01 -2.80418448e-01  6.49637054e-03  2.21474821e-02  6.49637054e-03  2.21474821e-02  9.59302809e-01 -2.80418448e-01 
 8.28776119e+09	 9.57297770e-01 -2.87116608e-01  6.81383709e-03  2.26417612e-02  6.81383709e-03  2.26417612e-02  9.57297770e-01 -2.87116608e-01 
 8.48746269e+09	 9.55246195e-01 -2.93798529e-01  7.13837228e-03  2.31322821e-02  7.13837228e-03  2.31322821e-02  9.55246195e-01 -2.93798529e-01 
 8.68716418e+09	 9.53148242e-01 -3.00463847e-01  7.46992962e-03  2.36189642e-02  7.46992962e-03  2.36189642e-02  9.53148242e-01 -3.00463847e-01 
 8.88686567e+09	 9.51004070e-01 -3.07112203e-01  7.80846167e-03  2.41017275e-02  7.80846167e-03  2.41017275e-02  9.51004070e-01 -3.07112203e-01 
 9.08656716e+09	 9.48813840e-01 -3.13743236e-01  8.15392005e-03  2.45804926e-02  8.15392005e-03  2.45804926e-02  9.48813840e-01 -3.13743236e-01 
 9.28626866e+09	 9.46577720e-01 -3.20356591e-01  8.50625548e-03  2.50551809e-02  8.50625548e-03  2.50551809e-02  9.46577720e-01 -3.20356591e-01 
 9.48597015e+09	 9.44295876e-01 -3.26951911e-01  8.86541775e-03  2.55257143e-02  8.86541775e-03  2.55257143e-02  9.44295876e-01 -3.26951911e-01 
 9.68567164e+09	 9.41968483e-01 -3.33528843e-01  9.23135575e-03  2.59920156e-02  9.23135575e-03  2.59920156e-02  9.41968483e-01 -3.33528843e-01 
 9.88537313e+09	 9.39595716e-01 -3.40087036e-01  9.60401749e-03  2.64540082e-02  9.60401749e-03  2.64540082e-02  9.39595716e-01 -3.40087036e-01 
 1.00850746e+10	 9.37177824e-01 -3.46626168e-01  9.98333646e-03  2.69116237e-02  9.98333646e-03  2.69116237e-02  9.37177824e-01 -3.46626168e-01 
 1.02847761e+10	 9.34714992e-01 -3.53145894e-01  1.03692589e-02  2.73647876e-02  1.03692589e-02  2.73647876e-02  9.34714992e-01 -3.53145894e-01 
 1.04844776e+10	 9.32207350e-01 -3.59645849e-01  1.07617402e-02  2.78134202e-02  1.07617402e-02  2.78134202e-02  9.32207350e-01 -3.59645849e-01 
 1.06841791e+10	 9.29655078e-01 -3.66125688e-01  1.11607267e-02  2.82574471e-02  1.11607267e-02  2.82574471e-02  9.29655078e-01 -3.66125688e-01 
 1.08838806e+10	 9.27058366e-01 -3.72585070e-01  1.15661622e-02  2.86967957e-02  1.15661622e-02  2.86967957e-02  9.27058366e-01 -3.72585070e-01 
 1.10835821e+10	 9.24417409e-01 -3.79023657e-01  1.19779894e-02  2.91313939e-02  1.19779894e-02  2.91313939e-02  9.24417409e-01 -3.79023657e-01 
 1.12832836e+10	 9.21732404e-01 -3.85441113e-01  1.23961506e-02  2.95611706e-02  1.23961506e-02  2.95611706e-02  9.21732404e-01 -3.85441113e-01 
 1.14829851e+10	 9.19003550e-01 -3.91837104e-01  1.28205871e-02  2.99860554e-02  1.28205871e-02  2.99860554e-02  9.19003550e-01 -3.91837104e-01 
 1.16826866e+10	 9.16231051e-01 -3.98211298e-01  1.32512393e-02  3.04059787e-02  1.32512393e-02  3.04059787e-02  9.16231051e-01 -3.98211298e-01 
 1.18823881e+10	 9.13415112e-01 -4.04563367e-01  1.36880471e-02  3.08208719e-02  1.36880471e-02  3.08208719e-02  9.13415112e-01 -4.04563367e-01 
 1.20820896e+10	 9.10555943e-01 -4.10892984e-01  1.41309494e-02  3.12306671e-02  1.41309494e-02  3.12306671e-02  9.10555943e-01 -4.10892984e-01 
 1.22817910e+10	 9.07653754e-01 -4.17199824e-01  1.45798847e-02  3.16352970e-02  1.45798847e-02  3.16352971e-02  9.07653754e-01 -4.17199824e-01 
 1.24814925e+10	 9.04708760e-01 -4.23483565e-01  1.50347903e-02  3.20346957e-02  1.50347903e-02  3.20346957e-02  9.04708760e-01 -4.23483565e-01 
 1.26811940e+10	 9.01721178e-01 -4.29743889e-01  1.54956033e-02  3.24287976e-02  1.54956033e-02  3.24287976e-02  9.01721178e-01 -4.29743889e-01 
 1.28808955e+10	 8.98691228e-01 -4.35980477e-01  1.59622597e-02  3.28175383e-02  1.59622597e-02  3.28175383e-02  8.98691228e-01 -4.35980477e-01 
 1.30805970e+10	 8.95619132e-01 -4.42193016e-01  1.64346950e-02  3.32008541e-02  1.64346950e-02  3.32008541e-02  8.95619132e-01 -4.42193016e-01 
 1.32802985e+10	 8.92505115e-01 -4.48381192e-01  1.69128440e-02  3.35786823e-02  1.69128440e-02  3.35786823e-02  8.92505115e-01 -4.48381192e-01 
 1.34800000e+10	 8.89349405e-01 -4.54544698e-01  1.73966408e-02  3.39509610e-02  1.73966408e-02  3.39509610e-02  8.89349405e-01 -4.54544698e-01 
 1.36797015e+10	 8.86152233e-01 -4.60683225e-01  1.78860190e-02  3.43176292e-02  1.78860190e-02  3.43176292e-02  8.86152233e-01 -4.60683225e-01 
 1.38794030e+10	 8.82913830e-01 -4.66796470e-01  1.83809114e-02  3.46786269e-02  1.83809114e-02  3.46786269e-02  8.82913830e-01 -4.66796470e-01 
 1.40791045e+10	 8.79634433e-01 -4.72884131e-01  1.88812503e-02  3.50338948e-02  1.88812503e-02  3.50338948e-02  8.79634433e-01 -4.72884131e-01 
 1.42788060e+10	 8.76314279e-01 -4.78945909e-01  1.93869673e-02  3.53833747e-02  1.93869673e-02  3.53833747e-02  8.76314279e-01 -4.78945909e-01 
 1.44785075e+10	 8.72953609e-01 -4.84981507e-01  1.98979935e-02  3.57270093e-02  1.98979935e-02  3.57270093e-02  8.72953609e-01 -4.84981507e-01 
 1.46782090e+10	 8.69552665e-01 -4.90990631e-01  2.04142594e-02  3.60647421e-02  2.04142594e-02  3.60647421e-02  8.69552665e-01 -4.90990631e-01 
 1.48779104e+10	 8.66111692e-01 -4.96972992e-01  2.09356949e-02  3.63965177e-02  2.09356949e-02  3.63965177e-02  8.66111692e-01 -4.96972992e-01 
 1.50776119e+10	 8.62630938e-01 -5.02928299e-01  2.14622294e-02  3.67222814e-02  2.14622294e-02  3.67222814e-02  8.62630938e-01 -5.02928299e-01 
 1.52773134e+10	 8.59110652e-01 -5.08856269e-01  2.19937918e-02  3.70419797e-02  2.19937918e-02  3.70419797e-02  8.59110652e-01 -5.08856269e-01 
 1.54770149e+10	 8.55551086e-01 -5.14756618e-01  2.25303104e-02  3.73555598e-02  2.25303104e-02  3.73555598e-02  8.55551086e-01 -5.14756618e-01 
 1.56767164e+10	 8.51952495e-01 -5.20629066e-01  2.30717130e-02  3.76629702e-02  2.30717130e-02  3.76629702e-02  8.51952495e-01 -5.20629066e-01 
 1.58764179e+10	 8.48315134e-01 -5.26473336e-01  2.36179271e-02  3.79641599e-02  2.36179271e-02  3.79641599e-02  8.48315134e-01 -5.26473336e-01 
 1.60761194e+10	 8.44639263e-01 -5.32289154e-01  2.41688795e-02  3.82590792e-02  2.41688795e-02  3.82590792e-02  8.44639263e-01 -5.32289154e-01 
 1.62758209e+10	 8.40925141e-01 -5.38076249e-01  2.47244967e-02  3.85476792e-02  2.47244967e-02  3.85476792e-02  8.40925141e-01 -5.38076249e-01 
 1.64755224e+10	 8.37173032e-01 -5.43834351e-01  2.52847045e-02  3.88299121e-02  2.52847045e-02  3.88299121e-02  8.37173032e-01 -5.43834351e-01 
 1.66752239e+10	 8.33383201e-01 -5.49563195e-01  2.58494286e-02  3.91057309e-02  2.58494286e-02  3.91057309e-02  8.33383201e-01 -5.49563195e-01 
 1.68749254e+10	 8.29555913e-01 -5.55262519e-01  2.64185941e-02  3.93750897e-02  2.64185941e-02  3.93750897e-02  8.29555913e-01 -5.55262519e-01 
 1.70746269e+10	 8.25691438e-01 -5.60932061e-01  2.69921258e-02  3.96379435e-02  2.69921258e-02  3.96379435e-02  8.25691438e-01 -5.60932061e-01 
 1.72743284e+10	 8.21790047e-01 -5.66571567e-01  2.75699480e-02  3.98942484e-02  2.75699480e-02  3.98942484e-02  8.21790047e-01 -5.66571567e-01 
 1.74740299e+10	 8.17852011e-01 -5.72180780e-01  2.81519847e-02  4.01439612e-02  2.81519847e-02  4.01439612e-02  8.17852011e-01 -5.72180780e-01 
 1.76737313e+10	 8.13877606e-01 -5.77759452e-01  2.87381595e-02  4.03870401e-02  2.87381595e-02  4.03870401e-02  8.13877606e-01 -5.77759452e-01 
 1.78734328e+10	 8.09867107e-01 -5.83307332e-01  2.93283957e-02  4.06234440e-02  2.93283957e-02  4.06234440e-02  8.09867107e-01 -5.83307332e-01 
 1.80731343e+10	 8.05820792e-01 -5.88824176e-01  2.99226162e-02  4.08531327e-02  2.99226162e-02  4.08531327e-02  8.05820792e-01 -5.88824176e-01 
 1.82728358e+10	 8.01738941e-01 -5.94309743e-01  3.05207438e-02  4.10760673e-02  3.05207438e-02  4.10760673e-02  8.01738941e-01 -5.94309743e-01 
 1.84725373e+10	 7.97621836e-01 -5.99763792e-01  3.11227007e-02  4.12922096e-02  3.11227007e-02  4.12922096e-02  7.97621836e-01 -5.99763792e-01 
 1.86722388e+10	 7.93469759e-01 -6.05186088e-01  3.17284090e-02  4.15015226e-02  3.17284090e-02  4.15015226e-02  7.93469759e-01 -6.05186088e-01 
 1.88719403e+10	 7.89282996e-01 -6.10576398e-01  3.23377905e-02  4.17039702e-02  3.23377905e-02  4.17039702e-02  7.89282996e-01 -6.10576398e-01 
 1.90716418e+10	 7.85061831e-01 -6.15934492e-01  3.29507667e-02  4.18995173e-02  3.29507667e-02  4.18995173e-02  7.85061831e-01 -6.15934492e-01 
 1.92713433e+10	 7.80806554e-01 -6.21260142e-01  3.35672589e-02  4.20881297e-02  3.35672589e-02  4.20881297e-02  7.80806554e-01 -6.21260142e-01 
 1.94710448e+10	 7.76517453e-01 -6.26553126e-01  3.41871883e-02  4.22697744e-02  3.41871883e-02  4.22697744e-02  7.76517453e-01 -6.26553126e-01 
 1.96707463e+10	 7.72194820e-01 -6.31813221e-01  3.48104755e-02  4.24444191e-02  3.48104755e-02  4.24444191e-02  7.72194820e-01 -6.31813221e-01 
 1.98704478e+10	 7.67838945e-01 -6.37040210e-01  3.54370414e-02  4.26120329e-02  3.54370414e-02  4.26120329e-02  7.67838945e-01 -6.37040210e-01 
 2.00701493e+10	 7.63450124e-01 -6.42233880e-01  3.60668063e-02  4.27725854e-02  3.60668063e-02  4.27725854e-02  7.63450124e-01 -6.42233880e-01 
 2.02698507e+10	 7.59028651e-01 -6.47394017e-01  3.66996905e-02  4.29260477e-02  3.66996905e-02  4.29260477e-02  7.59028651e-01 -6.47394017e-01 
 2.04695522e+10	 7.54574822e-01 -6.52520413e-01  3.73356143e-02  4.30723914e-02  3.73356143e-02  4.30723914e-02  7.54574822e-01 -6.52520413e-01 
 2.06692537e+10	 7.50088934e-01 -6.57612864e-01  3.79744975e-02  4.32115895e-02  3.79744975e-02  4.32115895e-02  7.50088934e-01 -6.57612864e-01 
 2.08689552e+10	 7.45571287e-01 -6.62671166e-01  3.86162601e-02  4.33436156e-02  3.86162601e-02  4.33436156e-02  7.45571287e-01 -6.62671166e-01 
 2.10686567e+10	 7.41022180e-01 -6.67695120e-01  3.92608217e-02  4.34684448e-02  3.92608217e-02  4.34684448e-02  7.41022180e-01 -6.67695120e-01 
 2.12683582e+10	 7.36441915e-01 -6.72684531e-01  3.99081021e-02  4.35860526e-02  3.99081021e-02  4.35860526e-02  7.36441915e-01 -6.72684531e-01 
 2.14680597e+10	 7.31830794e-01 -6.77639206e-01  4.05580208e-02  4.36964158e-02  4.05580208e-02  4.36964158e-02  7.31830794e-01 -6.77639206e-01 
 2.16677612e+10	 7.27189120e-01 -6.82558954e-01  4.12104972e-02  4.37995123e-02  4.12104972e-02  4.37995123e-02  7.27189120e-01 -6.82558954e-01 
 2.18674627e+10	 7.22517198e-01 -6.87443589e-01  4.18654508e-02  4.38953206e-02  4.18654508e-02  4.38953206e-02  7.22517198e-01 -6.87443589e-01 
 2.20671642e+10	 7.17815332e-01 -6.92292928e-01  4.25228010e-02  4.39838205e-02  4.25228010e-02  4.39838205e-02  7.17815332e-01 -6.92292928e-01 
 2.22668657e+10	 7.13083830e-01 -6.97106789e-01  4.31824670e-02  4.40649927e-02  4.31824670e-02  4.40649927e-02  7.13083830e-01 -6.97106789e-01 
 2.24665672e+10	 7.08322998e-01 -7.01884995e-01  4.38443683e-02  4.41388188e-02  4.38443683e-02  4.41388188e-02  7.08322998e-01 -7.01884995e-01 
 2.26662687e+10	 7.03533146e-01 -7.06627373e-01  4.45084240e-02  4.42052813e-02  4.45084240e-02  4.42052813e-02  7.03533146e-01 -7.06627373e-01 
 2.28659701e+10	 6.98714581e-01 -7.11333751e-01  4.51745535e-02  4.42643638e-02  4.51745535e-02  4.42643638e-02  6.98714581e-01 -7.11333751e-01 
 2.30656716e+10	 6.93867615e-01 -7.16003961e-01  4.58426761e-02  4.43160508e-02  4.58426761e-02  4.43160508e-02  6.93867615e-01 -7.16003961e-01 
 2.32653731e+10	 6.88992556e-01 -7.20637838e-01  4.65127111e-02  4.43603278e-02  4.65127111e-02  4.43603278e-02  6.88992556e-01 -7.20637838e-01 
 2.34650746e+10	 6.84089718e-01 -7.25235221e-01  4.71845779e-02  4.43971812e-02  4.71845779e-02  4.43971812e-02  6.84089718e-01 -7.25235221e-01 
 2.36647761e+10	 6.79159412e-01 -7.29795951e-01  4.78581960e-02  4.44265983e-02  4.78581960e-02  4.44265983e-02  6.79159412e-01 -7.29795951e-01 
 2.38644776e+10	 6.74201952e-01 -7.34319872e-01  4.85334849e-02  4.44485675e-02  4.85334849e-02  4.44485675e-02  6.74201952e-01 -7.34319872e-01 
 2.40641791e+10	 6.69217650e-01 -7.38806833e-01  4.92103640e-02  4.44630779e-02  4.92103640e-02  4.44630779e-02  6.69217650e-01 -7.38806833e-01 
 2.42638806e+10	 6.64206820e-01 -7.43256683e-01  4.98887532e-02  4.44701198e-02  4.98887532e-02  4.44701198e-02  6.64206820e-01 -7.43256683e-01 
 2.44635821e+10	 6.59169778e-01 -7.47669277e-01  5.05685721e-02  4.44696842e-02  5.05685721e-02  4.44696842e-02  6.59169778e-01 -7.47669277e-01 
 2.46632836e+10	 6.54106838e-01 -7.52044472e-01  5.12497407e-02  4.44617632e-02  5.12497407e-02  4.44617632e-02  6.54106838e-01 -7.52044472e-01 
 2.48629851e+10	 6.49018317e-01 -7.56382127e-01  5.19321789e-02  4.44463496e-02  5.19321789e-02  4.44463496e-02  6.49018317e-01 -7.56382127e-01 
 2.50626866e+10	 6.43904531e-01 -7.60682107e-01  5.26158069e-02  4.44234374e-02  5.26158069e-02  4.44234374e-02  6.43904531e-01 -7.60682107e-01 
 2.52623881e+10	 6.38765795e-01 -7.64944277e-01  5.33005449e-02  4.43930213e-02  5.33005449e-02  4.43930213e-02  6.38765795e-01 -7.64944277e-01 
 2.54620896e+10	 6.33602428e-01 -7.69168506e-01  5.39863134e-02  4.43550969e-02  5.39863134e-02  4.43550969e-02  6.33602428e-01 -7.69168506e-01 
 2.56617910e+10	 6.28414746e-01 -7.73354667e-01  5.46730331e-02  4.43096608e-02  5.46730331e-02  4.43096608e-02  6.28414746e-01 -7.73354667e-01 
 2.58614925e+10	 6.23203067e-01 -7.77502635e-01  5.53606246e-02  4.42567105e-02  5.53606246e-02  4.42567105e-02  6.23203067e-01 -7.77502635e-01 
 2.60611940e+10	 6.17967710e-01 -7.81612290e-01  5.60490090e-02  4.41962442e-02  5.60490090e-02  4.41962442e-02  6.17967710e-01 -7.81612290e-01 
 2.62608955e+10	 6.12708992e-01 -7.85683512e-01  5.67381075e-02  4.41282612e-02  5.67381075e-02  4.41282612e-02  6.12708992e-01 -7.85683512e-01 
 2.64605970e+10	 6.07427232e-01 -7.89716186e-01  5.74278414e-02  4.40527615e-02  5.74278414e-02  4.40527615e-02  6.07427232e-01 -7.89716186e-01 
 2.66602985e+10	 6.02122749e-01 -7.93710200e-01  5.81181324e-02  4.39697461e-02  5.81181324e-02  4.39697461e-02  6.02122749e-01 -7.93710200e-01 
 2.68600000e+10	 5.96795862e-01 -7.97665445e-01  5.88089023e-02  4.38792167e-02  5.88089023e-02  4.38792167e-02  5.96795862e-01 -7.97665445e-01 
 2.70597015e+10	 5.91446889e-01 -8.01581813e-01  5.95000732e-02  4.37811760e-02  5.95000732e-02  4.37811760e-02  5.91446889e-01 -8.01581813e-01 
 2.72594030e+10	 5.86076150e-01 -8.05459203e-01  6.01915675e-02  4.36756275e-02  6.01915675e-02  4.36756275e-02  5.86076150e-01 -8.05459203e-01 
