! Touchstone Ver. 1.0
! Number of ports is 4
# Hz  S RI  R  	50
! SCATTERING PARAMETERS  :
 1.00000000e+08	 8.09433429e-04 -1.50159995e-04  3.10686331e-05  9.88520677e-04  9.99175988e-01 -3.06795314e-03 -2.57928858e-05 -1.01162724e-04  3.10679421e-05  9.88379911e-04  7.29639786e-04 -3.16517857e-04 -2.57940285e-05 -1.01303505e-04  9.99254543e-01 -3.10072703e-03  9.99175988e-01 -3.06795314e-03 -2.57928858e-05 -1.01162724e-04  8.09433429e-04 -1.50159995e-04  3.10686331e-05  9.88520677e-04 -2.57940285e-05 -1.01303505e-04  9.99254543e-01 -3.10072703e-03  3.10679421e-05  9.88379911e-04  7.29639786e-04 -3.16517857e-04 
 7.69000000e+08	 8.12613522e-04 -1.15497722e-03  2.34224629e-04  7.59749167e-03  9.98786105e-01 -2.35870247e-02 -4.09035344e-05 -7.77799741e-04  2.34193729e-04  7.59640981e-03  6.94518431e-04 -2.43346628e-03 -4.09352063e-05 -7.78881781e-04  9.98860407e-01 -2.38389745e-02  9.98786105e-01 -2.35870247e-02 -4.09035344e-05 -7.77799741e-04  8.12613522e-04 -1.15497722e-03  2.34224629e-04  7.59749167e-03 -4.09352063e-05 -7.78881781e-04  9.98860407e-01 -2.38389745e-02  2.34193729e-04  7.59640981e-03  6.94518431e-04 -2.43346628e-03 
 1.43800000e+09	 7.94231486e-04 -2.15964223e-03  7.02775136e-04  1.41906958e-02  9.97919537e-01 -4.40866324e-02 -5.84790126e-05 -1.45503214e-03  7.02672276e-04  1.41886753e-02  5.90499169e-04 -4.54733455e-03 -5.85829263e-05 -1.45705329e-03  9.97977918e-01 -4.45571949e-02  9.97919537e-01 -4.40866324e-02 -5.84790126e-05 -1.45503214e-03  7.94231486e-04 -2.15964223e-03  7.02775136e-04  1.41906958e-02 -5.85829263e-05 -1.45705329e-03  9.97977918e-01 -4.45571949e-02  7.02672276e-04  1.41886753e-02  5.90499169e-04 -4.54733455e-03 
 2.10700000e+09	 7.49108873e-04 -3.16309168e-03  1.43810941e-03  2.07564339e-02  9.96582561e-01 -6.45533695e-02 -8.11421590e-05 -2.13397925e-03  1.43789304e-03  2.07534792e-02  4.13002365e-04 -6.65497194e-03 -8.13599132e-05 -2.13693574e-03  9.96613009e-01 -6.52413608e-02  9.96582561e-01 -6.45533695e-02 -8.11421590e-05 -2.13397925e-03  7.49108873e-04 -3.16309168e-03  1.43810941e-03  2.07564339e-02 -8.13599132e-05 -2.13693574e-03  9.96613009e-01 -6.52413608e-02  1.43789304e-03  2.07534792e-02  4.13002365e-04 -6.65497194e-03 
 2.77600000e+09	 6.72223052e-04 -4.16394040e-03  2.44102484e-03  2.72830420e-02  9.94781896e-01 -8.49742313e-02 -1.11604369e-04 -2.81570040e-03  2.44065369e-03  2.72791594e-02  1.57696665e-04 -8.75296767e-03 -1.11977375e-04 -2.81958683e-03  9.94772099e-01 -8.58778042e-02  9.94781896e-01 -8.49742313e-02 -1.11604369e-04 -2.81570040e-03  6.72223052e-04 -4.16394040e-03  2.44102484e-03  2.72830420e-02 -1.11977375e-04 -2.81958683e-03  9.94772099e-01 -8.58778042e-02  2.44065369e-03  2.72791594e-02  1.57696665e-04 -8.75296767e-03 
 3.44500000e+09	 5.63687529e-04 -5.16091105e-03  3.70937741e-03  3.37589739e-02  9.92519711e-01 -1.05336219e-01 -1.50305258e-04 -3.50123783e-03  3.70881059e-03  3.37541716e-02 -1.74900530e-04 -1.08380251e-02 -1.50874647e-04 -3.50604720e-03  9.92457481e-01 -1.06452884e-01  9.92519711e-01 -1.05336219e-01 -1.50305258e-04 -3.50123783e-03  5.63687529e-04 -5.16091105e-03  3.70937741e-03  3.37589739e-02 -1.50874647e-04 -3.50604720e-03  9.92457481e-01 -1.06452884e-01  3.70881059e-03  3.37541716e-02 -1.74900530e-04 -1.08380251e-02 
 4.11400000e+09	 4.23797433e-04 -6.15275124e-03  5.24042721e-03  4.01728208e-02  9.89798576e-01 -1.25626457e-01 -1.97747890e-04 -4.19159623e-03  5.23962429e-03  4.01671088e-02 -5.84001638e-04 -1.29068972e-02 -1.98554441e-04 -4.19731997e-03  9.89671892e-01 -1.26953093e-01  9.89798576e-01 -1.25626457e-01 -1.97747890e-04 -4.19159623e-03  4.23797433e-04 -6.15275124e-03  5.24042721e-03  4.01728208e-02 -1.98554441e-04 -4.19731997e-03  9.89671892e-01 -1.26953093e-01  5.23962429e-03  4.01671088e-02 -5.84001638e-04 -1.29068972e-02 
 4.78300000e+09	 2.52920494e-04 -7.13823753e-03  7.03089851e-03  4.65133399e-02  9.86621554e-01 -1.45832220e-01 -2.54545471e-04 -4.88773342e-03  7.02981959e-03  4.65067301e-02 -1.06865161e-03 -1.49563956e-02 -2.55629541e-04 -4.89436138e-03  9.86418599e-01 -1.47365085e-01  9.86621554e-01 -1.45832220e-01 -2.54545471e-04 -4.88773342e-03  2.52920494e-04 -7.13823753e-03  7.03089851e-03  4.65133399e-02 -2.55629541e-04 -4.89436138e-03  9.86418599e-01 -1.47365085e-01  7.02981959e-03  4.65067301e-02 -1.06865161e-03 -1.49563956e-02 
 5.45200000e+09	 5.30354866e-05 -8.11625182e-03  9.07408350e-03  5.27698510e-02  9.82990632e-01 -1.65940884e-01 -3.18487764e-04 -5.59092439e-03  9.07268932e-03  5.27623570e-02 -1.62624770e-03 -1.69834526e-02 -3.19889197e-04 -5.59844489e-03  9.82699884e-01 -1.67675655e-01  9.82990632e-01 -1.65940884e-01 -3.18487764e-04 -5.59092439e-03  5.30354866e-05 -8.11625182e-03  9.07408350e-03  5.27698510e-02 -3.19889197e-04 -5.59844489e-03  9.82699884e-01 -1.67675655e-01  9.07268932e-03  5.27623570e-02 -1.62624770e-03 -1.69834526e-02 
 6.12100000e+09	-1.76264977e-04 -9.08562359e-03  1.13674182e-02  5.89314113e-02  9.78910740e-01 -1.85940124e-01 -3.92141560e-04 -6.30189224e-03  1.13656703e-02  5.89230486e-02 -2.25639217e-03 -1.89850145e-02 -3.93899660e-04 -6.31029208e-03  9.78520914e-01 -1.87871881e-01  9.78910740e-01 -1.85940124e-01 -3.92141560e-04 -6.30189224e-03 -1.76264977e-04 -9.08562359e-03  1.13674182e-02  5.89314113e-02 -3.93899660e-04 -6.31029208e-03  9.78520914e-01 -1.87871881e-01  1.13656703e-02  5.89230486e-02 -2.25639217e-03 -1.89850145e-02 
 6.79000000e+09	-4.34998307e-04 -1.00452264e-02  1.39072069e-02  6.49873251e-02  9.74386938e-01 -2.05817839e-01 -4.77535784e-04 -7.02128542e-03  1.39050675e-02  6.49781109e-02 -2.95822271e-03 -2.09581169e-02 -4.79689242e-04 -7.03054995e-03  9.73887032e-01 -2.07941090e-01  9.74386938e-01 -2.05817839e-01 -4.77535784e-04 -7.02128542e-03 -4.34998307e-04 -1.00452264e-02  1.39072069e-02  6.49873251e-02 -4.79689242e-04 -7.03054995e-03  9.73887032e-01 -2.07941090e-01  1.39050675e-02  6.49781109e-02 -2.95822271e-03 -2.09581169e-02 
 7.45900000e+09	-7.22586069e-04 -1.09940039e-02  1.66882542e-02  7.09272778e-02  9.69424185e-01 -2.25562156e-01 -5.75762620e-04 -7.74978183e-03  1.66856865e-02  7.09172308e-02 -3.73021658e-03 -2.28999086e-02 -5.78349446e-04 -7.75989494e-03  9.68803532e-01 -2.27870861e-01  9.69424185e-01 -2.25562156e-01 -5.75762620e-04 -7.74978183e-03 -7.22586069e-04 -1.09940039e-02  1.66882542e-02  7.09272778e-02 -5.78349446e-04 -7.75989494e-03  9.68803532e-01 -2.27870861e-01  1.66856865e-02  7.09172308e-02 -3.73021658e-03 -2.28999086e-02 
 8.12800000e+09	-1.03835214e-03 -1.19309546e-02  1.97048190e-02  7.67412620e-02  9.64027820e-01 -2.45161470e-01 -6.87911019e-04 -8.48798312e-03  1.97017871e-02  7.67304027e-02 -4.57067380e-03 -2.48076466e-02 -6.90968483e-04 -8.49892732e-03  9.63276116e-01 -2.47649066e-01  9.64027820e-01 -2.45161470e-01 -6.87911019e-04 -8.48798312e-03 -1.03835214e-03 -1.19309546e-02  1.97048190e-02  7.67412620e-02 -6.90968483e-04 -8.49892732e-03  9.63276116e-01 -2.47649066e-01  1.97017871e-02  7.67304027e-02 -4.57067380e-03 -2.48076466e-02 
 8.79700000e+09	-1.38157275e-03 -1.28551342e-02  2.29507186e-02  8.24195907e-02  9.58203589e-01 -2.64604464e-01 -8.15145050e-04 -9.23639908e-03  2.29471878e-02  8.24079411e-02 -5.47776913e-03 -2.66787027e-02 -8.18709624e-04 -9.24815551e-03  9.57310922e-01 -2.67263890e-01  9.58203589e-01 -2.64604464e-01 -8.15145050e-04 -9.23639908e-03 -1.38157275e-03 -1.28551342e-02  2.29507186e-02  8.24195907e-02 -8.18709624e-04 -9.24815551e-03  9.57310922e-01 -2.67263890e-01  2.29471878e-02  8.24079411e-02 -5.47776913e-03 -2.66787027e-02 
 9.46600000e+09	-1.75148185e-03 -1.37656583e-02  2.64193501e-02  8.79529184e-02  9.51957624e-01 -2.83880131e-01 -9.58696277e-04 -9.99544219e-03  2.64152866e-02  8.79405020e-02 -6.44956119e-03 -2.85105700e-02 -9.62803584e-04 -1.00079907e-02  9.50914497e-01 -2.86703852e-01  9.51957624e-01 -2.83880131e-01 -9.58696277e-04 -9.99544219e-03 -1.75148185e-03 -1.37656583e-02  2.64193501e-02  8.79529184e-02 -9.62803584e-04 -1.00079907e-02  9.50914497e-01 -2.86703852e-01  2.64152866e-02  8.79405020e-02 -6.44956119e-03 -2.85105700e-02 
 1.01350000e+10	-2.15679535e-03 -1.46587019e-02  3.01032689e-02  9.33335100e-02  9.45306114e-01 -3.02980859e-01 -1.11948026e-03 -1.07666305e-02  3.00986402e-02  9.33203517e-02 -7.49261925e-03 -3.02982729e-02 -1.12416499e-03 -1.07799496e-02  9.44102572e-01 -3.05960493e-01  9.45306114e-01 -3.02980859e-01 -1.11948026e-03 -1.07666305e-02 -2.15679535e-03 -1.46587019e-02  3.01032689e-02  9.33335100e-02 -1.12416499e-03 -1.07799496e-02  9.44102572e-01 -3.05960493e-01  3.00986402e-02  9.33203517e-02 -7.49261925e-03 -3.02982729e-02 
 1.08040000e+10	-2.60584921e-03 -1.55298291e-02  3.39948802e-02  9.85542718e-02  9.38265326e-01 -3.21900103e-01 -1.29871630e-03 -1.15516074e-02  3.39896550e-02  9.85403979e-02 -8.61312067e-03 -3.20363849e-02 -1.30401216e-03 -1.15656746e-02  9.36891031e-01 -3.25026362e-01  9.38265326e-01 -3.21900103e-01 -1.29871630e-03 -1.15516074e-02 -2.60584921e-03 -1.55298291e-02  3.39948802e-02  9.85542718e-02 -1.30401216e-03 -1.15656746e-02  9.36891031e-01 -3.25026362e-01  3.39896550e-02  9.85403979e-02 -8.61312067e-03 -3.20363849e-02 
 1.14730000e+10	-3.08158594e-03 -1.63829709e-02  3.80873603e-02  1.03605053e-01  9.30825998e-01 -3.40623188e-01 -1.49860096e-03 -1.23485711e-02  3.80815087e-02  1.03590491e-01 -9.79418473e-03 -3.37267910e-02 -1.50454070e-03 -1.23633626e-02  9.29272635e-01 -3.43887018e-01  9.30825998e-01 -3.40623188e-01 -1.49860096e-03 -1.23485711e-02 -3.08158594e-03 -1.63829709e-02  3.80873603e-02  1.03605053e-01 -1.50454070e-03 -1.23633626e-02  9.29272635e-01 -3.43887018e-01  3.80815087e-02  1.03590491e-01 -9.79418473e-03 -3.37267910e-02 
 1.21420000e+10	-3.57992984e-03 -1.72184699e-02  4.23728439e-02  1.08477640e-01  9.22992355e-01 -3.59139524e-01 -1.72072590e-03 -1.31570936e-02  4.23663373e-02  1.08462419e-01 -1.10306137e-02 -3.53683566e-02 -1.72734126e-03 -1.31725845e-02  9.21252415e-01 -3.62531650e-01  9.22992355e-01 -3.59139524e-01 -1.72072590e-03 -1.31570936e-02 -3.57992984e-03 -1.72184699e-02  4.23728439e-02  1.08477640e-01 -1.72734126e-03 -1.31725845e-02  9.21252415e-01 -3.62531650e-01  4.23663373e-02  1.08462419e-01 -1.10306137e-02 -3.53683566e-02 
 1.28110000e+10	-4.09994718e-03 -1.80358112e-02  4.68429975e-02  1.13164626e-01  9.14772105e-01 -3.77439846e-01 -1.96656186e-03 -1.39770068e-02  4.68358086e-02  1.13148776e-01 -1.23199988e-02 -3.69592909e-02 -1.97388352e-03 -1.39931712e-02  9.12838597e-01 -3.80950673e-01  9.14772105e-01 -3.77439846e-01 -1.96656186e-03 -1.39770068e-02 -4.09994718e-03 -1.80358112e-02  4.68429975e-02  1.13164626e-01 -1.97388352e-03 -1.39931712e-02  9.12838597e-01 -3.80950673e-01  4.68358086e-02  1.13148776e-01 -1.23199988e-02 -3.69592909e-02 
 1.34800000e+10	-4.64069961e-03 -1.88345484e-02  5.14892078e-02  1.17659038e-01  9.06173212e-01 -3.95515274e-01 -2.23759386e-03 -1.48080258e-02  5.14813108e-02  1.17642590e-01 -1.36598781e-02 -3.84979488e-02 -2.24565140e-03 -1.48248367e-02  9.04039676e-01 -3.99134926e-01  9.06173212e-01 -3.95515274e-01 -2.23759386e-03 -1.48080258e-02 -4.64069961e-03 -1.88345484e-02  5.14892078e-02  1.17659038e-01 -2.24565140e-03 -1.48248367e-02  9.04039676e-01 -3.99134926e-01  5.14813108e-02  1.17642590e-01 -1.36598781e-02 -3.84979488e-02 
 1.41490000e+10	-5.20124999e-03 -1.96143031e-02  5.63026072e-02  1.21954345e-01  8.97203872e-01 -4.13357324e-01 -2.53531248e-03 -1.56497486e-02  5.62939780e-02  1.21937331e-01 -1.50477470e-02 -3.99828316e-02 -2.54413434e-03 -1.56671782e-02  8.94864388e-01 -4.17075669e-01  8.97203872e-01 -4.13357324e-01 -2.53531248e-03 -1.56497486e-02 -5.20124999e-03 -1.96143031e-02  5.63026072e-02  1.21954345e-01 -2.54413434e-03 -1.56671782e-02  8.94864388e-01 -4.17075669e-01  5.62939780e-02  1.21937331e-01 -1.50477470e-02 -3.99828316e-02 
 1.48180000e+10	-5.78066798e-03 -2.03747629e-02  6.12741000e-02  1.26044464e-01  8.87872488e-01 -4.30957909e-01 -2.86120525e-03 -1.65016567e-02  6.12647156e-02  1.26026916e-01 -1.64810687e-02 -4.14125871e-02 -2.87081873e-03 -1.65196762e-02  8.85321684e-01 -4.34764598e-01  8.87872488e-01 -4.30957909e-01 -2.86120525e-03 -1.65016567e-02 -5.78066798e-03 -2.03747629e-02  6.12741000e-02  1.26044464e-01 -2.87081873e-03 -1.65196762e-02  8.85321684e-01 -4.34764598e-01  6.12647156e-02  1.26026916e-01 -1.64810687e-02 -4.14125871e-02 
 1.54870000e+10	-6.37803552e-03 -2.11156798e-02  6.63943873e-02  1.29923767e-01  8.78187647e-01 -4.48309349e-01 -3.21674828e-03 -1.73631155e-02  6.63842266e-02  1.29905721e-01 -1.79572840e-02 -4.27860084e-02 -3.22717950e-03 -1.73816955e-02  8.75420707e-01 -4.52193847e-01  8.78187647e-01 -4.48309349e-01 -3.21674828e-03 -1.73631155e-02 -6.37803552e-03 -2.11156798e-02  6.63943873e-02  1.29923767e-01 -3.22717950e-03 -1.73816955e-02  8.75420707e-01 -4.52193847e-01  6.63842266e-02  1.29905721e-01 -1.79572840e-02 -4.27860084e-02 
 1.61560000e+10	-6.99245193e-03 -2.18368678e-02  7.16539929e-02  1.33587090e-01  8.68158100e-01 -4.65404370e-01 -3.60339805e-03 -1.82333768e-02  7.16430363e-02  1.33568580e-01 -1.94738210e-02 -4.41020323e-02 -3.61467195e-03 -1.82524868e-02  8.65170763e-01 -4.69355986e-01  8.68158100e-01 -4.65404370e-01 -3.60339805e-03 -1.82333768e-02 -6.99245193e-03 -2.18368678e-02  7.16539929e-02  1.33587090e-01 -3.61467195e-03 -1.82524868e-02  8.65170763e-01 -4.69355986e-01  7.16430363e-02  1.33568580e-01 -1.94738210e-02 -4.41020323e-02 
 1.68250000e+10	-7.62303883e-03 -2.25381999e-02  7.70432888e-02  1.37029729e-01  8.57792730e-01 -4.82236107e-01 -4.02258351e-03 -1.91115799e-02  7.70315182e-02  1.37010789e-01 -2.10281046e-02 -4.53597372e-02 -4.03472382e-03 -1.91311890e-02  8.54581296e-01 -4.86244030e-01  8.57792730e-01 -4.82236107e-01 -4.02258351e-03 -1.91115799e-02 -7.62303883e-03 -2.25381999e-02  7.70432888e-02  1.37029729e-01 -4.03472382e-03 -1.91311890e-02  8.54581296e-01 -4.86244030e-01  7.70315182e-02  1.37010789e-01 -2.10281046e-02 -4.53597372e-02 
 1.74940000e+10	-8.26894467e-03 -2.32196049e-02  8.25525199e-02  1.40247445e-01  8.47100538e-01 -4.98798102e-01 -4.47569848e-03 -1.99967554e-02  8.25399190e-02  1.40228112e-01 -2.26175657e-02 -4.65583394e-02 -4.48872771e-03 -2.00168319e-02  8.43661863e-01 -5.02851430e-01  8.47100538e-01 -4.98798102e-01 -4.47569848e-03 -1.99967554e-02 -8.26894467e-03 -2.32196049e-02  8.25525199e-02  1.40247445e-01 -4.48872771e-03 -2.00168319e-02  8.43661863e-01 -5.02851430e-01  8.25399190e-02  1.40228112e-01 -2.26175657e-02 -4.65583394e-02 
 1.81630000e+10	-8.92934892e-03 -2.38810641e-02  8.81718291e-02  1.43236462e-01  8.36090616e-01 -5.15084307e-01 -4.96409443e-03 -2.08878274e-02  8.81583829e-02  1.43216773e-01 -2.42396493e-02 -4.76971900e-02 -4.97803387e-03 -2.09083390e-02  8.32422113e-01 -5.19172078e-01  8.36090616e-01 -5.15084307e-01 -4.96409443e-03 -2.08878274e-02 -8.92934892e-03 -2.38810641e-02  8.81718291e-02  1.43236462e-01 -4.97803387e-03 -2.09083390e-02  8.32422113e-01 -5.19172078e-01  8.81583829e-02  1.43216773e-01 -2.42396493e-02 -4.76971900e-02 
 1.88320000e+10	-9.60346589e-03 -2.45226073e-02  9.38912807e-02  1.45993470e-01  8.24772124e-01 -5.31089072e-01 -5.48907359e-03 -2.17836181e-02  9.38769762e-02  1.45973461e-01 -2.58918232e-02 -4.87757705e-02 -5.50394329e-03 -2.18045321e-02  8.20871755e-01 -5.35200299e-01  8.24772124e-01 -5.31089072e-01 -5.48907359e-03 -2.17836181e-02 -9.60346589e-03 -2.45226073e-02  9.38912807e-02  1.45993470e-01 -5.50394329e-03 -2.18045321e-02  8.20871755e-01 -5.35200299e-01  9.38769762e-02  1.45973461e-01 -2.58918232e-02 -4.87757705e-02 
 1.95010000e+10	-1.02905482e-02 -2.51443087e-02  9.97008847e-02  1.48515616e-01  8.13154270e-01 -5.46807152e-01 -6.05188249e-03 -2.26828513e-02  9.96857104e-02  1.48495324e-01 -2.75715852e-02 -4.97936878e-02 -6.06770129e-03 -2.27041344e-02  8.09020545e-01 -5.50930847e-01  8.13154270e-01 -5.46807152e-01 -6.05188249e-03 -2.26828513e-02 -1.02905482e-02 -2.51443087e-02  9.97008847e-02  1.48515616e-01 -6.06770129e-03 -2.27041344e-02  8.09020545e-01 -5.50930847e-01  9.96857104e-02  1.48495324e-01 -2.75715852e-02 -4.97936878e-02 
 2.01700000e+10	-1.09898895e-02 -2.57462824e-02  1.05590619e-01  1.50800502e-01  8.01246291e-01 -5.62233693e-01 -6.65370600e-03 -2.35841572e-02  1.05574565e-01  1.50779965e-01 -2.92764701e-02 -5.07506695e-02 -6.67049149e-03 -2.36057757e-02  7.96878254e-01 -5.66358897e-01  8.01246291e-01 -5.62233693e-01 -6.65370600e-03 -2.35841572e-02 -1.09898895e-02 -2.57462824e-02  1.05590619e-01  1.50800502e-01 -6.67049149e-03 -2.36057757e-02  7.96878254e-01 -5.66358897e-01  1.05574565e-01  1.50779965e-01 -2.92764701e-02 -5.07506695e-02 
 2.08390000e+10	-1.17008277e-02 -2.63286779e-02  1.11550452e-01  1.52846182e-01  7.89057430e-01 -5.77364227e-01 -7.29566171e-03 -2.44860770e-02  1.11533510e-01  1.52825439e-01 -3.10040566e-02 -5.16465577e-02 -7.31343026e-03 -2.45079969e-02  7.84454654e-01 -5.81480041e-01  7.89057430e-01 -5.77364227e-01 -7.29566171e-03 -2.44860770e-02 -1.17008277e-02 -2.63286779e-02  1.11550452e-01  1.52846182e-01 -7.31343026e-03 -2.45079969e-02  7.84454654e-01 -5.81480041e-01  1.11533510e-01  1.52825439e-01 -3.10040566e-02 -5.16465577e-02 
 2.15080000e+10	-1.24227464e-02 -2.68916757e-02  1.17570363e-01  1.54651153e-01  7.76596916e-01 -5.92194667e-01 -7.97879484e-03 -2.53870680e-02  1.17552527e-01  1.54630241e-01 -3.27519725e-02 -5.24813035e-02 -7.99756160e-03 -2.54092549e-02  7.71759491e-01 -5.96290274e-01  7.76596916e-01 -5.92194667e-01 -7.97879484e-03 -2.53870680e-02 -1.24227464e-02 -2.68916757e-02  1.17570363e-01  1.54651153e-01 -7.99756160e-03 -2.54092549e-02  7.71759491e-01 -5.96290274e-01  1.17552527e-01  1.54630241e-01 -3.27519725e-02 -5.24813035e-02 
 2.21770000e+10	-1.31550768e-02 -2.74354822e-02  1.23640365e-01  1.56214347e-01  7.63873951e-01 -6.06721296e-01 -8.70407362e-03 -2.62855092e-02  1.23621630e-01  1.56193304e-01 -3.45179010e-02 -5.32549604e-02 -8.72385253e-03 -2.63079285e-02  7.58802471e-01 -6.10785990e-01  7.63873951e-01 -6.06721296e-01 -8.70407362e-03 -2.62855092e-02 -1.31550768e-02 -2.74354822e-02  1.23640365e-01  1.56214347e-01 -8.72385253e-03 -2.63079285e-02  7.58802471e-01 -6.10785990e-01  1.23621630e-01  1.56193304e-01 -3.45179010e-02 -5.32549604e-02 
 2.28460000e+10	-1.38972993e-02 -2.79603247e-02  1.29750521e-01  1.57535125e-01  7.50897686e-01 -6.20940757e-01 -9.47238513e-03 -2.71797063e-02  1.29730883e-01  1.57513988e-01 -3.62995843e-02 -5.39676783e-02 -9.49318893e-03 -2.72023230e-02  7.45593237e-01 -6.24963966e-01  7.50897686e-01 -6.20940757e-01 -9.47238513e-03 -2.71797063e-02 -1.38972993e-02 -2.79603247e-02  1.29750521e-01  1.57535125e-01 -9.49318893e-03 -2.72023230e-02  7.45593237e-01 -6.24963966e-01  1.29730883e-01  1.57513988e-01 -3.62995843e-02 -5.39676783e-02 
 2.35150000e+10	-1.46489440e-02 -2.84664469e-02  1.35890964e-01  1.58613264e-01  7.37677209e-01 -6.34850042e-01 -1.02845316e-02 -2.80678977e-02  1.35870421e-01  1.58592073e-01 -3.80948285e-02 -5.46196963e-02 -1.03063718e-02 -2.80906768e-02  7.32141354e-01 -6.38821352e-01  7.37677209e-01 -6.34850042e-01 -1.02845316e-02 -2.80678977e-02 -1.46489440e-02 -2.84664469e-02  1.35890964e-01  1.58613264e-01 -1.03063718e-02 -2.80906768e-02  7.32141354e-01 -6.38821352e-01  1.35870421e-01  1.58592073e-01 -3.80948285e-02 -5.46196963e-02 
 2.41840000e+10	-1.54095913e-02 -2.89541038e-02  1.42051915e-01  1.59448951e-01  7.24221528e-01 -6.48446485e-01 -1.11412271e-02 -2.89482601e-02  1.42030468e-01  1.59427743e-01 -3.99015066e-02 -5.52113363e-02 -1.11641142e-02 -2.89711664e-02  7.18456290e-01 -6.52355659e-01  7.24221528e-01 -6.48446485e-01 -1.11412271e-02 -2.89482601e-02 -1.54095913e-02 -2.89541038e-02  1.42051915e-01  1.59448951e-01 -1.11641142e-02 -2.89711664e-02  7.18456290e-01 -6.52355659e-01  1.42030468e-01  1.59427743e-01 -3.99015066e-02 -5.52113363e-02 
