! Touchstone Ver. 1.0
! Number of ports is 2
# Hz  S RI  R  	50
! SCATTERING PARAMETERS  :
 1.00000000e+08	 4.45922914e-04  2.56391603e-05  9.99549272e-01 -1.39359168e-03  9.99549272e-01 -1.39359168e-03  4.45922914e-04  2.56391603e-05 
 7.69000000e+08	 4.35625901e-04  1.97281320e-04  9.99478860e-01 -1.07163712e-02  9.99478860e-01 -1.07163712e-02  4.35625901e-04  1.97281320e-04 
 1.43800000e+09	 4.45815093e-04  3.68724340e-04  9.99304219e-01 -2.00376058e-02  9.99304219e-01 -2.00376058e-02  4.45815093e-04  3.68724340e-04 
 2.10700000e+09	 4.67879773e-04  5.39675935e-04  9.99033974e-01 -2.93562516e-02  9.99033974e-01 -2.93562516e-02  4.67879773e-04  5.39675935e-04 
 2.77600000e+09	 4.93325196e-04  7.10166168e-04  9.98676643e-01 -3.86715871e-02  9.98676643e-01 -3.86715871e-02  4.93325196e-04  7.10166168e-04 
 3.44500000e+09	 5.21967004e-04  8.80137076e-04  9.98232440e-01 -4.79828029e-02  9.98232440e-01 -4.79828029e-02  5.21967004e-04  8.80137076e-04 
 4.11400000e+09	 5.53794679e-04  1.04952896e-03  9.97701411e-01 -5.72890883e-02  9.97701411e-01 -5.72890883e-02  5.53794679e-04  1.04952896e-03 
 4.78300000e+09	 5.88796587e-04  1.21828233e-03  9.97083608e-01 -6.65896328e-02  9.97083608e-01 -6.65896328e-02  5.88796587e-04  1.21828233e-03 
 5.45200000e+09	 6.31837613e-04  1.38595582e-03  9.96374212e-01 -7.58832445e-02  9.96374212e-01 -7.58832445e-02  6.31837613e-04  1.38595582e-03 
 6.12100000e+09	 6.80002575e-04  1.55260900e-03  9.95576192e-01 -8.51692325e-02  9.95576192e-01 -8.51692325e-02  6.80002575e-04  1.55260900e-03 
 6.79000000e+09	 7.31424888e-04  1.71830454e-03  9.94691476e-01 -9.44469099e-02  9.94691476e-01 -9.44469099e-02  7.31424888e-04  1.71830454e-03 
 7.45900000e+09	 7.85943637e-04  1.88299420e-03  9.93720294e-01 -1.03715479e-01  9.93720294e-01 -1.03715479e-01  7.85943637e-04  1.88299420e-03 
 8.12800000e+09	 8.43539198e-04  2.04662031e-03  9.92662738e-01 -1.12974134e-01  9.92662738e-01 -1.12974134e-01  8.43539198e-04  2.04662031e-03 
 8.79700000e+09	 9.04190872e-04  2.20912559e-03  9.91518909e-01 -1.22222069e-01  9.91518909e-01 -1.22222069e-01  9.04190872e-04  2.20912559e-03 
 9.46600000e+09	 9.67876896e-04  2.37045316e-03  9.90288916e-01 -1.31458479e-01  9.90288916e-01 -1.31458479e-01  9.67876896e-04  2.37045316e-03 
 1.01350000e+10	 1.02986754e-03  2.53123543e-03  9.88977597e-01 -1.40683252e-01  9.88977597e-01 -1.40683252e-01  1.02986754e-03  2.53123543e-03 
 1.08040000e+10	 1.08545907e-03  2.69227704e-03  9.87589779e-01 -1.49896452e-01  9.87589779e-01 -1.49896452e-01  1.08545907e-03  2.69227704e-03 
 1.14730000e+10	 1.14253140e-03  2.85247810e-03  9.86117669e-01 -1.59096230e-01  9.86117669e-01 -1.59096230e-01  1.14253140e-03  2.85247810e-03 
 1.21420000e+10	 1.20261112e-03  3.01157082e-03  9.84559847e-01 -1.68281574e-01  9.84559847e-01 -1.68281574e-01  1.20261112e-03  3.01157082e-03 
 1.28110000e+10	 1.26567679e-03  3.16949904e-03  9.82916458e-01 -1.77451685e-01  9.82916458e-01 -1.77451685e-01  1.26567679e-03  3.16949904e-03 
 1.34800000e+10	 1.33170588e-03  3.32620707e-03  9.81187648e-01 -1.86605765e-01  9.81187648e-01 -1.86605765e-01  1.33170588e-03  3.32620707e-03 
 1.41490000e+10	 1.40067488e-03  3.48163961e-03  9.79373576e-01 -1.95743019e-01  9.79373576e-01 -1.95743019e-01  1.40067488e-03  3.48163961e-03 
 1.48180000e+10	 1.47255919e-03  3.63574183e-03  9.77474404e-01 -2.04862650e-01  9.77474404e-01 -2.04862650e-01  1.47255919e-03  3.63574183e-03 
 1.54870000e+10	 1.54733324e-03  3.78845937e-03  9.75490305e-01 -2.13963868e-01  9.75490305e-01 -2.13963868e-01  1.54733324e-03  3.78845937e-03 
 1.61560000e+10	 1.62497042e-03  3.93973836e-03  9.73421457e-01 -2.23045879e-01  9.73421457e-01 -2.23045879e-01  1.62497042e-03  3.93973836e-03 
 1.68250000e+10	 1.70544314e-03  4.08952546e-03  9.71268047e-01 -2.32107895e-01  9.71268047e-01 -2.32107895e-01  1.70544314e-03  4.08952546e-03 
 1.74940000e+10	 1.78872279e-03  4.23776782e-03  9.69030267e-01 -2.41149127e-01  9.69030267e-01 -2.41149127e-01  1.78872279e-03  4.23776782e-03 
 1.81630000e+10	 1.87477980e-03  4.38441317e-03  9.66708319e-01 -2.50168790e-01  9.66708319e-01 -2.50168790e-01  1.87477980e-03  4.38441317e-03 
 1.88320000e+10	 1.96358362e-03  4.52940980e-03  9.64302411e-01 -2.59166099e-01  9.64302411e-01 -2.59166099e-01  1.96358362e-03  4.52940980e-03 
 1.95010000e+10	 2.05510274e-03  4.67270657e-03  9.61812759e-01 -2.68140273e-01  9.61812759e-01 -2.68140273e-01  2.05510274e-03  4.67270657e-03 
 2.01700000e+10	 2.14930471e-03  4.81425296e-03  9.59239586e-01 -2.77090532e-01  9.59239586e-01 -2.77090532e-01  2.14930471e-03  4.81425296e-03 
 2.08390000e+10	 2.24615613e-03  4.95399905e-03  9.56583121e-01 -2.86016097e-01  9.56583121e-01 -2.86016097e-01  2.24615613e-03  4.95399905e-03 
 2.15080000e+10	 2.34562268e-03  5.09189557e-03  9.53843602e-01 -2.94916195e-01  9.53843602e-01 -2.94916195e-01  2.34562268e-03  5.09189557e-03 
 2.21770000e+10	 2.44766911e-03  5.22789390e-03  9.51021274e-01 -3.03790051e-01  9.51021274e-01 -3.03790051e-01  2.44766911e-03  5.22789390e-03 
 2.28460000e+10	 2.55225931e-03  5.36194608e-03  9.48116388e-01 -3.12636894e-01  9.48116388e-01 -3.12636894e-01  2.55225931e-03  5.36194608e-03 
 2.35150000e+10	 2.65935623e-03  5.49400486e-03  9.45129204e-01 -3.21455957e-01  9.45129204e-01 -3.21455957e-01  2.65935623e-03  5.49400486e-03 
 2.41840000e+10	 2.76892197e-03  5.62402368e-03  9.42059988e-01 -3.30246473e-01  9.42059988e-01 -3.30246473e-01  2.76892197e-03  5.62402368e-03 
 2.48530000e+10	 2.88091778e-03  5.75195669e-03  9.38909013e-01 -3.39007679e-01  9.38909013e-01 -3.39007679e-01  2.88091778e-03  5.75195669e-03 
 2.55220000e+10	 2.99530403e-03  5.87775880e-03  9.35676560e-01 -3.47738814e-01  9.35676560e-01 -3.47738814e-01  2.99530403e-03  5.87775880e-03 
 2.61910000e+10	 3.11204029e-03  6.00138565e-03  9.32362915e-01 -3.56439121e-01  9.32362915e-01 -3.56439121e-01  3.11204029e-03  6.00138565e-03 
 2.68600000e+10	 3.23108528e-03  6.12279366e-03  9.28968374e-01 -3.65107844e-01  9.28968374e-01 -3.65107844e-01  3.23108528e-03  6.12279366e-03 
 2.75290000e+10	 3.35239693e-03  6.24194002e-03  9.25493239e-01 -3.73744232e-01  9.25493239e-01 -3.73744232e-01  3.35239693e-03  6.24194002e-03 
 2.81980000e+10	 3.47593237e-03  6.35878273e-03  9.21937817e-01 -3.82347533e-01  9.21937817e-01 -3.82347533e-01  3.47593237e-03  6.35878273e-03 
 2.88670000e+10	 3.60164797e-03  6.47328059e-03  9.18302425e-01 -3.90917003e-01  9.18302425e-01 -3.90917003e-01  3.60164797e-03  6.47328059e-03 
 2.95360000e+10	 3.72949932e-03  6.58539324e-03  9.14587385e-01 -3.99451897e-01  9.14587385e-01 -3.99451897e-01  3.72949932e-03  6.58539324e-03 
 3.02050000e+10	 3.85944127e-03  6.69508114e-03  9.10793027e-01 -4.07951475e-01  9.10793027e-01 -4.07951475e-01  3.85944127e-03  6.69508114e-03 
 3.08740000e+10	 3.99142795e-03  6.80230563e-03  9.06919686e-01 -4.16415000e-01  9.06919686e-01 -4.16415000e-01  3.99142795e-03  6.80230563e-03 
 3.15430000e+10	 4.12541277e-03  6.90702889e-03  9.02967707e-01 -4.24841738e-01  9.02967707e-01 -4.24841738e-01  4.12541277e-03  6.90702889e-03 
 3.22120000e+10	 4.26134844e-03  7.00921400e-03  8.98937438e-01 -4.33230959e-01  8.98937438e-01 -4.33230959e-01  4.26134844e-03  7.00921400e-03 
 3.28810000e+10	 4.39918701e-03  7.10882492e-03  8.94829238e-01 -4.41581934e-01  8.94829238e-01 -4.41581934e-01  4.39918701e-03  7.10882492e-03 
 3.35500000e+10	 4.53887983e-03  7.20582652e-03  8.90643469e-01 -4.49893940e-01  8.90643469e-01 -4.49893940e-01  4.53887983e-03  7.20582652e-03 
 3.42190000e+10	 4.68037764e-03  7.30018460e-03  8.86380502e-01 -4.58166257e-01  8.86380502e-01 -4.58166257e-01  4.68037764e-03  7.30018460e-03 
 3.48880000e+10	 4.82363054e-03  7.39186586e-03  8.82040713e-01 -4.66398167e-01  8.82040713e-01 -4.66398167e-01  4.82363054e-03  7.39186586e-03 
 3.55570000e+10	 4.96858800e-03  7.48083797e-03  8.77624487e-01 -4.74588958e-01  8.77624487e-01 -4.74588958e-01  4.96858800e-03  7.48083797e-03 
 3.62260000e+10	 5.11519893e-03  7.56706954e-03  8.73132214e-01 -4.82737919e-01  8.73132214e-01 -4.82737919e-01  5.11519893e-03  7.56706954e-03 
 3.68950000e+10	 5.26341163e-03  7.65053014e-03  8.68564290e-01 -4.90844345e-01  8.68564290e-01 -4.90844345e-01  5.26341163e-03  7.65053014e-03 
 3.75640000e+10	 5.41317387e-03  7.73119032e-03  8.63921120e-01 -4.98907534e-01  8.63921120e-01 -4.98907534e-01  5.41317387e-03  7.73119032e-03 
 3.82330000e+10	 5.56443287e-03  7.80902162e-03  8.59203112e-01 -5.06926787e-01  8.59203112e-01 -5.06926787e-01  5.56443287e-03  7.80902162e-03 
 3.89020000e+10	 5.71713532e-03  7.88399655e-03  8.54410683e-01 -5.14901410e-01  8.54410683e-01 -5.14901410e-01  5.71713532e-03  7.88399655e-03 
 3.95710000e+10	 5.87122744e-03  7.95608864e-03  8.49544257e-01 -5.22830713e-01  8.49544257e-01 -5.22830713e-01  5.87122744e-03  7.95608864e-03 
 4.02400000e+10	 6.02665492e-03  8.02527244e-03  8.44604263e-01 -5.30714009e-01  8.44604263e-01 -5.30714009e-01  6.02665492e-03  8.02527244e-03 
 4.09090000e+10	 6.18336302e-03  8.09152350e-03  8.39591135e-01 -5.38550615e-01  8.39591135e-01 -5.38550615e-01  6.18336302e-03  8.09152350e-03 
 4.15780000e+10	 6.34129655e-03  8.15481843e-03  8.34505316e-01 -5.46339855e-01  8.34505316e-01 -5.46339855e-01  6.34129655e-03  8.15481843e-03 
 4.22470000e+10	 6.50039990e-03  8.21513483e-03  8.29347255e-01 -5.54081053e-01  8.29347255e-01 -5.54081053e-01  6.50039990e-03  8.21513483e-03 
 4.29160000e+10	 6.66061702e-03  8.27245139e-03  8.24117405e-01 -5.61773540e-01  8.24117405e-01 -5.61773540e-01  6.66061702e-03  8.27245139e-03 
 4.35850000e+10	 6.82189152e-03  8.32674784e-03  8.18816227e-01 -5.69416651e-01  8.18816227e-01 -5.69416651e-01  6.82189152e-03  8.32674784e-03 
 4.42540000e+10	 6.98416662e-03  8.37800495e-03  8.13444189e-01 -5.77009725e-01  8.13444189e-01 -5.77009725e-01  6.98416662e-03  8.37800495e-03 
 4.49230000e+10	 7.14738519e-03  8.42620458e-03  8.08001762e-01 -5.84552105e-01  8.08001762e-01 -5.84552105e-01  7.14738519e-03  8.42620458e-03 
 4.55920000e+10	 7.31148978e-03  8.47132966e-03  8.02489427e-01 -5.92043140e-01  8.02489427e-01 -5.92043140e-01  7.31148978e-03  8.47132966e-03 
 4.62610000e+10	 7.47642264e-03  8.51336417e-03  7.96907667e-01 -5.99482181e-01  7.96907667e-01 -5.99482181e-01  7.47642264e-03  8.51336417e-03 
 4.69300000e+10	 7.64212571e-03  8.55229322e-03  7.91256975e-01 -6.06868586e-01  7.91256975e-01 -6.06868586e-01  7.64212571e-03  8.55229322e-03 
 4.75990000e+10	 7.80854070e-03  8.58810296e-03  7.85537847e-01 -6.14201716e-01  7.85537847e-01 -6.14201716e-01  7.80854070e-03  8.58810296e-03 
 4.82680000e+10	 7.97560904e-03  8.62078067e-03  7.79750785e-01 -6.21480938e-01  7.79750785e-01 -6.21480938e-01  7.97560904e-03  8.62078067e-03 
 4.89370000e+10	 8.14327196e-03  8.65031472e-03  7.73896300e-01 -6.28705623e-01  7.73896300e-01 -6.28705623e-01  8.14327196e-03  8.65031472e-03 
 4.96060000e+10	 8.31147048e-03  8.67669456e-03  7.67974904e-01 -6.35875148e-01  7.67974904e-01 -6.35875148e-01  8.31147048e-03  8.67669456e-03 
 5.02750000e+10	 8.48014541e-03  8.69991077e-03  7.61987119e-01 -6.42988893e-01  7.61987119e-01 -6.42988893e-01  8.48014541e-03  8.69991077e-03 
 5.09440000e+10	 8.64923744e-03  8.71995503e-03  7.55933470e-01 -6.50046243e-01  7.55933470e-01 -6.50046243e-01  8.64923744e-03  8.71995503e-03 
 5.16130000e+10	 8.81868709e-03  8.73682012e-03  7.49814489e-01 -6.57046591e-01  7.49814489e-01 -6.57046591e-01  8.81868709e-03  8.73682012e-03 
 5.22820000e+10	 8.98843476e-03  8.75049996e-03  7.43630714e-01 -6.63989331e-01  7.43630714e-01 -6.63989331e-01  8.98843476e-03  8.75049996e-03 
 5.29510000e+10	 9.15842075e-03  8.76098956e-03  7.37382686e-01 -6.70873865e-01  7.37382686e-01 -6.70873865e-01  9.15842075e-03  8.76098956e-03 
 5.36200000e+10	 9.32858530e-03  8.76828506e-03  7.31070955e-01 -6.77699598e-01  7.31070955e-01 -6.77699598e-01  9.32858530e-03  8.76828506e-03 
 5.42890000e+10	 9.49886855e-03  8.77238370e-03  7.24696075e-01 -6.84465942e-01  7.24696075e-01 -6.84465942e-01  9.49886855e-03  8.77238370e-03 
 5.49580000e+10	 9.66921065e-03  8.77328387e-03  7.18258604e-01 -6.91172313e-01  7.18258604e-01 -6.91172313e-01  9.66921065e-03  8.77328387e-03 
 5.56270000e+10	 9.83955169e-03  8.77098506e-03  7.11759108e-01 -6.97818134e-01  7.11759108e-01 -6.97818134e-01  9.83955169e-03  8.77098506e-03 
 5.62960000e+10	 1.00098318e-02  8.76548788e-03  7.05198155e-01 -7.04402831e-01  7.05198155e-01 -7.04402831e-01  1.00098318e-02  8.76548788e-03 
 5.69650000e+10	 1.01799911e-02  8.75679406e-03  6.98576323e-01 -7.10925836e-01  6.98576323e-01 -7.10925836e-01  1.01799911e-02  8.75679406e-03 
 5.76340000e+10	 1.03499698e-02  8.74490645e-03  6.91894190e-01 -7.17386588e-01  6.91894190e-01 -7.17386588e-01  1.03499698e-02  8.74490645e-03 
 5.83030000e+10	 1.05197081e-02  8.72982903e-03  6.85152343e-01 -7.23784529e-01  6.85152343e-01 -7.23784529e-01  1.05197081e-02  8.72982903e-03 
 5.89720000e+10	 1.06891464e-02  8.71156687e-03  6.78351372e-01 -7.30119110e-01  6.78351372e-01 -7.30119110e-01  1.06891464e-02  8.71156687e-03 
 5.96410000e+10	 1.08582251e-02  8.69012617e-03  6.71491873e-01 -7.36389783e-01  6.71491873e-01 -7.36389783e-01  1.08582251e-02  8.69012617e-03 
 6.03100000e+10	 1.10268847e-02  8.66551424e-03  6.64574447e-01 -7.42596010e-01  6.64574447e-01 -7.42596010e-01  1.10268847e-02  8.66551424e-03 
 6.09790000e+10	 1.11950661e-02  8.63773950e-03  6.57599700e-01 -7.48737256e-01  6.57599700e-01 -7.48737256e-01  1.11950661e-02  8.63773950e-03 
 6.16480000e+10	 1.13627100e-02  8.60681148e-03  6.50568243e-01 -7.54812993e-01  6.50568243e-01 -7.54812993e-01  1.13627100e-02  8.60681148e-03 
 6.23170000e+10	 1.15297577e-02  8.57274079e-03  6.43480690e-01 -7.60822697e-01  6.43480690e-01 -7.60822697e-01  1.15297577e-02  8.57274079e-03 
 6.29860000e+10	 1.16961503e-02  8.53553918e-03  6.36337663e-01 -7.66765851e-01  6.36337663e-01 -7.66765851e-01  1.16961503e-02  8.53553918e-03 
 6.36550000e+10	 1.18618294e-02  8.49521945e-03  6.29139786e-01 -7.72641945e-01  6.29139786e-01 -7.72641945e-01  1.18618294e-02  8.49521945e-03 
 6.43240000e+10	 1.20267368e-02  8.45179552e-03  6.21887689e-01 -7.78450473e-01  6.21887689e-01 -7.78450473e-01  1.20267368e-02  8.45179552e-03 
 6.49930000e+10	 1.21908145e-02  8.40528238e-03  6.14582007e-01 -7.84190936e-01  6.14582007e-01 -7.84190936e-01  1.21908145e-02  8.40528238e-03 
 6.56620000e+10	 1.23540049e-02  8.35569611e-03  6.07223379e-01 -7.89862841e-01  6.07223379e-01 -7.89862841e-01  1.23540049e-02  8.35569611e-03 
 6.63310000e+10	 1.25162506e-02  8.30305385e-03  5.99812448e-01 -7.95465699e-01  5.99812448e-01 -7.95465699e-01  1.25162506e-02  8.30305385e-03 
 6.70000000e+10	 1.26774946e-02  8.24737383e-03  5.92349862e-01 -8.00999029e-01  5.92349862e-01 -8.00999029e-01  1.26774946e-02  8.24737383e-03 
