! Touchstone Ver. 1.0
! Number of ports is 2
# Hz  S RI  R  	50
! SCATTERING PARAMETERS  :
 1.00000000e+08	 9.99999855e-01 -4.30233076e-04  1.39042477e-07  3.23179375e-04  1.39042477e-07  3.23179375e-04  9.99999855e-01 -4.30233076e-04 
 2.99701493e+08	 9.99998700e-01 -1.28941367e-03  1.24889177e-06  9.68572135e-04  1.24889177e-06  9.68572135e-04  9.99998700e-01 -1.28941367e-03 
 4.99402985e+08	 9.99996389e-01 -2.14859041e-03  3.46775381e-06  1.61396107e-03  3.46775381e-06  1.61396107e-03  9.99996389e-01 -2.14859041e-03 
 6.99104478e+08	 9.99992924e-01 -3.00776075e-03  6.79561321e-06  2.25934364e-03  6.79561321e-06  2.25934364e-03  9.99992924e-01 -3.00776075e-03 
 8.98805970e+08	 9.99988305e-01 -3.86692212e-03  1.12324469e-05  2.90471729e-03  1.12324469e-05  2.90471729e-03  9.99988305e-01 -3.86692212e-03 
 1.09850746e+09	 9.99982530e-01 -4.72607197e-03  1.67782242e-05  3.55007948e-03  1.67782242e-05  3.55007948e-03  9.99982530e-01 -4.72607197e-03 
 1.29820896e+09	 9.99975601e-01 -5.58520772e-03  2.34329066e-05  4.19542765e-03  2.34329066e-05  4.19542765e-03  9.99975601e-01 -5.58520772e-03 
 1.49791045e+09	 9.99967518e-01 -6.44432682e-03  3.11964481e-05  4.84075927e-03  3.11964481e-05  4.84075927e-03  9.99967518e-01 -6.44432682e-03 
 1.69761194e+09	 9.99958280e-01 -7.30342670e-03  4.00687949e-05  5.48607179e-03  4.00687949e-05  5.48607179e-03  9.99958280e-01 -7.30342670e-03 
 1.89731343e+09	 9.99947887e-01 -8.16250481e-03  5.00498854e-05  6.13136266e-03  5.00498854e-05  6.13136266e-03  9.99947887e-01 -8.16250481e-03 
 2.09701493e+09	 9.99936340e-01 -9.02155859e-03  6.11396506e-05  6.77662933e-03  6.11396506e-05  6.77662933e-03  9.99936340e-01 -9.02155859e-03 
 2.29671642e+09	 9.99923639e-01 -9.88058547e-03  7.33380137e-05  7.42186925e-03  7.33380137e-05  7.42186925e-03  9.99923639e-01 -9.88058547e-03 
 2.49641791e+09	 9.99909784e-01 -1.07395829e-02  8.66448900e-05  8.06707990e-03  8.66448900e-05  8.06707990e-03  9.99909784e-01 -1.07395829e-02 
 2.69611940e+09	 9.99894774e-01 -1.15985483e-02  1.01060188e-04  8.71225871e-03  1.01060188e-04  8.71225871e-03  9.99894774e-01 -1.15985483e-02 
 2.89582090e+09	 9.99878611e-01 -1.24574791e-02  1.16583806e-04  9.35740314e-03  1.16583806e-04  9.35740314e-03  9.99878611e-01 -1.24574791e-02 
 3.09552239e+09	 9.99861294e-01 -1.33163728e-02  1.33215639e-04  1.00025107e-02  1.33215639e-04  1.00025107e-02  9.99861294e-01 -1.33163728e-02 
 3.29522388e+09	 9.99842822e-01 -1.41752269e-02  1.50955570e-04  1.06475787e-02  1.50955570e-04  1.06475787e-02  9.99842822e-01 -1.41752269e-02 
 3.49492537e+09	 9.99823197e-01 -1.50340386e-02  1.69803477e-04  1.12926047e-02  1.69803477e-04  1.12926047e-02  9.99823197e-01 -1.50340386e-02 
 3.69462687e+09	 9.99802419e-01 -1.58928056e-02  1.89759230e-04  1.19375862e-02  1.89759230e-04  1.19375862e-02  9.99802419e-01 -1.58928056e-02 
 3.89432836e+09	 9.99780487e-01 -1.67515252e-02  2.10822689e-04  1.25825206e-02  2.10822689e-04  1.25825206e-02  9.99780487e-01 -1.67515252e-02 
 4.09402985e+09	 9.99757402e-01 -1.76101948e-02  2.32993710e-04  1.32274054e-02  2.32993710e-04  1.32274054e-02  9.99757402e-01 -1.76101948e-02 
 4.29373134e+09	 9.99733164e-01 -1.84688120e-02  2.56272138e-04  1.38722380e-02  2.56272138e-04  1.38722380e-02  9.99733164e-01 -1.84688120e-02 
 4.49343284e+09	 9.99707772e-01 -1.93273742e-02  2.80657812e-04  1.45170158e-02  2.80657812e-04  1.45170158e-02  9.99707772e-01 -1.93273742e-02 
 4.69313433e+09	 9.99681228e-01 -2.01858787e-02  3.06150565e-04  1.51617364e-02  3.06150565e-04  1.51617364e-02  9.99681228e-01 -2.01858787e-02 
 4.89283582e+09	 9.99653532e-01 -2.10443232e-02  3.32750219e-04  1.58063972e-02  3.32750219e-04  1.58063972e-02  9.99653532e-01 -2.10443232e-02 
 5.09253731e+09	 9.99624683e-01 -2.19027049e-02  3.60456590e-04  1.64509957e-02  3.60456590e-04  1.64509957e-02  9.99624683e-01 -2.19027049e-02 
 5.29223881e+09	 9.99594681e-01 -2.27610214e-02  3.89269486e-04  1.70955293e-02  3.89269486e-04  1.70955293e-02  9.99594681e-01 -2.27610214e-02 
 5.49194030e+09	 9.99563528e-01 -2.36192700e-02  4.19188708e-04  1.77399955e-02  4.19188708e-04  1.77399955e-02  9.99563528e-01 -2.36192700e-02 
 5.69164179e+09	 9.99531223e-01 -2.44774484e-02  4.50214049e-04  1.83843917e-02  4.50214049e-04  1.83843917e-02  9.99531223e-01 -2.44774484e-02 
 5.89134328e+09	 9.99497766e-01 -2.53355538e-02  4.82345295e-04  1.90287155e-02  4.82345295e-04  1.90287155e-02  9.99497766e-01 -2.53355538e-02 
 6.09104478e+09	 9.99463158e-01 -2.61935838e-02  5.15582222e-04  1.96729642e-02  5.15582222e-04  1.96729642e-02  9.99463158e-01 -2.61935838e-02 
 6.29074627e+09	 9.99427399e-01 -2.70515357e-02  5.49924602e-04  2.03171354e-02  5.49924602e-04  2.03171354e-02  9.99427399e-01 -2.70515357e-02 
 6.49044776e+09	 9.99390489e-01 -2.79094072e-02  5.85372196e-04  2.09612265e-02  5.85372196e-04  2.09612265e-02  9.99390489e-01 -2.79094072e-02 
 6.69014925e+09	 9.99352428e-01 -2.87671955e-02  6.21924759e-04  2.16052350e-02  6.21924759e-04  2.16052350e-02  9.99352428e-01 -2.87671955e-02 
 6.88985075e+09	 9.99313217e-01 -2.96248982e-02  6.59582039e-04  2.22491583e-02  6.59582039e-04  2.22491583e-02  9.99313217e-01 -2.96248982e-02 
 7.08955224e+09	 9.99272855e-01 -3.04825127e-02  6.98343775e-04  2.28929939e-02  6.98343775e-04  2.28929939e-02  9.99272855e-01 -3.04825127e-02 
 7.28925373e+09	 9.99231344e-01 -3.13400365e-02  7.38209699e-04  2.35367393e-02  7.38209699e-04  2.35367393e-02  9.99231344e-01 -3.13400365e-02 
 7.48895522e+09	 9.99188683e-01 -3.21974670e-02  7.79179535e-04  2.41803920e-02  7.79179535e-04  2.41803920e-02  9.99188683e-01 -3.21974670e-02 
 7.68865672e+09	 9.99144873e-01 -3.30548016e-02  8.21253001e-04  2.48239495e-02  8.21253001e-04  2.48239495e-02  9.99144873e-01 -3.30548016e-02 
 7.88835821e+09	 9.99099914e-01 -3.39120380e-02  8.64429805e-04  2.54674091e-02  8.64429805e-04  2.54674091e-02  9.99099914e-01 -3.39120380e-02 
 8.08805970e+09	 9.99053806e-01 -3.47691734e-02  9.08709650e-04  2.61107684e-02  9.08709650e-04  2.61107684e-02  9.99053806e-01 -3.47691734e-02 
 8.28776119e+09	 9.99006549e-01 -3.56262054e-02  9.54092229e-04  2.67540249e-02  9.54092229e-04  2.67540249e-02  9.99006549e-01 -3.56262054e-02 
 8.48746269e+09	 9.98958145e-01 -3.64831314e-02  1.00057723e-03  2.73971760e-02  1.00057723e-03  2.73971760e-02  9.98958145e-01 -3.64831314e-02 
 8.68716418e+09	 9.98908592e-01 -3.73399489e-02  1.04816433e-03  2.80402192e-02  1.04816433e-03  2.80402192e-02  9.98908592e-01 -3.73399489e-02 
 8.88686567e+09	 9.98857892e-01 -3.81966554e-02  1.09685320e-03  2.86831520e-02  1.09685320e-03  2.86831520e-02  9.98857892e-01 -3.81966554e-02 
 9.08656716e+09	 9.98806045e-01 -3.90532483e-02  1.14664350e-03  2.93259719e-02  1.14664350e-03  2.93259719e-02  9.98806045e-01 -3.90532483e-02 
 9.28626866e+09	 9.98753052e-01 -3.99097250e-02  1.19753490e-03  2.99686763e-02  1.19753490e-03  2.99686763e-02  9.98753052e-01 -3.99097250e-02 
 9.48597015e+09	 9.98698911e-01 -4.07660832e-02  1.24952703e-03  3.06112628e-02  1.24952703e-03  3.06112628e-02  9.98698911e-01 -4.07660832e-02 
 9.68567164e+09	 9.98643625e-01 -4.16223201e-02  1.30261955e-03  3.12537288e-02  1.30261955e-03  3.12537288e-02  9.98643625e-01 -4.16223201e-02 
 9.88537313e+09	 9.98587193e-01 -4.24784334e-02  1.35681208e-03  3.18960718e-02  1.35681208e-03  3.18960718e-02  9.98587193e-01 -4.24784334e-02 
 1.00850746e+10	 9.98529616e-01 -4.33344204e-02  1.41210424e-03  3.25382893e-02  1.41210424e-03  3.25382893e-02  9.98529616e-01 -4.33344204e-02 
 1.02847761e+10	 9.98470894e-01 -4.41902787e-02  1.46849567e-03  3.31803788e-02  1.46849567e-03  3.31803788e-02  9.98470894e-01 -4.41902787e-02 
 1.04844776e+10	 9.98411027e-01 -4.50460056e-02  1.52598597e-03  3.38223378e-02  1.52598597e-03  3.38223378e-02  9.98411027e-01 -4.50460056e-02 
 1.06841791e+10	 9.98350016e-01 -4.59015988e-02  1.58457474e-03  3.44641637e-02  1.58457474e-03  3.44641637e-02  9.98350016e-01 -4.59015988e-02 
 1.08838806e+10	 9.98287861e-01 -4.67570557e-02  1.64426158e-03  3.51058541e-02  1.64426158e-03  3.51058541e-02  9.98287861e-01 -4.67570557e-02 
 1.10835821e+10	 9.98224563e-01 -4.76123737e-02  1.70504608e-03  3.57474065e-02  1.70504608e-03  3.57474065e-02  9.98224563e-01 -4.76123737e-02 
 1.12832836e+10	 9.98160122e-01 -4.84675504e-02  1.76692782e-03  3.63888183e-02  1.76692782e-03  3.63888183e-02  9.98160122e-01 -4.84675504e-02 
 1.14829851e+10	 9.98094538e-01 -4.93225832e-02  1.82990636e-03  3.70300870e-02  1.82990636e-03  3.70300870e-02  9.98094538e-01 -4.93225832e-02 
 1.16826866e+10	 9.98027812e-01 -5.01774696e-02  1.89398129e-03  3.76712102e-02  1.89398129e-03  3.76712102e-02  9.98027812e-01 -5.01774696e-02 
 1.18823881e+10	 9.97959945e-01 -5.10322070e-02  1.95915216e-03  3.83121854e-02  1.95915216e-03  3.83121854e-02  9.97959945e-01 -5.10322070e-02 
 1.20820896e+10	 9.97890937e-01 -5.18867931e-02  2.02541851e-03  3.89530100e-02  2.02541851e-03  3.89530100e-02  9.97890937e-01 -5.18867931e-02 
 1.22817910e+10	 9.97820787e-01 -5.27412252e-02  2.09277989e-03  3.95936816e-02  2.09277989e-03  3.95936816e-02  9.97820787e-01 -5.27412252e-02 
 1.24814925e+10	 9.97749498e-01 -5.35955009e-02  2.16123584e-03  4.02341976e-02  2.16123584e-03  4.02341976e-02  9.97749498e-01 -5.35955009e-02 
 1.26811940e+10	 9.97677069e-01 -5.44496177e-02  2.23078589e-03  4.08745556e-02  2.23078589e-03  4.08745556e-02  9.97677069e-01 -5.44496177e-02 
 1.28808955e+10	 9.97603500e-01 -5.53035730e-02  2.30142955e-03  4.15147531e-02  2.30142955e-03  4.15147531e-02  9.97603500e-01 -5.53035730e-02 
 1.30805970e+10	 9.97528793e-01 -5.61573643e-02  2.37316635e-03  4.21547875e-02  2.37316635e-03  4.21547875e-02  9.97528793e-01 -5.61573643e-02 
 1.32802985e+10	 9.97452947e-01 -5.70109892e-02  2.44599578e-03  4.27946565e-02  2.44599578e-03  4.27946565e-02  9.97452947e-01 -5.70109892e-02 
 1.34800000e+10	 9.97375964e-01 -5.78644452e-02  2.51991736e-03  4.34343575e-02  2.51991736e-03  4.34343575e-02  9.97375964e-01 -5.78644452e-02 
 1.36797015e+10	 9.97297843e-01 -5.87177297e-02  2.59493056e-03  4.40738881e-02  2.59493056e-03  4.40738881e-02  9.97297843e-01 -5.87177297e-02 
 1.38794030e+10	 9.97218585e-01 -5.95708402e-02  2.67103487e-03  4.47132457e-02  2.67103487e-03  4.47132457e-02  9.97218585e-01 -5.95708402e-02 
 1.40791045e+10	 9.97138191e-01 -6.04237743e-02  2.74822978e-03  4.53524279e-02  2.74822978e-03  4.53524279e-02  9.97138191e-01 -6.04237743e-02 
 1.42788060e+10	 9.97056661e-01 -6.12765295e-02  2.82651474e-03  4.59914321e-02  2.82651474e-03  4.59914321e-02  9.97056661e-01 -6.12765295e-02 
 1.44785075e+10	 9.96973996e-01 -6.21291033e-02  2.90588922e-03  4.66302560e-02  2.90588922e-03  4.66302560e-02  9.96973996e-01 -6.21291033e-02 
 1.46782090e+10	 9.96890197e-01 -6.29814931e-02  2.98635269e-03  4.72688971e-02  2.98635269e-03  4.72688971e-02  9.96890197e-01 -6.29814931e-02 
 1.48779104e+10	 9.96805263e-01 -6.38336966e-02  3.06790457e-03  4.79073528e-02  3.06790457e-03  4.79073528e-02  9.96805263e-01 -6.38336966e-02 
 1.50776119e+10	 9.96719196e-01 -6.46857112e-02  3.15054432e-03  4.85456208e-02  3.15054432e-03  4.85456208e-02  9.96719196e-01 -6.46857112e-02 
 1.52773134e+10	 9.96631996e-01 -6.55375344e-02  3.23427137e-03  4.91836985e-02  3.23427137e-03  4.91836985e-02  9.96631996e-01 -6.55375344e-02 
 1.54770149e+10	 9.96543663e-01 -6.63891638e-02  3.31908514e-03  4.98215835e-02  3.31908514e-03  4.98215835e-02  9.96543663e-01 -6.63891638e-02 
 1.56767164e+10	 9.96454199e-01 -6.72405968e-02  3.40498505e-03  5.04592733e-02  3.40498505e-03  5.04592733e-02  9.96454199e-01 -6.72405968e-02 
 1.58764179e+10	 9.96363603e-01 -6.80918311e-02  3.49197052e-03  5.10967655e-02  3.49197052e-03  5.10967655e-02  9.96363603e-01 -6.80918311e-02 
 1.60761194e+10	 9.96271877e-01 -6.89428641e-02  3.58004094e-03  5.17340576e-02  3.58004094e-03  5.17340576e-02  9.96271877e-01 -6.89428641e-02 
 1.62758209e+10	 9.96179020e-01 -6.97936934e-02  3.66919571e-03  5.23711471e-02  3.66919571e-03  5.23711471e-02  9.96179020e-01 -6.97936934e-02 
 1.64755224e+10	 9.96085034e-01 -7.06443165e-02  3.75943422e-03  5.30080316e-02  3.75943422e-03  5.30080316e-02  9.96085034e-01 -7.06443165e-02 
 1.66752239e+10	 9.95989920e-01 -7.14947309e-02  3.85075585e-03  5.36447087e-02  3.85075585e-03  5.36447087e-02  9.95989920e-01 -7.14947309e-02 
 1.68749254e+10	 9.95893677e-01 -7.23449342e-02  3.94315998e-03  5.42811758e-02  3.94315998e-03  5.42811758e-02  9.95893677e-01 -7.23449342e-02 
 1.70746269e+10	 9.95796307e-01 -7.31949239e-02  4.03664597e-03  5.49174306e-02  4.03664597e-03  5.49174306e-02  9.95796307e-01 -7.31949239e-02 
 1.72743284e+10	 9.95697809e-01 -7.40446975e-02  4.13121319e-03  5.55534706e-02  4.13121319e-03  5.55534706e-02  9.95697809e-01 -7.40446975e-02 
 1.74740299e+10	 9.95598186e-01 -7.48942527e-02  4.22686099e-03  5.61892933e-02  4.22686099e-03  5.61892933e-02  9.95598186e-01 -7.48942527e-02 
 1.76737313e+10	 9.95497437e-01 -7.57435868e-02  4.32358871e-03  5.68248964e-02  4.32358871e-03  5.68248964e-02  9.95497437e-01 -7.57435868e-02 
 1.78734328e+10	 9.95395563e-01 -7.65926976e-02  4.42139569e-03  5.74602774e-02  4.42139569e-03  5.74602774e-02  9.95395563e-01 -7.65926976e-02 
 1.80731343e+10	 9.95292564e-01 -7.74415825e-02  4.52028126e-03  5.80954338e-02  4.52028126e-03  5.80954338e-02  9.95292564e-01 -7.74415825e-02 
 1.82728358e+10	 9.95188443e-01 -7.82902391e-02  4.62024475e-03  5.87303632e-02  4.62024475e-03  5.87303632e-02  9.95188443e-01 -7.82902391e-02 
 1.84725373e+10	 9.95083198e-01 -7.91386649e-02  4.72128548e-03  5.93650632e-02  4.72128548e-03  5.93650632e-02  9.95083198e-01 -7.91386649e-02 
 1.86722388e+10	 9.94976831e-01 -7.99868576e-02  4.82340274e-03  5.99995314e-02  4.82340274e-03  5.99995314e-02  9.94976831e-01 -7.99868576e-02 
 1.88719403e+10	 9.94869342e-01 -8.08348146e-02  4.92659586e-03  6.06337653e-02  4.92659586e-03  6.06337653e-02  9.94869342e-01 -8.08348146e-02 
 1.90716418e+10	 9.94760733e-01 -8.16825335e-02  5.03086411e-03  6.12677626e-02  5.03086411e-03  6.12677626e-02  9.94760733e-01 -8.16825335e-02 
 1.92713433e+10	 9.94651003e-01 -8.25300120e-02  5.13620680e-03  6.19015207e-02  5.13620680e-03  6.19015207e-02  9.94651003e-01 -8.25300120e-02 
 1.94710448e+10	 9.94540154e-01 -8.33772475e-02  5.24262319e-03  6.25350373e-02  5.24262319e-03  6.25350373e-02  9.94540154e-01 -8.33772475e-02 
 1.96707463e+10	 9.94428187e-01 -8.42242376e-02  5.35011258e-03  6.31683100e-02  5.35011258e-03  6.31683100e-02  9.94428187e-01 -8.42242376e-02 
 1.98704478e+10	 9.94315101e-01 -8.50709800e-02  5.45867421e-03  6.38013363e-02  5.45867421e-03  6.38013363e-02  9.94315101e-01 -8.50709800e-02 
 2.00701493e+10	 9.94200899e-01 -8.59174721e-02  5.56830736e-03  6.44341139e-02  5.56830736e-03  6.44341139e-02  9.94200899e-01 -8.59174721e-02 
 2.02698507e+10	 9.94085580e-01 -8.67637116e-02  5.67901128e-03  6.50666403e-02  5.67901128e-03  6.50666403e-02  9.94085580e-01 -8.67637116e-02 
 2.04695522e+10	 9.93969145e-01 -8.76096961e-02  5.79078520e-03  6.56989132e-02  5.79078520e-03  6.56989132e-02  9.93969145e-01 -8.76096961e-02 
 2.06692537e+10	 9.93851595e-01 -8.84554231e-02  5.90362838e-03  6.63309301e-02  5.90362838e-03  6.63309301e-02  9.93851595e-01 -8.84554231e-02 
 2.08689552e+10	 9.93732931e-01 -8.93008902e-02  6.01754004e-03  6.69626886e-02  6.01754004e-03  6.69626886e-02  9.93732931e-01 -8.93008902e-02 
 2.10686567e+10	 9.93613154e-01 -9.01460951e-02  6.13251941e-03  6.75941864e-02  6.13251941e-03  6.75941864e-02  9.93613154e-01 -9.01460951e-02 
 2.12683582e+10	 9.93492264e-01 -9.09910352e-02  6.24856571e-03  6.82254211e-02  6.24856571e-03  6.82254211e-02  9.93492264e-01 -9.09910352e-02 
 2.14680597e+10	 9.93370262e-01 -9.18357083e-02  6.36567814e-03  6.88563902e-02  6.36567814e-03  6.88563902e-02  9.93370262e-01 -9.18357083e-02 
 2.16677612e+10	 9.93247150e-01 -9.26801119e-02  6.48385591e-03  6.94870914e-02  6.48385591e-03  6.94870914e-02  9.93247150e-01 -9.26801119e-02 
 2.18674627e+10	 9.93122927e-01 -9.35242436e-02  6.60309822e-03  7.01175223e-02  6.60309822e-03  7.01175223e-02  9.93122927e-01 -9.35242436e-02 
 2.20671642e+10	 9.92997595e-01 -9.43681010e-02  6.72340426e-03  7.07476805e-02  6.72340426e-03  7.07476805e-02  9.92997595e-01 -9.43681010e-02 
 2.22668657e+10	 9.92871154e-01 -9.52116817e-02  6.84477321e-03  7.13775637e-02  6.84477321e-03  7.13775637e-02  9.92871154e-01 -9.52116817e-02 
 2.24665672e+10	 9.92743605e-01 -9.60549834e-02  6.96720425e-03  7.20071694e-02  6.96720425e-03  7.20071694e-02  9.92743605e-01 -9.60549834e-02 
 2.26662687e+10	 9.92614950e-01 -9.68980036e-02  7.09069654e-03  7.26364954e-02  7.09069654e-03  7.26364954e-02  9.92614950e-01 -9.68980036e-02 
 2.28659701e+10	 9.92485188e-01 -9.77407400e-02  7.21524925e-03  7.32655391e-02  7.21524925e-03  7.32655391e-02  9.92485188e-01 -9.77407400e-02 
 2.30656716e+10	 9.92354321e-01 -9.85831902e-02  7.34086154e-03  7.38942984e-02  7.34086154e-03  7.38942984e-02  9.92354321e-01 -9.85831902e-02 
 2.32653731e+10	 9.92222350e-01 -9.94253518e-02  7.46753255e-03  7.45227707e-02  7.46753255e-03  7.45227707e-02  9.92222350e-01 -9.94253518e-02 
 2.34650746e+10	 9.92089275e-01 -1.00267222e-01  7.59526143e-03  7.51509539e-02  7.59526143e-03  7.51509539e-02  9.92089275e-01 -1.00267222e-01 
 2.36647761e+10	 9.91955098e-01 -1.01108800e-01  7.72404731e-03  7.57788454e-02  7.72404731e-03  7.57788454e-02  9.91955098e-01 -1.01108800e-01 
 2.38644776e+10	 9.91819819e-01 -1.01950081e-01  7.85388932e-03  7.64064429e-02  7.85388932e-03  7.64064429e-02  9.91819819e-01 -1.01950081e-01 
 2.40641791e+10	 9.91683439e-01 -1.02791065e-01  7.98478658e-03  7.70337442e-02  7.98478658e-03  7.70337442e-02  9.91683439e-01 -1.02791065e-01 
 2.42638806e+10	 9.91545958e-01 -1.03631748e-01  8.11673820e-03  7.76607468e-02  8.11673820e-03  7.76607468e-02  9.91545958e-01 -1.03631748e-01 
 2.44635821e+10	 9.91407379e-01 -1.04472129e-01  8.24974330e-03  7.82874484e-02  8.24974330e-03  7.82874484e-02  9.91407379e-01 -1.04472129e-01 
 2.46632836e+10	 9.91267702e-01 -1.05312204e-01  8.38380097e-03  7.89138467e-02  8.38380097e-03  7.89138467e-02  9.91267702e-01 -1.05312204e-01 
 2.48629851e+10	 9.91126927e-01 -1.06151972e-01  8.51891031e-03  7.95399393e-02  8.51891031e-03  7.95399393e-02  9.91126927e-01 -1.06151972e-01 
 2.50626866e+10	 9.90985056e-01 -1.06991430e-01  8.65507041e-03  8.01657240e-02  8.65507041e-03  8.01657240e-02  9.90985056e-01 -1.06991430e-01 
 2.52623881e+10	 9.90842089e-01 -1.07830576e-01  8.79228034e-03  8.07911983e-02  8.79228034e-03  8.07911983e-02  9.90842089e-01 -1.07830576e-01 
 2.54620896e+10	 9.90698028e-01 -1.08669407e-01  8.93053919e-03  8.14163600e-02  8.93053919e-03  8.14163600e-02  9.90698028e-01 -1.08669407e-01 
 2.56617910e+10	 9.90552873e-01 -1.09507921e-01  9.06984601e-03  8.20412067e-02  9.06984601e-03  8.20412067e-02  9.90552873e-01 -1.09507921e-01 
 2.58614925e+10	 9.90406625e-01 -1.10346117e-01  9.21019988e-03  8.26657361e-02  9.21019988e-03  8.26657361e-02  9.90406625e-01 -1.10346117e-01 
 2.60611940e+10	 9.90259286e-01 -1.11183991e-01  9.35159984e-03  8.32899459e-02  9.35159984e-03  8.32899459e-02  9.90259286e-01 -1.11183991e-01 
 2.62608955e+10	 9.90110855e-01 -1.12021541e-01  9.49404494e-03  8.39138339e-02  9.49404494e-03  8.39138339e-02  9.90110855e-01 -1.12021541e-01 
 2.64605970e+10	 9.89961335e-01 -1.12858765e-01  9.63753422e-03  8.45373976e-02  9.63753422e-03  8.45373976e-02  9.89961335e-01 -1.12858765e-01 
 2.66602985e+10	 9.89810727e-01 -1.13695660e-01  9.78206673e-03  8.51606347e-02  9.78206673e-03  8.51606347e-02  9.89810727e-01 -1.13695660e-01 
 2.68600000e+10	 9.89659030e-01 -1.14532225e-01  9.92764147e-03  8.57835431e-02  9.92764147e-03  8.57835431e-02  9.89659030e-01 -1.14532225e-01 
 2.70597015e+10	 9.89506246e-01 -1.15368456e-01  1.00742575e-02  8.64061203e-02  1.00742575e-02  8.64061203e-02  9.89506246e-01 -1.15368456e-01 
 2.72594030e+10	 9.89352376e-01 -1.16204352e-01  1.02219138e-02  8.70283642e-02  1.02219138e-02  8.70283642e-02  9.89352376e-01 -1.16204352e-01 
