! Touchstone Ver. 1.0
! Number of ports is 1
# Hz  S RI  R  	50
! SCATTERING PARAMETERS  :
 1.00000000e+08	 9.99966715e-01 -5.80566760e-03 
 7.69000000e+08	 9.98869117e-01 -4.46260695e-02 
 1.43800000e+09	 9.96264297e-01 -8.33712168e-02 
 2.10700000e+09	 9.92156132e-01 -1.21983679e-01 
 2.77600000e+09	 9.86550651e-01 -1.60406192e-01 
 3.44500000e+09	 9.79455974e-01 -1.98581726e-01 
 4.11400000e+09	 9.70882311e-01 -2.36453555e-01 
 4.78300000e+09	 9.60841960e-01 -2.73965330e-01 
 5.45200000e+09	 9.49348959e-01 -3.11061037e-01 
 6.12100000e+09	 9.36419756e-01 -3.47685252e-01 
 6.79000000e+09	 9.22072899e-01 -3.83783163e-01 
 7.45900000e+09	 9.06328891e-01 -4.19300588e-01 
 8.12800000e+09	 8.89210249e-01 -4.54184069e-01 
 8.79700000e+09	 8.70741490e-01 -4.88380948e-01 
 9.46600000e+09	 8.50949109e-01 -5.21839434e-01 
 1.01350000e+10	 8.29862526e-01 -5.54509344e-01 
 1.08040000e+10	 8.07513465e-01 -5.86342010e-01 
 1.14730000e+10	 7.83932811e-01 -6.17287986e-01 
 1.21420000e+10	 7.59154389e-01 -6.47299639e-01 
 1.28110000e+10	 7.33214125e-01 -6.76330743e-01 
 1.34800000e+10	 7.06149721e-01 -7.04336369e-01 
 1.41490000e+10	 6.78000616e-01 -7.31272949e-01 
 1.48180000e+10	 6.48807944e-01 -7.57098348e-01 
 1.54870000e+10	 6.18614490e-01 -7.81771927e-01 
 1.61560000e+10	 5.87464639e-01 -8.05254610e-01 
 1.68250000e+10	 5.55404331e-01 -8.27508949e-01 
 1.74940000e+10	 5.22481002e-01 -8.48499189e-01 
 1.81630000e+10	 4.88743533e-01 -8.68191327e-01 
 1.88320000e+10	 4.54242187e-01 -8.86553178e-01 
 1.95010000e+10	 4.19028553e-01 -9.03554430e-01 
 2.01700000e+10	 3.83155476e-01 -9.19166708e-01 
 2.08390000e+10	 3.46676993e-01 -9.33363623e-01 
 2.15080000e+10	 3.09648264e-01 -9.46120834e-01 
 2.21770000e+10	 2.72125496e-01 -9.57416097e-01 
 2.28460000e+10	 2.34165868e-01 -9.67229315e-01 
 2.35150000e+10	 1.95827455e-01 -9.75542589e-01 
 2.41840000e+10	 1.57169145e-01 -9.82340258e-01 
 2.48530000e+10	 1.18250556e-01 -9.87608949e-01 
 2.55220000e+10	 7.91319480e-02 -9.91337611e-01 
 2.61910000e+10	 3.98741350e-02 -9.93517554e-01 
 2.68600000e+10	 5.38394489e-04 -9.94142480e-01 
 2.75290000e+10	-3.88136275e-02 -9.93208520e-01 
 2.81980000e+10	-7.81200120e-02 -9.90714251e-01 
 2.88670000e+10	-1.17318665e-01 -9.86660726e-01 
 2.95360000e+10	-1.56347417e-01 -9.81051487e-01 
 3.02050000e+10	-1.95144126e-01 -9.73892586e-01 
 3.08740000e+10	-2.33646780e-01 -9.65192589e-01 
 3.15430000e+10	-2.71793601e-01 -9.54962584e-01 
 3.22120000e+10	-3.09523151e-01 -9.43216184e-01 
 3.28810000e+10	-3.46774442e-01 -9.29969523e-01 
 3.35500000e+10	-3.83487038e-01 -9.15241243e-01 
 3.42190000e+10	-4.19601169e-01 -8.99052489e-01 
 3.48880000e+10	-4.55057835e-01 -8.81426884e-01 
 3.55570000e+10	-4.89798917e-01 -8.62390509e-01 
 3.62260000e+10	-5.23767283e-01 -8.41971872e-01 
 3.68950000e+10	-5.56906900e-01 -8.20201878e-01 
 3.75640000e+10	-5.89162934e-01 -7.97113787e-01 
 3.82330000e+10	-6.20481864e-01 -7.72743169e-01 
 3.89020000e+10	-6.50811579e-01 -7.47127858e-01 
 3.95710000e+10	-6.80101484e-01 -7.20307895e-01 
 4.02400000e+10	-7.08302600e-01 -6.92325469e-01 
 4.09090000e+10	-7.35367664e-01 -6.63224850e-01 
 4.15780000e+10	-7.61251223e-01 -6.33052320e-01 
 4.22470000e+10	-7.85909725e-01 -6.01856100e-01 
 4.29160000e+10	-8.09301612e-01 -5.69686268e-01 
 4.35850000e+10	-8.31387405e-01 -5.36594673e-01 
 4.42540000e+10	-8.52129786e-01 -5.02634850e-01 
 4.49230000e+10	-8.71493676e-01 -4.67861923e-01 
 4.55920000e+10	-8.89446308e-01 -4.32332508e-01 
 4.62610000e+10	-9.05957300e-01 -3.96104615e-01 
 4.69300000e+10	-9.20998715e-01 -3.59237538e-01 
 4.75990000e+10	-9.34545124e-01 -3.21791749e-01 
 4.82680000e+10	-9.46573659e-01 -2.83828788e-01 
 4.89370000e+10	-9.57064061e-01 -2.45411146e-01 
 4.96060000e+10	-9.65998726e-01 -2.06602147e-01 
 5.02750000e+10	-9.73362738e-01 -1.67465832e-01 
 5.09440000e+10	-9.79143907e-01 -1.28066837e-01 
 5.16130000e+10	-9.83332787e-01 -8.84702676e-02 
 5.22820000e+10	-9.85922702e-01 -4.87415789e-02 
 5.29510000e+10	-9.86909756e-01 -8.94644778e-03 
 5.36200000e+10	-9.86292842e-01  3.08493514e-02 
 5.42890000e+10	-9.84073641e-01  7.05800724e-02 
 5.49580000e+10	-9.80256619e-01  1.10180123e-01 
 5.56270000e+10	-9.74849011e-01  1.49584189e-01 
 5.62960000e+10	-9.67860810e-01  1.88727359e-01 
 5.69650000e+10	-9.59304739e-01  2.27545249e-01 
 5.76340000e+10	-9.49196222e-01  2.65974118e-01 
 5.83030000e+10	-9.37553346e-01  3.03950994e-01 
 5.89720000e+10	-9.24396826e-01  3.41413789e-01 
 5.96410000e+10	-9.09749952e-01  3.78301411e-01 
 6.03100000e+10	-8.93638539e-01  4.14553880e-01 
 6.09790000e+10	-8.76090870e-01  4.50112433e-01 
 6.16480000e+10	-8.57137632e-01  4.84919633e-01 
 6.23170000e+10	-8.36811849e-01  5.18919468e-01 
 6.29860000e+10	-8.15148811e-01  5.52057451e-01 
 6.36550000e+10	-7.92185998e-01  5.84280712e-01 
 6.43240000e+10	-7.67962995e-01  6.15538091e-01 
 6.49930000e+10	-7.42521417e-01  6.45780219e-01 
 6.56620000e+10	-7.15904813e-01  6.74959600e-01 
 6.63310000e+10	-6.88158580e-01  7.03030690e-01 
 6.70000000e+10	-6.59329866e-01  7.29949961e-01 
