! Touchstone Ver. 1.0
! Number of ports is 2
# Hz  S RI  R  	50
! SCATTERING PARAMETERS  :
 1.00000000e+08	 1.50698823e-03 -4.41113792e-04  9.98483566e-01 -3.05749462e-03  9.98483566e-01 -3.05749462e-03  1.50698823e-03 -4.41113792e-04 
 2.99701493e+08	 1.47258939e-03 -1.32176322e-03  9.98462382e-01 -9.16335568e-03  9.98462382e-01 -9.16335568e-03  1.47258939e-03 -1.32176322e-03 
 4.99402985e+08	 1.42746493e-03 -2.20195444e-03  9.98403092e-01 -1.52690045e-02  9.98403092e-01 -1.52690045e-02  1.42746493e-03 -2.20195444e-03 
 6.99104478e+08	 1.37162110e-03 -3.08155523e-03  9.98305699e-01 -2.13741894e-02  9.98305699e-01 -2.13741894e-02  1.37162110e-03 -3.08155523e-03 
 8.98805970e+08	 1.30506581e-03 -3.96043343e-03  9.98170206e-01 -2.74786586e-02  9.98170206e-01 -2.74786586e-02  1.30506581e-03 -3.96043343e-03 
 1.09850746e+09	 1.23898433e-03 -4.83877991e-03  9.97985445e-01 -3.35818374e-02  9.97985445e-01 -3.35818374e-02  1.23898433e-03 -4.83877991e-03 
 1.29820896e+09	 1.17318689e-03 -5.71663108e-03  9.97751620e-01 -3.96833059e-02  9.97751620e-01 -3.96833059e-02  1.17318689e-03 -5.71663108e-03 
 1.49791045e+09	 1.09686540e-03 -6.59360149e-03  9.97479564e-01 -4.57830661e-02  9.97479564e-01 -4.57830661e-02  1.09686540e-03 -6.59360149e-03 
 1.69761194e+09	 1.00986706e-03 -7.46955553e-03  9.97169457e-01 -5.18808706e-02  9.97169457e-01 -5.18808706e-02  1.00986706e-03 -7.46955553e-03 
 1.89731343e+09	 9.12205622e-04 -8.34436165e-03  9.96821313e-01 -5.79764682e-02  9.96821313e-01 -5.79764682e-02  9.12205622e-04 -8.34436165e-03 
 2.09701493e+09	 8.03896468e-04 -9.21788850e-03  9.96435153e-01 -6.40696080e-02  9.96435153e-01 -6.40696080e-02  8.03896468e-04 -9.21788850e-03 
 2.29671642e+09	 6.84956638e-04 -1.00900050e-02  9.96010994e-01 -7.01600391e-02  9.96010994e-01 -7.01600391e-02  6.84956638e-04 -1.00900050e-02 
 2.49641791e+09	 5.55404817e-04 -1.09605801e-02  9.95548858e-01 -7.62475109e-02  9.95548858e-01 -7.62475109e-02  5.55404817e-04 -1.09605801e-02 
 2.69611940e+09	 4.15261338e-04 -1.18294833e-02  9.95048771e-01 -8.23317729e-02  9.95048771e-01 -8.23317729e-02  4.15261338e-04 -1.18294833e-02 
 2.89582090e+09	 2.64548171e-04 -1.26965841e-02  9.94510756e-01 -8.84125750e-02  9.94510756e-01 -8.84125750e-02  2.64548171e-04 -1.26965841e-02 
 3.09552239e+09	 1.03288926e-04 -1.35617526e-02  9.93934841e-01 -9.44896673e-02  9.93934841e-01 -9.44896673e-02  1.03288926e-04 -1.35617526e-02 
 3.29522388e+09	-6.84911582e-05 -1.44248589e-02  9.93321056e-01 -1.00562800e-01  9.93321056e-01 -1.00562800e-01 -6.84911582e-05 -1.44248589e-02 
 3.49492537e+09	-2.50765213e-04 -1.52857736e-02  9.92669431e-01 -1.06631724e-01  9.92669431e-01 -1.06631724e-01 -2.50765213e-04 -1.52857736e-02 
 3.69462687e+09	-4.43504748e-04 -1.61443678e-02  9.91980001e-01 -1.12696191e-01  9.91980001e-01 -1.12696191e-01 -4.43504748e-04 -1.61443678e-02 
 3.89432836e+09	-6.46679656e-04 -1.70005127e-02  9.91252798e-01 -1.18755951e-01  9.91252798e-01 -1.18755951e-01 -6.46679656e-04 -1.70005127e-02 
 4.09402985e+09	-8.60258215e-04 -1.78540800e-02  9.90487862e-01 -1.24810756e-01  9.90487862e-01 -1.24810756e-01 -8.60258215e-04 -1.78540800e-02 
 4.29373134e+09	-1.08420710e-03 -1.87049420e-02  9.89685229e-01 -1.30860359e-01  9.89685229e-01 -1.30860359e-01 -1.08420710e-03 -1.87049420e-02 
 4.49343284e+09	-1.31849139e-03 -1.95529713e-02  9.88844942e-01 -1.36904511e-01  9.88844942e-01 -1.36904511e-01 -1.31849139e-03 -1.95529713e-02 
 4.69313433e+09	-1.56307455e-03 -2.03980408e-02  9.87967041e-01 -1.42942966e-01  9.87967041e-01 -1.42942966e-01 -1.56307455e-03 -2.03980408e-02 
 4.89283582e+09	-1.81791849e-03 -2.12400243e-02  9.87051571e-01 -1.48975477e-01  9.87051571e-01 -1.48975477e-01 -1.81791849e-03 -2.12400243e-02 
 5.09253731e+09	-2.08344697e-03 -2.20787334e-02  9.86099045e-01 -1.55001860e-01  9.86099045e-01 -1.55001860e-01 -2.08344697e-03 -2.20787334e-02 
 5.29223881e+09	-2.35958878e-03 -2.29140396e-02  9.85109481e-01 -1.61021873e-01  9.85109481e-01 -1.61021873e-01 -2.35958878e-03 -2.29140396e-02 
 5.49194030e+09	-2.64589800e-03 -2.37458697e-02  9.84082523e-01 -1.67035219e-01  9.84082523e-01 -1.67035219e-01 -2.64589800e-03 -2.37458697e-02 
 5.69164179e+09	-2.94229785e-03 -2.45741036e-02  9.83018190e-01 -1.73041648e-01  9.83018190e-01 -1.73041648e-01 -2.94229785e-03 -2.45741036e-02 
 5.89134328e+09	-3.24874229e-03 -2.53986177e-02  9.81916536e-01 -1.79040917e-01  9.81916536e-01 -1.79040917e-01 -3.24874229e-03 -2.53986177e-02 
 6.09104478e+09	-3.56518375e-03 -2.62192890e-02  9.80777616e-01 -1.85032780e-01  9.80777616e-01 -1.85032780e-01 -3.56518375e-03 -2.62192890e-02 
 6.29074627e+09	-3.89157312e-03 -2.70359949e-02  9.79601487e-01 -1.91016996e-01  9.79601487e-01 -1.91016996e-01 -3.89157312e-03 -2.70359949e-02 
 6.49044776e+09	-4.22785976e-03 -2.78486138e-02  9.78388207e-01 -1.96993321e-01  9.78388207e-01 -1.96993321e-01 -4.22785976e-03 -2.78486138e-02 
 6.69014925e+09	-4.57399154e-03 -2.86570245e-02  9.77137838e-01 -2.02961513e-01  9.77137838e-01 -2.02961513e-01 -4.57399154e-03 -2.86570245e-02 
 6.88985075e+09	-4.92991479e-03 -2.94611066e-02  9.75850441e-01 -2.08921332e-01  9.75850441e-01 -2.08921332e-01 -4.92991479e-03 -2.94611066e-02 
 7.08955224e+09	-5.29557438e-03 -3.02607404e-02  9.74526080e-01 -2.14872534e-01  9.74526080e-01 -2.14872534e-01 -5.29557438e-03 -3.02607404e-02 
 7.28925373e+09	-5.67091368e-03 -3.10558070e-02  9.73164822e-01 -2.20814882e-01  9.73164822e-01 -2.20814882e-01 -5.67091368e-03 -3.10558070e-02 
 7.48895522e+09	-6.05587457e-03 -3.18461880e-02  9.71766734e-01 -2.26748135e-01  9.71766734e-01 -2.26748135e-01 -6.05587457e-03 -3.18461880e-02 
 7.68865672e+09	-6.45039748e-03 -3.26317660e-02  9.70331886e-01 -2.32672053e-01  9.70331886e-01 -2.32672053e-01 -6.45039748e-03 -3.26317660e-02 
 7.88835821e+09	-6.85442140e-03 -3.34124244e-02  9.68860347e-01 -2.38586399e-01  9.68860347e-01 -2.38586399e-01 -6.85442140e-03 -3.34124244e-02 
 8.08805970e+09	-7.26788384e-03 -3.41880472e-02  9.67352193e-01 -2.44490936e-01  9.67352193e-01 -2.44490936e-01 -7.26788384e-03 -3.41880472e-02 
 8.28776119e+09	-7.69072091e-03 -3.49585194e-02  9.65807496e-01 -2.50385425e-01  9.65807496e-01 -2.50385425e-01 -7.69072091e-03 -3.49585194e-02 
 8.48746269e+09	-8.12286728e-03 -3.57237267e-02  9.64226333e-01 -2.56269632e-01  9.64226333e-01 -2.56269632e-01 -8.12286728e-03 -3.57237267e-02 
 8.68716418e+09	-8.56425623e-03 -3.64835558e-02  9.62608782e-01 -2.62143321e-01  9.62608782e-01 -2.62143321e-01 -8.56425623e-03 -3.64835558e-02 
 8.88686567e+09	-9.01481963e-03 -3.72378942e-02  9.60954924e-01 -2.68006256e-01  9.60954924e-01 -2.68006256e-01 -9.01481963e-03 -3.72378942e-02 
 9.08656716e+09	-9.47448795e-03 -3.79866303e-02  9.59264838e-01 -2.73858205e-01  9.59264838e-01 -2.73858205e-01 -9.47448795e-03 -3.79866303e-02 
 9.28626866e+09	-9.94319032e-03 -3.87296533e-02  9.57538608e-01 -2.79698934e-01  9.57538608e-01 -2.79698934e-01 -9.94319032e-03 -3.87296533e-02 
 9.48597015e+09	-1.04208545e-02 -3.94668535e-02  9.55776320e-01 -2.85528211e-01  9.55776320e-01 -2.85528211e-01 -1.04208545e-02 -3.94668535e-02 
 9.68567164e+09	-1.09074069e-02 -4.01981221e-02  9.53978058e-01 -2.91345804e-01  9.53978058e-01 -2.91345804e-01 -1.09074069e-02 -4.01981221e-02 
 9.88537313e+09	-1.14027725e-02 -4.09233512e-02  9.52143912e-01 -2.97151482e-01  9.52143912e-01 -2.97151482e-01 -1.14027725e-02 -4.09233512e-02 
 1.00850746e+10	-1.19030979e-02 -4.16434583e-02  9.50270117e-01 -3.02943964e-01  9.50270117e-01 -3.02943964e-01 -1.19030979e-02 -4.16434583e-02 
 1.02847761e+10	-1.24086597e-02 -4.23582993e-02  9.48357116e-01 -3.08723056e-01  9.48357116e-01 -3.08723056e-01 -1.24086597e-02 -4.23582993e-02 
 1.04844776e+10	-1.29223397e-02 -4.30669920e-02  9.46408021e-01 -3.14489328e-01  9.46408021e-01 -3.14489328e-01 -1.29223397e-02 -4.30669920e-02 
 1.06841791e+10	-1.34445511e-02 -4.37693011e-02  9.44423428e-01 -3.20242686e-01  9.44423428e-01 -3.20242686e-01 -1.34445511e-02 -4.37693011e-02 
 1.08838806e+10	-1.39752136e-02 -4.44651236e-02  9.42403434e-01 -3.25982905e-01  9.42403434e-01 -3.25982905e-01 -1.39752136e-02 -4.44651236e-02 
 1.10835821e+10	-1.45142451e-02 -4.51543572e-02  9.40348138e-01 -3.31709759e-01  9.40348138e-01 -3.31709759e-01 -1.45142451e-02 -4.51543572e-02 
 1.12832836e+10	-1.50615625e-02 -4.58369008e-02  9.38257638e-01 -3.37423024e-01  9.38257638e-01 -3.37423024e-01 -1.50615625e-02 -4.58369008e-02 
 1.14829851e+10	-1.56170816e-02 -4.65126544e-02  9.36132037e-01 -3.43122476e-01  9.36132037e-01 -3.43122476e-01 -1.56170816e-02 -4.65126544e-02 
 1.16826866e+10	-1.61807168e-02 -4.71815191e-02  9.33971437e-01 -3.48807892e-01  9.33971437e-01 -3.48807892e-01 -1.61807168e-02 -4.71815191e-02 
 1.18823881e+10	-1.67523812e-02 -4.78433971e-02  9.31775943e-01 -3.54479052e-01  9.31775943e-01 -3.54479052e-01 -1.67523812e-02 -4.78433971e-02 
 1.20820896e+10	-1.73319871e-02 -4.84981916e-02  9.29545659e-01 -3.60135734e-01  9.29545659e-01 -3.60135734e-01 -1.73319871e-02 -4.84981916e-02 
 1.22817910e+10	-1.79194453e-02 -4.91458072e-02  9.27280695e-01 -3.65777719e-01  9.27280695e-01 -3.65777719e-01 -1.79194453e-02 -4.91458072e-02 
 1.24814925e+10	-1.85146654e-02 -4.97861493e-02  9.24981158e-01 -3.71404789e-01  9.24981158e-01 -3.71404789e-01 -1.85146654e-02 -4.97861493e-02 
 1.26811940e+10	-1.91175563e-02 -5.04191248e-02  9.22647160e-01 -3.77016725e-01  9.22647160e-01 -3.77016725e-01 -1.91175563e-02 -5.04191248e-02 
 1.28808955e+10	-1.97280252e-02 -5.10446416e-02  9.20278811e-01 -3.82613312e-01  9.20278811e-01 -3.82613312e-01 -1.97280252e-02 -5.10446416e-02 
 1.30805970e+10	-2.03459787e-02 -5.16626088e-02  9.17876225e-01 -3.88194333e-01  9.17876225e-01 -3.88194333e-01 -2.03459787e-02 -5.16626088e-02 
 1.32802985e+10	-2.09713220e-02 -5.22729368e-02  9.15439517e-01 -3.93759575e-01  9.15439517e-01 -3.93759575e-01 -2.09713220e-02 -5.22729368e-02 
 1.34800000e+10	-2.16039593e-02 -5.28755372e-02  9.12968803e-01 -3.99308823e-01  9.12968803e-01 -3.99308823e-01 -2.16039593e-02 -5.28755372e-02 
 1.36797015e+10	-2.22437938e-02 -5.34703227e-02  9.10464201e-01 -4.04841866e-01  9.10464201e-01 -4.04841866e-01 -2.22437938e-02 -5.34703227e-02 
 1.38794030e+10	-2.28907277e-02 -5.40572073e-02  9.07925830e-01 -4.10358493e-01  9.07925830e-01 -4.10358493e-01 -2.28907277e-02 -5.40572073e-02 
 1.40791045e+10	-2.35446619e-02 -5.46361065e-02  9.05353809e-01 -4.15858493e-01  9.05353809e-01 -4.15858493e-01 -2.35446619e-02 -5.46361065e-02 
 1.42788060e+10	-2.42054966e-02 -5.52069366e-02  9.02748261e-01 -4.21341657e-01  9.02748261e-01 -4.21341657e-01 -2.42054966e-02 -5.52069366e-02 
 1.44785075e+10	-2.48731310e-02 -5.57696156e-02  9.00109308e-01 -4.26807777e-01  9.00109308e-01 -4.26807777e-01 -2.48731310e-02 -5.57696156e-02 
 1.46782090e+10	-2.55474631e-02 -5.63240626e-02  8.97437076e-01 -4.32256647e-01  8.97437076e-01 -4.32256647e-01 -2.55474631e-02 -5.63240626e-02 
 1.48779104e+10	-2.62283902e-02 -5.68701981e-02  8.94731690e-01 -4.37688060e-01  8.94731690e-01 -4.37688060e-01 -2.62283902e-02 -5.68701981e-02 
 1.50776119e+10	-2.69158084e-02 -5.74079438e-02  8.91993277e-01 -4.43101813e-01  8.91993277e-01 -4.43101813e-01 -2.69158084e-02 -5.74079438e-02 
 1.52773134e+10	-2.76096131e-02 -5.79372227e-02  8.89221965e-01 -4.48497702e-01  8.89221965e-01 -4.48497702e-01 -2.76096131e-02 -5.79372227e-02 
 1.54770149e+10	-2.83096988e-02 -5.84579594e-02  8.86417885e-01 -4.53875525e-01  8.86417885e-01 -4.53875525e-01 -2.83096988e-02 -5.84579594e-02 
 1.56767164e+10	-2.90159589e-02 -5.89700795e-02  8.83581166e-01 -4.59235080e-01  8.83581166e-01 -4.59235080e-01 -2.90159589e-02 -5.89700795e-02 
 1.58764179e+10	-2.97282861e-02 -5.94735102e-02  8.80711942e-01 -4.64576169e-01  8.80711942e-01 -4.64576169e-01 -2.97282861e-02 -5.94735102e-02 
 1.60761194e+10	-3.04465723e-02 -5.99681800e-02  8.77810346e-01 -4.69898591e-01  8.77810346e-01 -4.69898591e-01 -3.04465723e-02 -5.99681800e-02 
 1.62758209e+10	-3.11707084e-02 -6.04540187e-02  8.74876512e-01 -4.75202150e-01  8.74876512e-01 -4.75202150e-01 -3.11707084e-02 -6.04540187e-02 
 1.64755224e+10	-3.19005847e-02 -6.09309576e-02  8.71910577e-01 -4.80486650e-01  8.71910577e-01 -4.80486650e-01 -3.19005847e-02 -6.09309576e-02 
 1.66752239e+10	-3.26360904e-02 -6.13989294e-02  8.68912677e-01 -4.85751895e-01  8.68912677e-01 -4.85751895e-01 -3.26360904e-02 -6.13989294e-02 
 1.68749254e+10	-3.33771142e-02 -6.18578680e-02  8.65882951e-01 -4.90997691e-01  8.65882951e-01 -4.90997691e-01 -3.33771142e-02 -6.18578680e-02 
 1.70746269e+10	-3.41235441e-02 -6.23077090e-02  8.62821539e-01 -4.96223846e-01  8.62821539e-01 -4.96223846e-01 -3.41235441e-02 -6.23077090e-02 
 1.72743284e+10	-3.48752670e-02 -6.27483891e-02  8.59728581e-01 -5.01430169e-01  8.59728581e-01 -5.01430169e-01 -3.48752670e-02 -6.27483891e-02 
 1.74740299e+10	-3.56321693e-02 -6.31798468e-02  8.56604218e-01 -5.06616469e-01  8.56604218e-01 -5.06616469e-01 -3.56321693e-02 -6.31798468e-02 
 1.76737313e+10	-3.63941369e-02 -6.36020218e-02  8.53448595e-01 -5.11782558e-01  8.53448595e-01 -5.11782558e-01 -3.63941369e-02 -6.36020218e-02 
 1.78734328e+10	-3.71610546e-02 -6.40148552e-02  8.50261854e-01 -5.16928248e-01  8.50261854e-01 -5.16928248e-01 -3.71610546e-02 -6.40148552e-02 
 1.80731343e+10	-3.79328069e-02 -6.44182896e-02  8.47044141e-01 -5.22053352e-01  8.47044141e-01 -5.22053352e-01 -3.79328069e-02 -6.44182896e-02 
 1.82728358e+10	-3.87092774e-02 -6.48122693e-02  8.43795603e-01 -5.27157685e-01  8.43795603e-01 -5.27157685e-01 -3.87092774e-02 -6.48122693e-02 
 1.84725373e+10	-3.94903492e-02 -6.51967396e-02  8.40516387e-01 -5.32241063e-01  8.40516387e-01 -5.32241063e-01 -3.94903492e-02 -6.51967396e-02 
 1.86722388e+10	-4.02759047e-02 -6.55716478e-02  8.37206640e-01 -5.37303305e-01  8.37206640e-01 -5.37303305e-01 -4.02759047e-02 -6.55716478e-02 
 1.88719403e+10	-4.10658260e-02 -6.59369421e-02  8.33866513e-01 -5.42344228e-01  8.33866513e-01 -5.42344228e-01 -4.10658260e-02 -6.59369421e-02 
 1.90716418e+10	-4.18599942e-02 -6.62925727e-02  8.30496157e-01 -5.47363652e-01  8.30496157e-01 -5.47363652e-01 -4.18599942e-02 -6.62925727e-02 
 1.92713433e+10	-4.26582901e-02 -6.66384911e-02  8.27095721e-01 -5.52361399e-01  8.27095721e-01 -5.52361399e-01 -4.26582901e-02 -6.66384911e-02 
 1.94710448e+10	-4.34605941e-02 -6.69746501e-02  8.23665360e-01 -5.57337291e-01  8.23665360e-01 -5.57337291e-01 -4.34605941e-02 -6.69746501e-02 
 1.96707463e+10	-4.42667857e-02 -6.73010042e-02  8.20205226e-01 -5.62291153e-01  8.20205226e-01 -5.62291153e-01 -4.42667857e-02 -6.73010042e-02 
 1.98704478e+10	-4.50767442e-02 -6.76175095e-02  8.16715474e-01 -5.67222809e-01  8.16715474e-01 -5.67222809e-01 -4.50767442e-02 -6.76175095e-02 
 2.00701493e+10	-4.58903485e-02 -6.79241234e-02  8.13196260e-01 -5.72132085e-01  8.13196260e-01 -5.72132085e-01 -4.58903485e-02 -6.79241234e-02 
 2.02698507e+10	-4.67074767e-02 -6.82208048e-02  8.09647739e-01 -5.77018810e-01  8.09647739e-01 -5.77018810e-01 -4.67074767e-02 -6.82208048e-02 
 2.04695522e+10	-4.75280069e-02 -6.85075144e-02  8.06070069e-01 -5.81882813e-01  8.06070069e-01 -5.81882813e-01 -4.75280069e-02 -6.85075144e-02 
 2.06692537e+10	-4.83518163e-02 -6.87842140e-02  8.02463408e-01 -5.86723923e-01  8.02463408e-01 -5.86723923e-01 -4.83518163e-02 -6.87842140e-02 
 2.08689552e+10	-4.91787821e-02 -6.90508674e-02  7.98827916e-01 -5.91541974e-01  7.98827916e-01 -5.91541974e-01 -4.91787821e-02 -6.90508674e-02 
 2.10686567e+10	-5.00087811e-02 -6.93074395e-02  7.95163752e-01 -5.96336797e-01  7.95163752e-01 -5.96336797e-01 -5.00087811e-02 -6.93074395e-02 
 2.12683582e+10	-5.08416894e-02 -6.95538969e-02  7.91471077e-01 -6.01108227e-01  7.91471077e-01 -6.01108227e-01 -5.08416894e-02 -6.95538969e-02 
 2.14680597e+10	-5.16773831e-02 -6.97902079e-02  7.87750053e-01 -6.05856101e-01  7.87750053e-01 -6.05856101e-01 -5.16773831e-02 -6.97902079e-02 
 2.16677612e+10	-5.25157379e-02 -7.00163421e-02  7.84000842e-01 -6.10580254e-01  7.84000842e-01 -6.10580254e-01 -5.25157379e-02 -7.00163421e-02 
 2.18674627e+10	-5.33566292e-02 -7.02322707e-02  7.80223608e-01 -6.15280525e-01  7.80223608e-01 -6.15280525e-01 -5.33566292e-02 -7.02322707e-02 
 2.20671642e+10	-5.41999320e-02 -7.04379664e-02  7.76418515e-01 -6.19956754e-01  7.76418515e-01 -6.19956754e-01 -5.41999320e-02 -7.04379664e-02 
 2.22668657e+10	-5.50455212e-02 -7.06334036e-02  7.72585728e-01 -6.24608783e-01  7.72585728e-01 -6.24608783e-01 -5.50455212e-02 -7.06334036e-02 
 2.24665672e+10	-5.58932715e-02 -7.08185582e-02  7.68725412e-01 -6.29236452e-01  7.68725412e-01 -6.29236452e-01 -5.58932715e-02 -7.08185582e-02 
 2.26662687e+10	-5.67430571e-02 -7.09934074e-02  7.64837735e-01 -6.33839607e-01  7.64837735e-01 -6.33839607e-01 -5.67430571e-02 -7.09934074e-02 
 2.28659701e+10	-5.75947522e-02 -7.11579303e-02  7.60922864e-01 -6.38418092e-01  7.60922864e-01 -6.38418092e-01 -5.75947522e-02 -7.11579303e-02 
 2.30656716e+10	-5.84482309e-02 -7.13121073e-02  7.56980966e-01 -6.42971753e-01  7.56980966e-01 -6.42971753e-01 -5.84482309e-02 -7.13121073e-02 
 2.32653731e+10	-5.93033670e-02 -7.14559205e-02  7.53012210e-01 -6.47500438e-01  7.53012210e-01 -6.47500438e-01 -5.93033670e-02 -7.14559205e-02 
 2.34650746e+10	-6.01600342e-02 -7.15893535e-02  7.49016767e-01 -6.52003997e-01  7.49016767e-01 -6.52003997e-01 -6.01600342e-02 -7.15893535e-02 
 2.36647761e+10	-6.10181059e-02 -7.17123913e-02  7.44994806e-01 -6.56482279e-01  7.44994806e-01 -6.56482279e-01 -6.10181059e-02 -7.17123913e-02 
 2.38644776e+10	-6.18774558e-02 -7.18250206e-02  7.40946497e-01 -6.60935137e-01  7.40946497e-01 -6.60935137e-01 -6.18774558e-02 -7.18250206e-02 
 2.40641791e+10	-6.27379572e-02 -7.19272298e-02  7.36872013e-01 -6.65362424e-01  7.36872013e-01 -6.65362424e-01 -6.27379572e-02 -7.19272298e-02 
 2.42638806e+10	-6.35994833e-02 -7.20190085e-02  7.32771526e-01 -6.69763994e-01  7.32771526e-01 -6.69763994e-01 -6.35994833e-02 -7.20190085e-02 
 2.44635821e+10	-6.44619075e-02 -7.21003480e-02  7.28645209e-01 -6.74139702e-01  7.28645209e-01 -6.74139702e-01 -6.44619075e-02 -7.21003480e-02 
 2.46632836e+10	-6.53251029e-02 -7.21712413e-02  7.24493234e-01 -6.78489406e-01  7.24493234e-01 -6.78489406e-01 -6.53251029e-02 -7.21712413e-02 
 2.48629851e+10	-6.61889427e-02 -7.22316827e-02  7.20315777e-01 -6.82812965e-01  7.20315777e-01 -6.82812965e-01 -6.61889427e-02 -7.22316827e-02 
 2.50626866e+10	-6.70533003e-02 -7.22816682e-02  7.16113012e-01 -6.87110238e-01  7.16113012e-01 -6.87110238e-01 -6.70533003e-02 -7.22816682e-02 
 2.52623881e+10	-6.79180488e-02 -7.23211952e-02  7.11885115e-01 -6.91381086e-01  7.11885115e-01 -6.91381086e-01 -6.79180488e-02 -7.23211952e-02 
 2.54620896e+10	-6.87830616e-02 -7.23502629e-02  7.07632260e-01 -6.95625373e-01  7.07632260e-01 -6.95625373e-01 -6.87830616e-02 -7.23502629e-02 
 2.56617910e+10	-6.96482120e-02 -7.23688717e-02  7.03354625e-01 -6.99842961e-01  7.03354625e-01 -6.99842961e-01 -6.96482120e-02 -7.23688717e-02 
 2.58614925e+10	-7.05133735e-02 -7.23770238e-02  6.99052387e-01 -7.04033715e-01  6.99052387e-01 -7.04033715e-01 -7.05133735e-02 -7.23770238e-02 
 2.60611940e+10	-7.13784196e-02 -7.23747228e-02  6.94725724e-01 -7.08197504e-01  6.94725724e-01 -7.08197504e-01 -7.13784196e-02 -7.23747228e-02 
 2.62608955e+10	-7.22432240e-02 -7.23619738e-02  6.90374812e-01 -7.12334193e-01  6.90374812e-01 -7.12334193e-01 -7.22432240e-02 -7.23619738e-02 
 2.64605970e+10	-7.31076604e-02 -7.23387836e-02  6.85999832e-01 -7.16443653e-01  6.85999832e-01 -7.16443653e-01 -7.31076604e-02 -7.23387836e-02 
 2.66602985e+10	-7.39716029e-02 -7.23051603e-02  6.81600962e-01 -7.20525753e-01  6.81600962e-01 -7.20525753e-01 -7.39716029e-02 -7.23051603e-02 
 2.68600000e+10	-7.48349257e-02 -7.22611136e-02  6.77178382e-01 -7.24580367e-01  6.77178382e-01 -7.24580367e-01 -7.48349257e-02 -7.22611136e-02 
 2.70597015e+10	-7.56975029e-02 -7.22066548e-02  6.72732272e-01 -7.28607366e-01  6.72732272e-01 -7.28607366e-01 -7.56975029e-02 -7.22066548e-02 
 2.72594030e+10	-7.65592093e-02 -7.21417967e-02  6.68262812e-01 -7.32606625e-01  6.68262812e-01 -7.32606625e-01 -7.65592093e-02 -7.21417967e-02 
