! Touchstone Ver. 1.0
! Number of ports is 2
# Hz  S RI  R  	50
! SCATTERING PARAMETERS  :
 1.00000000e+08	 8.56285268e-04  4.18392928e-04  9.99142793e-01 -7.42988664e-04  9.99142793e-01 -7.42988664e-04  8.56285268e-04  4.18392928e-04 
 7.69000000e+08	 7.20879013e-04  3.21871747e-03  9.99269309e-01 -5.71484486e-03  9.99269309e-01 -5.71484486e-03  7.20879013e-04  3.21871747e-03 
 1.43800000e+09	 7.70454753e-04  6.01839440e-03  9.99206137e-01 -1.06860316e-02  9.99206137e-01 -1.06860316e-02  7.70454753e-04  6.01839440e-03 
 2.10700000e+09	 8.86171514e-04  8.81636030e-03  9.99072116e-01 -1.56554886e-02  9.99072116e-01 -1.56554886e-02  8.86171514e-04  8.81636030e-03 
 2.77600000e+09	 1.02979144e-03  1.16126248e-02  9.98905460e-01 -2.06232283e-02  9.98905460e-01 -2.06232283e-02  1.02979144e-03  1.16126248e-02 
 3.44500000e+09	 1.20118094e-03  1.44068738e-02  9.98706319e-01 -2.55889394e-02  9.98706319e-01 -2.55889394e-02  1.20118094e-03  1.44068738e-02 
 4.11400000e+09	 1.40026437e-03  1.71987925e-02  9.98474775e-01 -3.05523103e-02  9.98474775e-01 -3.05523103e-02  1.40026437e-03  1.71987925e-02 
 4.78300000e+09	 1.62711028e-03  1.99880527e-02  9.98210741e-01 -3.55130160e-02  9.98210741e-01 -3.55130160e-02  1.62711028e-03  1.99880527e-02 
 5.45200000e+09	 1.88691913e-03  2.27740030e-02  9.97909019e-01 -4.04704075e-02  9.97909019e-01 -4.04704075e-02  1.88691913e-03  2.27740030e-02 
 6.12100000e+09	 2.17681293e-03  2.55564095e-02  9.97572502e-01 -4.54242543e-02  9.97572502e-01 -4.54242543e-02  2.17681293e-03  2.55564095e-02 
 6.79000000e+09	 2.49427397e-03  2.83350896e-02  9.97203693e-01 -5.03743765e-02  9.97203693e-01 -5.03743765e-02  2.49427397e-03  2.83350896e-02 
 7.45900000e+09	 2.83931322e-03  3.11097171e-02  9.96802572e-01 -5.53204510e-02  9.96802572e-01 -5.53204510e-02  2.83931322e-03  3.11097171e-02 
 8.12800000e+09	 3.21174086e-03  3.38799974e-02  9.96369348e-01 -6.02621859e-02  9.96369348e-01 -6.02621859e-02  3.21174086e-03  3.38799974e-02 
 8.79700000e+09	 3.61151041e-03  3.66456159e-02  9.95904062e-01 -6.51992699e-02  9.95904062e-01 -6.51992699e-02  3.61151041e-03  3.66456159e-02 
 9.46600000e+09	 4.03870482e-03  3.94062327e-02  9.95406604e-01 -7.01313656e-02  9.95406604e-01 -7.01313656e-02  4.03870482e-03  3.94062327e-02 
 1.01350000e+10	 4.48999987e-03  4.21619327e-02  9.94880328e-01 -7.50585613e-02  9.94880328e-01 -7.50585613e-02  4.48999987e-03  4.21619327e-02 
 1.08040000e+10	 4.95624188e-03  4.49136242e-02  9.94334387e-01 -7.99817677e-02  9.94334387e-01 -7.99817677e-02  4.95624188e-03  4.49136242e-02 
 1.14730000e+10	 5.44971419e-03  4.76596182e-02  9.93756467e-01 -8.48992993e-02  9.93756467e-01 -8.48992993e-02  5.44971419e-03  4.76596182e-02 
 1.21420000e+10	 5.97019453e-03  5.03996359e-02  9.93146810e-01 -8.98108799e-02  9.93146810e-01 -8.98108799e-02  5.97019453e-03  5.03996359e-02 
 1.28110000e+10	 6.51757227e-03  5.31333785e-02  9.92505533e-01 -9.47162134e-02  9.92505533e-01 -9.47162134e-02  6.51757227e-03  5.31333785e-02 
 1.34800000e+10	 7.09187651e-03  5.58605124e-02  9.91832580e-01 -9.96149694e-02  9.91832580e-01 -9.96149694e-02  7.09187651e-03  5.58605124e-02 
 1.41490000e+10	 7.69295766e-03  5.85807472e-02  9.91128110e-01 -1.04506860e-01  9.91128110e-01 -1.04506860e-01  7.69295766e-03  5.85807472e-02 
 1.48180000e+10	 8.32065093e-03  6.12937997e-02  9.90392299e-01 -1.09391605e-01  9.90392299e-01 -1.09391605e-01  8.32065093e-03  6.12937997e-02 
 1.54870000e+10	 8.97493043e-03  6.39993498e-02  9.89625154e-01 -1.14268888e-01  9.89625154e-01 -1.14268888e-01  8.97493043e-03  6.39993498e-02 
 1.61560000e+10	 9.65571784e-03  6.66970900e-02  9.88826747e-01 -1.19138404e-01  9.88826747e-01 -1.19138404e-01  9.65571784e-03  6.66970900e-02 
 1.68250000e+10	 1.03627955e-02  6.93867567e-02  9.87997313e-01 -1.23999891e-01  9.87997313e-01 -1.23999891e-01  1.03627955e-02  6.93867567e-02 
 1.74940000e+10	 1.10960839e-02  7.20680461e-02  9.87136921e-01 -1.28853049e-01  9.87136921e-01 -1.28853049e-01  1.10960839e-02  7.20680461e-02 
 1.81630000e+10	 1.18555740e-02  7.47406293e-02  9.86245560e-01 -1.33697552e-01  9.86245560e-01 -1.33697552e-01  1.18555740e-02  7.47406293e-02 
 1.88320000e+10	 1.26409970e-02  7.74042649e-02  9.85323520e-01 -1.38533161e-01  9.85323520e-01 -1.38533161e-01  1.26409970e-02  7.74042649e-02 
 1.95010000e+10	 1.34522267e-02  8.00586674e-02  9.84370927e-01 -1.43359593e-01  9.84370927e-01 -1.43359593e-01  1.34522267e-02  8.00586674e-02 
 2.01700000e+10	 1.42871912e-02  8.27039902e-02  9.83389817e-01 -1.48177006e-01  9.83389817e-01 -1.48177006e-01  1.42871912e-02  8.27039902e-02 
 2.08390000e+10	 1.51415268e-02  8.53410622e-02  9.82384587e-01 -1.52986231e-01  9.82384587e-01 -1.52986231e-01  1.51415268e-02  8.53410622e-02 
 2.15080000e+10	 1.60213121e-02  8.79681766e-02  9.81349152e-01 -1.57785563e-01  9.81349152e-01 -1.57785563e-01  1.60213121e-02  8.79681766e-02 
 2.21770000e+10	 1.69265376e-02  9.05850014e-02  9.80283494e-01 -1.62574672e-01  9.80283494e-01 -1.62574672e-01  1.69265376e-02  9.05850014e-02 
 2.28460000e+10	 1.78569744e-02  9.31912932e-02  9.79187854e-01 -1.67353321e-01  9.79187854e-01 -1.67353321e-01  1.78569744e-02  9.31912932e-02 
 2.35150000e+10	 1.88124309e-02  9.57867975e-02  9.78062430e-01 -1.72121254e-01  9.78062430e-01 -1.72121254e-01  1.88124309e-02  9.57867975e-02 
 2.41840000e+10	 1.97928459e-02  9.83712035e-02  9.76907262e-01 -1.76878165e-01  9.76907262e-01 -1.76878165e-01  1.97928459e-02  9.83712035e-02 
 2.48530000e+10	 2.07980590e-02  1.00944243e-01  9.75722508e-01 -1.81623789e-01  9.75722508e-01 -1.81623789e-01  2.07980590e-02  1.00944243e-01 
 2.55220000e+10	 2.18278300e-02  1.03505687e-01  9.74508421e-01 -1.86357900e-01  9.74508421e-01 -1.86357900e-01  2.18278300e-02  1.03505687e-01 
 2.61910000e+10	 2.28820478e-02  1.06055251e-01  9.73265099e-01 -1.91080212e-01  9.73265099e-01 -1.91080212e-01  2.28820478e-02  1.06055251e-01 
 2.68600000e+10	 2.39606183e-02  1.08592635e-01  9.71992619e-01 -1.95790433e-01  9.71992619e-01 -1.95790433e-01  2.39606183e-02  1.08592635e-01 
 2.75290000e+10	 2.50632547e-02  1.11117641e-01  9.70691285e-01 -2.00488365e-01  9.70691285e-01 -2.00488365e-01  2.50632547e-02  1.11117641e-01 
 2.81980000e+10	 2.61897980e-02  1.13630009e-01  9.69361253e-01 -2.05173751e-01  9.69361253e-01 -2.05173751e-01  2.61897980e-02  1.13630009e-01 
 2.88670000e+10	 2.73402176e-02  1.16129408e-01  9.68002519e-01 -2.09846264e-01  9.68002519e-01 -2.09846264e-01  2.73402176e-02  1.16129408e-01 
 2.95360000e+10	 2.85141823e-02  1.18615670e-01  9.66615442e-01 -2.14505737e-01  9.66615442e-01 -2.14505737e-01  2.85141823e-02  1.18615670e-01 
 3.02050000e+10	 2.97102575e-02  1.21089008e-01  9.65201455e-01 -2.19152385e-01  9.65201455e-01 -2.19152385e-01  2.97102575e-02  1.21089008e-01 
 3.08740000e+10	 3.09268300e-02  1.23549711e-01  9.63762140e-01 -2.23786501e-01  9.63762140e-01 -2.23786501e-01  3.09268300e-02  1.23549711e-01 
 3.15430000e+10	 3.21664586e-02  1.25996590e-01  9.62294954e-01 -2.28406899e-01  9.62294954e-01 -2.28406899e-01  3.21664586e-02  1.25996590e-01 
 3.22120000e+10	 3.34289307e-02  1.28429422e-01  9.60800109e-01 -2.33013357e-01  9.60800109e-01 -2.33013357e-01  3.34289307e-02  1.28429422e-01 
 3.28810000e+10	 3.47141524e-02  1.30847910e-01  9.59277676e-01 -2.37605584e-01  9.59277676e-01 -2.37605584e-01  3.47141524e-02  1.30847910e-01 
 3.35500000e+10	 3.60218940e-02  1.33251846e-01  9.57727884e-01 -2.42183368e-01  9.57727884e-01 -2.42183368e-01  3.60218940e-02  1.33251846e-01 
 3.42190000e+10	 3.73518997e-02  1.35641037e-01  9.56151001e-01 -2.46746526e-01  9.56151001e-01 -2.46746526e-01  3.73518997e-02  1.35641037e-01 
 3.48880000e+10	 3.87040307e-02  1.38015220e-01  9.54547145e-01 -2.51294791e-01  9.54547145e-01 -2.51294791e-01  3.87040307e-02  1.38015220e-01 
 3.55570000e+10	 4.00781192e-02  1.40374147e-01  9.52916474e-01 -2.55827921e-01  9.52916474e-01 -2.55827921e-01  4.00781192e-02  1.40374147e-01 
 3.62260000e+10	 4.14738688e-02  1.42717662e-01  9.51259297e-01 -2.60345763e-01  9.51259297e-01 -2.60345763e-01  4.14738688e-02  1.42717662e-01 
 3.68950000e+10	 4.28910983e-02  1.45045533e-01  9.49575786e-01 -2.64848084e-01  9.49575786e-01 -2.64848084e-01  4.28910983e-02  1.45045533e-01 
 3.75640000e+10	 4.43296985e-02  1.47357473e-01  9.47866023e-01 -2.69334603e-01  9.47866023e-01 -2.69334603e-01  4.43296985e-02  1.47357473e-01 
 3.82330000e+10	 4.57893349e-02  1.49653362e-01  9.46130365e-01 -2.73805201e-01  9.46130365e-01 -2.73805201e-01  4.57893349e-02  1.49653362e-01 
 3.89020000e+10	 4.72697956e-02  1.51932997e-01  9.44369017e-01 -2.78259676e-01  9.44369017e-01 -2.78259676e-01  4.72697956e-02  1.51932997e-01 
 3.95710000e+10	 4.87709990e-02  1.54196068e-01  9.42582026e-01 -2.82697723e-01  9.42582026e-01 -2.82697723e-01  4.87709990e-02  1.54196068e-01 
 4.02400000e+10	 5.02926026e-02  1.56442473e-01  9.40769756e-01 -2.87119241e-01  9.40769756e-01 -2.87119241e-01  5.02926026e-02  1.56442473e-01 
 4.09090000e+10	 5.18343790e-02  1.58672027e-01  9.38932433e-01 -2.91524047e-01  9.38932433e-01 -2.91524047e-01  5.18343790e-02  1.58672027e-01 
 4.15780000e+10	 5.33962053e-02  1.60884452e-01  9.37070148e-01 -2.95911865e-01  9.37070148e-01 -2.95911865e-01  5.33962053e-02  1.60884452e-01 
 4.22470000e+10	 5.49777991e-02  1.63079609e-01  9.35183193e-01 -3.00282558e-01  9.35183193e-01 -3.00282558e-01  5.49777991e-02  1.63079609e-01 
 4.29160000e+10	 5.65788966e-02  1.65257346e-01  9.33271836e-01 -3.04635979e-01  9.33271836e-01 -3.04635979e-01  5.65788966e-02  1.65257346e-01 
 4.35850000e+10	 5.81993356e-02  1.67417425e-01  9.31336215e-01 -3.08971889e-01  9.31336215e-01 -3.08971889e-01  5.81993356e-02  1.67417425e-01 
 4.42540000e+10	 5.98388909e-02  1.69559662e-01  9.29376551e-01 -3.13290108e-01  9.29376551e-01 -3.13290108e-01  5.98388909e-02  1.69559662e-01 
 4.49230000e+10	 6.14972641e-02  1.71683944e-01  9.27393150e-01 -3.17590524e-01  9.27393150e-01 -3.17590524e-01  6.14972641e-02  1.71683944e-01 
 4.55920000e+10	 6.31742574e-02  1.73790070e-01  9.25386196e-01 -3.21872939e-01  9.25386196e-01 -3.21872939e-01  6.31742574e-02  1.73790070e-01 
 4.62610000e+10	 6.48696984e-02  1.75877810e-01  9.23355840e-01 -3.26137125e-01  9.23355840e-01 -3.26137125e-01  6.48696984e-02  1.75877810e-01 
 4.69300000e+10	 6.65832573e-02  1.77947095e-01  9.21302429e-01 -3.30383014e-01  9.21302429e-01 -3.30383014e-01  6.65832573e-02  1.77947095e-01 
 4.75990000e+10	 6.83147031e-02  1.79997759e-01  9.19226186e-01 -3.34610443e-01  9.19226186e-01 -3.34610443e-01  6.83147031e-02  1.79997759e-01 
 4.82680000e+10	 7.00639125e-02  1.82029523e-01  9.17127197e-01 -3.38819137e-01  9.17127197e-01 -3.38819137e-01  7.00639125e-02  1.82029523e-01 
 4.89370000e+10	 7.18305272e-02  1.84042362e-01  9.15005845e-01 -3.43009069e-01  9.15005845e-01 -3.43009069e-01  7.18305272e-02  1.84042362e-01 
 4.96060000e+10	 7.36143086e-02  1.86036125e-01  9.12862362e-01 -3.47180093e-01  9.12862362e-01 -3.47180093e-01  7.36143086e-02  1.86036125e-01 
 5.02750000e+10	 7.54151099e-02  1.88010560e-01  9.10696860e-01 -3.51331958e-01  9.10696860e-01 -3.51331958e-01  7.54151099e-02  1.88010560e-01 
 5.09440000e+10	 7.72326160e-02  1.89965604e-01  9.08509669e-01 -3.55464603e-01  9.08509669e-01 -3.55464603e-01  7.72326160e-02  1.89965604e-01 
 5.16130000e+10	 7.90665620e-02  1.91901146e-01  9.06301052e-01 -3.59577918e-01  9.06301052e-01 -3.59577918e-01  7.90665620e-02  1.91901146e-01 
 5.22820000e+10	 8.09167691e-02  1.93816971e-01  9.04071161e-01 -3.63671692e-01  9.04071161e-01 -3.63671692e-01  8.09167691e-02  1.93816971e-01 
 5.29510000e+10	 8.27829726e-02  1.95712969e-01  9.01820259e-01 -3.67745815e-01  9.01820259e-01 -3.67745815e-01  8.27829726e-02  1.95712969e-01 
 5.36200000e+10	 8.46648806e-02  1.97589071e-01  8.99548645e-01 -3.71800219e-01  8.99548645e-01 -3.71800219e-01  8.46648806e-02  1.97589071e-01 
 5.42890000e+10	 8.65622850e-02  1.99445103e-01  8.97256507e-01 -3.75834734e-01  8.97256507e-01 -3.75834734e-01  8.65622850e-02  1.99445103e-01 
 5.49580000e+10	 8.84749677e-02  2.01280902e-01  8.94944045e-01 -3.79849198e-01  8.94944045e-01 -3.79849198e-01  8.84749677e-02  2.01280902e-01 
 5.56270000e+10	 9.04026126e-02  2.03096442e-01  8.92611589e-01 -3.83843587e-01  8.92611589e-01 -3.83843587e-01  9.04026126e-02  2.03096442e-01 
 5.62960000e+10	 9.23449850e-02  2.04891593e-01  8.90259362e-01 -3.87817771e-01  8.90259362e-01 -3.87817771e-01  9.23449850e-02  2.04891593e-01 
 5.69650000e+10	 9.43019094e-02  2.06666137e-01  8.87887507e-01 -3.91771536e-01  8.87887507e-01 -3.91771536e-01  9.43019094e-02  2.06666137e-01 
 5.76340000e+10	 9.62730481e-02  2.08420092e-01  8.85496380e-01 -3.95704901e-01  8.85496380e-01 -3.95704901e-01  9.62730481e-02  2.08420092e-01 
 5.83030000e+10	 9.82581524e-02  2.10153357e-01  8.83086226e-01 -3.99617765e-01  8.83086226e-01 -3.99617765e-01  9.82581524e-02  2.10153357e-01 
 5.89720000e+10	 1.00257057e-01  2.11865701e-01  8.80657167e-01 -4.03509900e-01  8.80657167e-01 -4.03509900e-01  1.00257057e-01  2.11865701e-01 
 5.96410000e+10	 1.02269434e-01  2.13557145e-01  8.78209552e-01 -4.07381328e-01  8.78209552e-01 -4.07381328e-01  1.02269434e-01  2.13557145e-01 
 6.03100000e+10	 1.04295024e-01  2.15227610e-01  8.75743635e-01 -4.11231972e-01  8.75743635e-01 -4.11231972e-01  1.04295024e-01  2.15227610e-01 
 6.09790000e+10	 1.06333637e-01  2.16876910e-01  8.73259574e-01 -4.15061647e-01  8.73259574e-01 -4.15061647e-01  1.06333637e-01  2.16876910e-01 
 6.16480000e+10	 1.08384988e-01  2.18505010e-01  8.70757657e-01 -4.18870320e-01  8.70757657e-01 -4.18870320e-01  1.08384988e-01  2.18505010e-01 
 6.23170000e+10	 1.10448799e-01  2.20111876e-01  8.68238166e-01 -4.22657958e-01  8.68238166e-01 -4.22657958e-01  1.10448799e-01  2.20111876e-01 
 6.29860000e+10	 1.12524855e-01  2.21697364e-01  8.65701288e-01 -4.26424418e-01  8.65701288e-01 -4.26424418e-01  1.12524855e-01  2.21697364e-01 
 6.36550000e+10	 1.14612913e-01  2.23261383e-01  8.63147256e-01 -4.30169612e-01  8.63147256e-01 -4.30169612e-01  1.14612913e-01  2.23261383e-01 
 6.43240000e+10	 1.16712675e-01  2.24803944e-01  8.60576378e-01 -4.33893551e-01  8.60576378e-01 -4.33893551e-01  1.16712675e-01  2.24803944e-01 
 6.49930000e+10	 1.18823911e-01  2.26324947e-01  8.57988867e-01 -4.37596133e-01  8.57988867e-01 -4.37596133e-01  1.18823911e-01  2.26324947e-01 
 6.56620000e+10	 1.20946409e-01  2.27824241e-01  8.55384904e-01 -4.41277216e-01  8.55384904e-01 -4.41277216e-01  1.20946409e-01  2.27824241e-01 
 6.63310000e+10	 1.23079859e-01  2.29301884e-01  8.52764819e-01 -4.44936851e-01  8.52764819e-01 -4.44936851e-01  1.23079859e-01  2.29301884e-01 
 6.70000000e+10	 1.25223776e-01  2.30758305e-01  8.50129203e-01 -4.48575468e-01  8.50129203e-01 -4.48575468e-01  1.25223776e-01  2.30758305e-01 
