! Touchstone Ver. 1.0
! Number of ports is 2
# Hz  S RI  R  	50
! SCATTERING PARAMETERS  :
 1.00000000e+08	 2.45581649e-03 -1.14294941e-02  9.96795988e-01 -2.44660943e-02  9.96795988e-01 -2.44660943e-02  2.45581649e-03 -1.14294941e-02 
 2.99701493e+08	-6.52022242e-05 -3.41145321e-02  9.93967578e-01 -7.31990461e-02  9.93967578e-01 -7.31990461e-02 -6.52022242e-05 -3.41145321e-02 
 4.99402985e+08	-4.62265806e-03 -5.64246016e-02  9.88107872e-01 -1.21552730e-01  9.88107872e-01 -1.21552730e-01 -4.62265806e-03 -5.64246016e-02 
 6.99104478e+08	-1.12432919e-02 -7.81321015e-02  9.79365220e-01 -1.69288872e-01  9.79365220e-01 -1.69288872e-01 -1.12432919e-02 -7.81321015e-02 
 8.98805970e+08	-1.99031163e-02 -9.90143706e-02  9.67892035e-01 -2.16187168e-01  9.67892035e-01 -2.16187168e-01 -1.99031163e-02 -9.90143706e-02 
 1.09850746e+09	-3.04939552e-02 -1.18865694e-01  9.53806067e-01 -2.62040838e-01  9.53806067e-01 -2.62040838e-01 -3.04939552e-02 -1.18865694e-01 
 1.29820896e+09	-4.28780608e-02 -1.37499449e-01  9.37238947e-01 -3.06660912e-01  9.37238947e-01 -3.06660912e-01 -4.28780608e-02 -1.37499449e-01 
 1.49791045e+09	-5.68926009e-02 -1.54751417e-01  9.18333530e-01 -3.49877869e-01  9.18333530e-01 -3.49877869e-01 -5.68926009e-02 -1.54751417e-01 
 1.69761194e+09	-7.23659757e-02 -1.70479686e-01  8.97253061e-01 -3.91545524e-01  8.97253061e-01 -3.91545524e-01 -7.23659757e-02 -1.70479686e-01 
 1.89731343e+09	-8.91154263e-02 -1.84566511e-01  8.74170963e-01 -4.31541324e-01  8.74170963e-01 -4.31541324e-01 -8.91154263e-02 -1.84566511e-01 
 2.09701493e+09	-1.06950765e-01 -1.96918756e-01  8.49266900e-01 -4.69766677e-01  8.49266900e-01 -4.69766677e-01 -1.06950765e-01 -1.96918756e-01 
 2.29671642e+09	-1.25678037e-01 -2.07467677e-01  8.22723114e-01 -5.06146643e-01  8.22723114e-01 -5.06146643e-01 -1.25678037e-01 -2.07467677e-01 
 2.49641791e+09	-1.45101747e-01 -2.16168492e-01  7.94719753e-01 -5.40628568e-01  7.94719753e-01 -5.40628568e-01 -1.45101747e-01 -2.16168492e-01 
 2.69611940e+09	-1.64968063e-01 -2.23019295e-01  7.65366750e-01 -5.73153339e-01  7.65366750e-01 -5.73153339e-01 -1.64968063e-01 -2.23019295e-01 
 2.89582090e+09	-1.85152701e-01 -2.28000043e-01  7.34902280e-01 -6.03732259e-01  7.34902280e-01 -6.03732259e-01 -1.85152701e-01 -2.28000043e-01 
 3.09552239e+09	-2.05479073e-01 -2.31126638e-01  7.03491679e-01 -6.32372519e-01  7.03491679e-01 -6.32372519e-01 -2.05479073e-01 -2.31126638e-01 
 3.29522388e+09	-2.25777352e-01 -2.32432424e-01  6.71287356e-01 -6.59095872e-01  6.71287356e-01 -6.59095872e-01 -2.25777352e-01 -2.32432424e-01 
 3.49492537e+09	-2.45888162e-01 -2.31965338e-01  6.38430096e-01 -6.83937234e-01  6.38430096e-01 -6.83937234e-01 -2.45888162e-01 -2.31965338e-01 
 3.69462687e+09	-2.65663466e-01 -2.29785767e-01  6.05048196e-01 -7.06942394e-01  6.05048196e-01 -7.06942394e-01 -2.65663466e-01 -2.29785767e-01 
 3.89432836e+09	-2.84967068e-01 -2.25964470e-01  5.71256973e-01 -7.28165781e-01  5.71256973e-01 -7.28165781e-01 -2.84967068e-01 -2.25964470e-01 
 4.09402985e+09	-3.03674806e-01 -2.20580624e-01  5.37158606e-01 -7.47668348e-01  5.37158606e-01 -7.47668348e-01 -3.03674806e-01 -2.20580624e-01 
 4.29373134e+09	-3.21674464e-01 -2.13720025e-01  5.02842261e-01 -7.65515593e-01  5.02842261e-01 -7.65515593e-01 -3.21674464e-01 -2.13720025e-01 
 4.49343284e+09	-3.38865469e-01 -2.05473479e-01  4.68384444e-01 -7.81775759e-01  4.68384444e-01 -7.81775759e-01 -3.38865469e-01 -2.05473479e-01 
 4.69313433e+09	-3.55158414e-01 -1.95935381e-01  4.33849542e-01 -7.96518213e-01  4.33849542e-01 -7.96518213e-01 -3.55158414e-01 -1.95935381e-01 
 4.89283582e+09	-3.70474453e-01 -1.85202504e-01  3.99290501e-01 -8.09812021e-01  3.99290501e-01 -8.09812021e-01 -3.70474453e-01 -1.85202504e-01 
 5.09253731e+09	-3.84755770e-01 -1.73365741e-01  3.64760624e-01 -8.21736729e-01  3.64760624e-01 -8.21736729e-01 -3.84755770e-01 -1.73365741e-01 
 5.29223881e+09	-3.97941522e-01 -1.60523342e-01  3.30290676e-01 -8.32358022e-01  3.30290676e-01 -8.32358022e-01 -3.97941522e-01 -1.60523342e-01 
 5.49194030e+09	-4.09970422e-01 -1.46779791e-01  2.95894149e-01 -8.41727391e-01  2.95894149e-01 -8.41727391e-01 -4.09970422e-01 -1.46779791e-01 
 5.69164179e+09	-4.20797834e-01 -1.32233498e-01  2.61585663e-01 -8.49901119e-01  2.61585663e-01 -8.49901119e-01 -4.20797834e-01 -1.32233498e-01 
 5.89134328e+09	-4.30386832e-01 -1.16981473e-01  2.27373537e-01 -8.56931396e-01  2.27373537e-01 -8.56931396e-01 -4.30386832e-01 -1.16981473e-01 
 6.09104478e+09	-4.38706749e-01 -1.01119604e-01  1.93259902e-01 -8.62865022e-01  1.93259902e-01 -8.62865022e-01 -4.38706749e-01 -1.01119604e-01 
 6.29074627e+09	-4.45732572e-01 -8.47425712e-02  1.59241580e-01 -8.67743005e-01  1.59241580e-01 -8.67743005e-01 -4.45732572e-01 -8.47425712e-02 
 6.49044776e+09	-4.51444404e-01 -6.79438483e-02  1.25310950e-01 -8.71600257e-01  1.25310950e-01 -8.71600257e-01 -4.51444404e-01 -6.79438483e-02 
 6.69014925e+09	-4.55827012e-01 -5.08157834e-02  9.14567799e-02 -8.74465353e-01  9.14567799e-02 -8.74465353e-01 -4.55827012e-01 -5.08157834e-02 
 6.88985075e+09	-4.58869445e-01 -3.34497454e-02  5.76650387e-02 -8.76360362e-01  5.76650387e-02 -8.76360362e-01 -4.58869445e-01 -3.34497454e-02 
 7.08955224e+09	-4.60564745e-01 -1.59363162e-02  2.39196877e-02 -8.77300727e-01  2.39196877e-02 -8.77300727e-01 -4.60564745e-01 -1.59363162e-02 
 7.28925373e+09	-4.60909747e-01  1.63448206e-03 -9.79654736e-03 -8.77295195e-01 -9.79654736e-03 -8.77295195e-01 -4.60909747e-01  1.63448206e-03 
 7.48895522e+09	-4.59904961e-01  1.91729397e-02 -4.35014152e-02 -8.76345783e-01 -4.35014152e-02 -8.76345783e-01 -4.59904961e-01  1.91729397e-02 
 7.68865672e+09	-4.57554552e-01  3.65894043e-02 -7.72123843e-02 -8.74447795e-01 -7.72123843e-02 -8.74447795e-01 -4.57554552e-01  3.65894043e-02 
 7.88835821e+09	-4.53866400e-01  5.37940304e-02 -1.10945889e-01 -8.71589862e-01 -1.10945889e-01 -8.71589862e-01 -4.53866400e-01  5.37940304e-02 
 8.08805970e+09	-4.48852262e-01  7.06965474e-02 -1.44716572e-01 -8.67754038e-01 -1.44716572e-01 -8.67754038e-01 -4.48852262e-01  7.06965474e-02 
 8.28776119e+09	-4.42528003e-01  8.72060578e-02 -1.78536511e-01 -8.62915925e-01 -1.78536511e-01 -8.62915925e-01 -4.42528003e-01  8.72060578e-02 
 8.48746269e+09	-4.34913926e-01  1.03230880e-01 -2.12414439e-01 -8.57044862e-01 -2.12414439e-01 -8.57044862e-01 -4.34913926e-01  1.03230880e-01 
 8.68716418e+09	-4.26035174e-01  1.18678448e-01 -2.46354940e-01 -8.50104161e-01 -2.46354940e-01 -8.50104161e-01 -4.26035174e-01  1.18678448e-01 
 8.88686567e+09	-4.15922210e-01  1.33455287e-01 -2.80357625e-01 -8.42051419e-01 -2.80357625e-01 -8.42051419e-01 -4.15922210e-01  1.33455287e-01 
 9.08656716e+09	-4.04611364e-01  1.47467071e-01 -3.14416301e-01 -8.32838903e-01 -3.14416301e-01 -8.32838903e-01 -4.04611364e-01  1.47467071e-01 
 9.28626866e+09	-3.92145436e-01  1.60618789e-01 -3.48518109e-01 -8.22414033e-01 -3.48518109e-01 -8.22414033e-01 -3.92145436e-01  1.60618789e-01 
 9.48597015e+09	-3.78574353e-01  1.72815028e-01 -3.82642668e-01 -8.10719966e-01 -3.82642668e-01 -8.10719966e-01 -3.78574353e-01  1.72815028e-01 
 9.68567164e+09	-3.63955846e-01  1.83960393e-01 -4.16761216e-01 -7.97696310e-01 -4.16761216e-01 -7.97696310e-01 -3.63955846e-01  1.83960393e-01 
 9.88537313e+09	-3.48356152e-01  1.93960075e-01 -4.50835768e-01 -7.83279962e-01 -4.50835768e-01 -7.83279962e-01 -3.48356152e-01  1.93960075e-01 
 1.00850746e+10	-3.31851539e-01  2.02732897e-01 -4.84823948e-01 -7.67422813e-01 -4.84823948e-01 -7.67422813e-01 -3.31851539e-01  2.02732897e-01 
 1.02847761e+10	-3.14525341e-01  2.10186600e-01 -5.18668983e-01 -7.50057754e-01 -5.18668983e-01 -7.50057754e-01 -3.14525341e-01  2.10186600e-01 
 1.04844776e+10	-2.96471638e-01  2.16223458e-01 -5.52297465e-01 -7.31106751e-01 -5.52297465e-01 -7.31106751e-01 -2.96471638e-01  2.16223458e-01 
 1.06841791e+10	-2.77796645e-01  2.20758235e-01 -5.85626726e-01 -7.10504902e-01 -5.85626726e-01 -7.10504902e-01 -2.77796645e-01  2.20758235e-01 
 1.08838806e+10	-2.58617984e-01  2.23713330e-01 -6.18562382e-01 -6.88193386e-01 -6.18562382e-01 -6.88193386e-01 -2.58617984e-01  2.23713330e-01 
 1.10835821e+10	-2.39064610e-01  2.25018832e-01 -6.50997554e-01 -6.64119110e-01 -6.50997554e-01 -6.64119110e-01 -2.39064610e-01  2.25018832e-01 
 1.12832836e+10	-2.19276691e-01  2.24614312e-01 -6.82812963e-01 -6.38236679e-01 -6.82812963e-01 -6.38236679e-01 -2.19276691e-01  2.24614312e-01 
 1.14829851e+10	-1.99405200e-01  2.22450740e-01 -7.13877320e-01 -6.10510480e-01 -7.13877320e-01 -6.10510480e-01 -1.99405200e-01  2.22450740e-01 
 1.16826866e+10	-1.79611172e-01  2.18492478e-01 -7.44048063e-01 -5.80916818e-01 -7.44048063e-01 -5.80916818e-01 -1.79611172e-01  2.18492478e-01 
 1.18823881e+10	-1.60064584e-01  2.12719294e-01 -7.73172458e-01 -5.49446071e-01 -7.73172458e-01 -5.49446071e-01 -1.60064584e-01  2.12719294e-01 
 1.20820896e+10	-1.40942845e-01  2.05128313e-01 -8.01089123e-01 -5.16104780e-01 -8.01089123e-01 -5.16104780e-01 -1.40942845e-01  2.05128313e-01 
 1.22817910e+10	-1.22428858e-01  1.95735850e-01 -8.27629955e-01 -4.80917593e-01 -8.27629955e-01 -4.80917593e-01 -1.22428858e-01  1.95735850e-01 
 1.24814925e+10	-1.04708671e-01  1.84579004e-01 -8.52622488e-01 -4.43928982e-01 -8.52622488e-01 -4.43928982e-01 -1.04708671e-01  1.84579004e-01 
 1.26811940e+10	-8.79687416e-02  1.71716943e-01 -8.75892639e-01 -4.05204626e-01 -8.75892639e-01 -4.05204626e-01 -8.79687416e-02  1.71716943e-01 
 1.28808955e+10	-7.23928439e-02  1.57231761e-01 -8.97267797e-01 -3.64832377e-01 -8.97267797e-01 -3.64832377e-01 -7.23928439e-02  1.57231761e-01 
 1.30805970e+10	-5.81587087e-02  1.41228843e-01 -9.16580204e-01 -3.22922710e-01 -9.16580204e-01 -3.22922710e-01 -5.81587087e-02  1.41228843e-01 
 1.32802985e+10	-4.54344780e-02  1.23836632e-01 -9.33670498e-01 -2.79608586e-01 -9.33670498e-01 -2.79608586e-01 -4.54344780e-02  1.23836632e-01 
 1.34800000e+10	-3.43750971e-02  1.05205770e-01 -9.48391336e-01 -2.35044671e-01 -9.48391336e-01 -2.35044671e-01 -3.43750971e-02  1.05205770e-01 
 1.36797015e+10	-2.51187756e-02  8.55075552e-02 -9.60610936e-01 -1.89405876e-01 -9.60610936e-01 -1.89405876e-01 -2.51187756e-02  8.55075552e-02 
 1.38794030e+10	-1.77836624e-02  6.49317423e-02 -9.70216415e-01 -1.42885237e-01 -9.70216415e-01 -1.42885237e-01 -1.77836624e-02  6.49317423e-02 
 1.40791045e+10	-1.24648807e-02  4.36837043e-02 -9.77116755e-01 -9.56911436e-02 -9.77116755e-01 -9.56911436e-02 -1.24648807e-02  4.36837043e-02 
 1.42788060e+10	-9.23205974e-03  2.19810369e-02 -9.81245278e-01 -4.80440217e-02 -9.81245278e-01 -4.80440217e-02 -9.23205974e-03  2.19810369e-02 
 1.44785075e+10	-8.12748395e-03  4.97115590e-05 -9.82561505e-01 -1.72553023e-04 -9.82561505e-01 -1.72553023e-04 -8.12748395e-03  4.97115590e-05 
 1.46782090e+10	-9.16495217e-03 -2.18800903e-02 -9.81052296e-01  4.76904203e-02 -9.81052296e-01  4.76904203e-02 -9.16495217e-03 -2.18800903e-02 
 1.48779104e+10	-1.23294050e-02 -4.35783039e-02 -9.76732226e-01  9.53121544e-02 -9.76732226e-01  9.53121544e-02 -1.23294050e-02 -4.35783039e-02 
 1.50776119e+10	-1.75773396e-02 -6.48193033e-02 -9.69643173e-01  1.42464257e-01 -9.69643173e-01  1.42464257e-01 -1.75773396e-02 -6.48193033e-02 
 1.52773134e+10	-2.48379907e-02 -8.53860531e-02 -9.59853135e-01  1.88926770e-01 -9.59853135e-01  1.88926770e-01 -2.48379907e-02 -8.53860531e-02 
 1.54770149e+10	-3.40152175e-02 -1.05073935e-01 -9.47454343e-01  2.34491929e-01 -9.47454343e-01  2.34491929e-01 -3.40152175e-02 -1.05073935e-01 
 1.56767164e+10	-4.49900008e-02 -1.23694117e-01 -9.32560761e-01  2.78967452e-01 -9.32560761e-01  2.78967452e-01 -4.49900008e-02 -1.23694117e-01 
 1.58764179e+10	-5.76234309e-02 -1.41076354e-01 -9.15305094e-01  3.22179279e-01 -9.15305094e-01  3.22179279e-01 -5.76234309e-02 -1.41076354e-01 
 1.60761194e+10	-7.17600478e-02 -1.57071164e-01 -8.95835449e-01  3.63973659e-01 -8.95835449e-01  3.63973659e-01 -7.17600478e-02 -1.57071164e-01 
 1.62758209e+10	-8.72313860e-02 -1.71551321e-01 -8.74311781e-01  4.04218574e-01 -8.74311781e-01  4.04218574e-01 -8.72313860e-02 -1.71551321e-01 
 1.64755224e+10	-1.03859583e-01 -1.84412695e-01 -8.50902283e-01  4.42804484e-01 -8.50902283e-01  4.42804484e-01 -1.03859583e-01 -1.84412695e-01 
 1.66752239e+10	-1.21460917e-01 -1.95574441e-01 -8.25779846e-01  4.79644438e-01 -8.25779846e-01  4.79644438e-01 -1.21460917e-01 -1.95574441e-01 
 1.68749254e+10	-1.39849157e-01 -2.04978619e-01 -7.99118699e-01  5.14673593e-01 -7.99118699e-01  5.14673593e-01 -1.39849157e-01 -2.04978619e-01 
 1.70746269e+10	-1.58838636e-01 -2.12589305e-01 -7.71091343e-01  5.47848230e-01 -7.71091343e-01  5.47848230e-01 -1.58838636e-01 -2.12589305e-01 
 1.72743284e+10	-1.78246973e-01 -2.18391298e-01 -7.41865821e-01  5.79144352e-01 -7.41865821e-01  5.79144352e-01 -1.78246973e-01 -2.18391298e-01 
 1.74740299e+10	-1.97897403e-01 -2.22388504e-01 -7.11603393e-01  6.08555959e-01 -7.11603393e-01  6.08555959e-01 -1.97897403e-01 -2.22388504e-01 
 1.76737313e+10	-2.17620690e-01 -2.24602108e-01 -6.80456628e-01  6.36093096e-01 -6.80456628e-01  6.36093096e-01 -2.17620690e-01 -2.24602108e-01 
 1.78734328e+10	-2.37256630e-01 -2.25068608e-01 -6.48567907e-01  6.61779760e-01 -6.48567907e-01  6.61779760e-01 -2.37256630e-01 -2.25068608e-01 
 1.80731343e+10	-2.56655147e-01 -2.23837809e-01 -6.16068343e-01  6.85651755e-01 -6.16068343e-01  6.85651755e-01 -2.56655147e-01 -2.23837809e-01 
 1.82728358e+10	-2.75677023e-01 -2.20970831e-01 -5.83077066e-01  7.07754551e-01 -5.83077066e-01  7.07754551e-01 -2.75677023e-01 -2.20970831e-01 
 1.84725373e+10	-2.94194304e-01 -2.16538199e-01 -5.49700853e-01  7.28141216e-01 -5.49700853e-01  7.28141216e-01 -2.94194304e-01 -2.16538199e-01 
 1.86722388e+10	-3.12090402e-01 -2.10618053e-01 -5.16034046e-01  7.46870456e-01 -5.16034046e-01  7.46870456e-01 -3.12090402e-01 -2.10618053e-01 
 1.88719403e+10	-3.29259978e-01 -2.03294509e-01 -4.82158730e-01  7.64004796e-01 -4.82158730e-01  7.64004796e-01 -3.29259978e-01 -2.03294509e-01 
 1.90716418e+10	-3.45608615e-01 -1.94656201e-01 -4.48145108e-01  7.79608923e-01 -4.48145108e-01  7.79608923e-01 -3.45608615e-01 -1.94656201e-01 
 1.92713433e+10	-3.61052351e-01 -1.84795001e-01 -4.14052042e-01  7.93748204e-01 -4.14052042e-01  7.93748204e-01 -3.61052351e-01 -1.84795001e-01 
 1.94710448e+10	-3.75517105e-01 -1.73804926e-01 -3.79927720e-01  8.06487370e-01 -3.79927720e-01  8.06487370e-01 -3.75517105e-01 -1.73804926e-01 
 1.96707463e+10	-3.88938031e-01 -1.61781239e-01 -3.45810405e-01  8.17889383e-01 -3.45810405e-01  8.17889383e-01 -3.88938031e-01 -1.61781239e-01 
 1.98704478e+10	-4.01258834e-01 -1.48819711e-01 -3.11729256e-01  8.28014450e-01 -3.11729256e-01  8.28014450e-01 -4.01258834e-01 -1.48819711e-01 
 2.00701493e+10	-4.12431081e-01 -1.35016054e-01 -2.77705172e-01  8.36919202e-01 -2.77705172e-01  8.36919202e-01 -4.12431081e-01 -1.35016054e-01 
 2.02698507e+10	-4.22413516e-01 -1.20465505e-01 -2.43751660e-01  8.44655996e-01 -2.43751660e-01  8.44655996e-01 -4.22413516e-01 -1.20465505e-01 
 2.04695522e+10	-4.31171422e-01 -1.05262538e-01 -2.09875704e-01  8.51272351e-01 -2.09875704e-01  8.51272351e-01 -4.31171422e-01 -1.05262538e-01 
 2.06692537e+10	-4.38676013e-01 -8.95006945e-02 -1.76078623e-01  8.56810482e-01 -1.76078623e-01  8.56810482e-01 -4.38676013e-01 -8.95006945e-02 
 2.08689552e+10	-4.44903898e-01 -7.32725191e-02 -1.42356916e-01  8.61306935e-01 -1.42356916e-01  8.61306935e-01 -4.44903898e-01 -7.32725191e-02 
 2.10686567e+10	-4.49836608e-01 -5.66695737e-02 -1.08703085e-01  8.64792294e-01 -1.08703085e-01  8.64792294e-01 -4.49836608e-01 -5.66695737e-02 
 2.12683582e+10	-4.53460198e-01 -3.97825262e-02 -7.51064413e-02  8.67290969e-01 -7.51064413e-02  8.67290969e-01 -4.53460198e-01 -3.97825262e-02 
 2.14680597e+10	-4.55764923e-01 -2.27012922e-02 -4.15538892e-02  8.68821029e-01 -4.15538892e-02  8.68821029e-01 -4.55764923e-01 -2.27012922e-02 
 2.16677612e+10	-4.56745012e-01 -5.51521924e-03 -8.03069569e-03  8.69394102e-01 -8.03069569e-03  8.69394102e-01 -4.56745012e-01 -5.51521924e-03 
 2.18674627e+10	-4.56398504e-01  1.16867031e-02  2.54787536e-02  8.69015310e-01  2.54787536e-02  8.69015310e-01 -4.56398504e-01  1.16867031e-02 
 2.20671642e+10	-4.54727192e-01  2.88156164e-02  5.89902057e-02  8.67683250e-01  5.89902057e-02  8.67683250e-01 -4.54727192e-01  2.88156164e-02 
 2.22668657e+10	-4.51736638e-01  4.57825661e-02  9.25187945e-02  8.65390016e-01  9.25187945e-02  8.65390016e-01 -4.51736638e-01  4.57825661e-02 
 2.24665672e+10	-4.47436279e-01  6.24982836e-02  1.26078292e-01  8.62121263e-01  1.26078292e-01  8.62121263e-01 -4.47436279e-01  6.24982836e-02 
 2.26662687e+10	-4.41839619e-01  7.88729921e-02  1.59680353e-01  8.57856313e-01  1.59680353e-01  8.57856313e-01 -4.41839619e-01  7.88729921e-02 
 2.28659701e+10	-4.34964499e-01  9.48162489e-02  1.93333745e-01  8.52568309e-01  1.93333745e-01  8.52568309e-01 -4.34964499e-01  9.48162489e-02 
 2.30656716e+10	-4.26833450e-01  1.10236837e-01  2.27043568e-01  8.46224431e-01  2.27043568e-01  8.46224431e-01 -4.26833450e-01  1.10236837e-01 
 2.32653731e+10	-4.17474118e-01  1.25042721e-01  2.60810453e-01  8.38786161e-01  2.60810453e-01  8.38786161e-01 -4.17474118e-01  1.25042721e-01 
 2.34650746e+10	-4.06919758e-01  1.39141078e-01  2.94629748e-01  8.30209641e-01  2.94629748e-01  8.30209641e-01 -4.06919758e-01  1.39141078e-01 
 2.36647761e+10	-3.95209788e-01  1.52438431e-01  3.28490687e-01  8.20446100e-01  3.28490687e-01  8.20446100e-01 -3.95209788e-01  1.52438431e-01 
 2.38644776e+10	-3.82390394e-01  1.64840874e-01  3.62375552e-01  8.09442390e-01  3.62375552e-01  8.09442390e-01 -3.82390394e-01  1.64840874e-01 
 2.40641791e+10	-3.68515164e-01  1.76254442e-01  3.96258836e-01  7.97141631e-01  3.96258836e-01  7.97141631e-01 -3.68515164e-01  1.76254442e-01 
 2.42638806e+10	-3.53645755e-01  1.86585602e-01  4.30106421e-01  7.83483980e-01  4.30106421e-01  7.83483980e-01 -3.53645755e-01  1.86585602e-01 
 2.44635821e+10	-3.37852538e-01  1.95741905e-01  4.63874780e-01  7.68407540e-01  4.63874780e-01  7.68407540e-01 -3.37852538e-01  1.95741905e-01 
 2.46632836e+10	-3.21215232e-01  2.03632806e-01  4.97510239e-01  7.51849426e-01  4.97510239e-01  7.51849426e-01 -3.21215232e-01  2.03632806e-01 
 2.48629851e+10	-3.03823473e-01  2.10170646e-01  5.30948308e-01  7.33746978e-01  5.30948308e-01  7.33746978e-01 -3.03823473e-01  2.10170646e-01 
 2.50626866e+10	-2.85777557e-01  2.15277157e-01  5.64117855e-01  7.14047349e-01  5.64117855e-01  7.14047349e-01 -2.85777557e-01  2.15277157e-01 
 2.52623881e+10	-2.67187331e-01  2.18874492e-01  5.96932560e-01  6.92692748e-01  5.96932560e-01  6.92692748e-01 -2.67187331e-01  2.18874492e-01 
 2.54620896e+10	-2.48173522e-01  2.20887202e-01  6.29290022e-01  6.69623483e-01  6.29290022e-01  6.69623483e-01 -2.48173522e-01  2.20887202e-01 
 2.56617910e+10	-2.28868488e-01  2.21250926e-01  6.61077480e-01  6.44790768e-01  6.61077480e-01  6.44790768e-01 -2.28868488e-01  2.21250926e-01 
 2.58614925e+10	-2.09415382e-01  2.19913094e-01  6.92171574e-01  6.18156729e-01  6.92171574e-01  6.18156729e-01 -2.09415382e-01  2.19913094e-01 
 2.60611940e+10	-1.89967389e-01  2.16833385e-01  7.22437756e-01  5.89694182e-01  7.22437756e-01  5.89694182e-01 -1.89967389e-01  2.16833385e-01 
 2.62608955e+10	-1.70686787e-01  2.11985652e-01  7.51731210e-01  5.59388709e-01  7.51731210e-01  5.59388709e-01 -1.70686787e-01  2.11985652e-01 
 2.64605970e+10	-1.51743645e-01  2.05359821e-01  7.79898150e-01  5.27240689e-01  7.79898150e-01  5.27240689e-01 -1.51743645e-01  2.05359821e-01 
 2.66602985e+10	-1.33314126e-01  1.96963700e-01  8.06777513e-01  4.93267236e-01  8.06777513e-01  4.93267236e-01 -1.33314126e-01  1.96963700e-01 
 2.68600000e+10	-1.15578388e-01  1.86824608e-01  8.32203056e-01  4.57503940e-01  8.32203056e-01  4.57503940e-01 -1.15578388e-01  1.86824608e-01 
 2.70597015e+10	-9.87181071e-02  1.74990733e-01  8.56005835e-01  4.20006337e-01  8.56005835e-01  4.20006337e-01 -9.87181071e-02  1.74990733e-01 
 2.72594030e+10	-8.29136468e-02  1.61532133e-01  8.78017042e-01  3.80851017e-01  8.78017042e-01  3.80851017e-01 -8.29136468e-02  1.61532133e-01 
