! Touchstone Ver. 1.0
! Number of ports is 2
# Hz  S RI  R  	50
! SCATTERING PARAMETERS  :
 1.00000000e+08	 2.43973421e-03 -1.18381663e-02  9.96779896e-01 -2.48747758e-02  9.96779896e-01 -2.48747758e-02  2.43973421e-03 -1.18381663e-02 
 2.99701493e+08	-2.01846549e-04 -3.53297588e-02  9.93830838e-01 -7.44145784e-02  9.93830838e-01 -7.44145784e-02 -2.01846549e-04 -3.53297588e-02 
 4.99402985e+08	-4.99448400e-03 -5.84189383e-02  9.87735719e-01 -1.23548496e-01  9.87735719e-01 -1.23548496e-01 -4.99448400e-03 -5.84189383e-02 
 6.99104478e+08	-1.19587796e-02 -8.08613545e-02  9.78648902e-01 -1.72022053e-01  9.78648902e-01 -1.72022053e-01 -1.19587796e-02 -8.08613545e-02 
 8.98805970e+08	-2.10619594e-02 -1.02419063e-01  9.66731408e-01 -2.19600203e-01  9.66731408e-01 -2.19600203e-01 -2.10619594e-02 -1.02419063e-01 
 1.09850746e+09	-3.21847973e-02 -1.22872981e-01  9.52111798e-01 -2.66063337e-01  9.52111798e-01 -2.66063337e-01 -3.21847973e-02 -1.22872981e-01 
 1.29820896e+09	-4.51766904e-02 -1.42025380e-01  9.34934259e-01 -3.11211906e-01  9.34934259e-01 -3.11211906e-01 -4.51766904e-02 -1.42025380e-01 
 1.49791045e+09	-5.98606543e-02 -1.59703425e-01  9.15355430e-01 -3.54868293e-01  9.15355430e-01 -3.54868293e-01 -5.98606543e-02 -1.59703425e-01 
 1.69761194e+09	-7.60501603e-02 -1.75759188e-01  8.93553055e-01 -3.96880801e-01  8.93553055e-01 -3.96880801e-01 -7.60501603e-02 -1.75759188e-01 
 1.89731343e+09	-9.35472578e-02 -1.90071496e-01  8.69715250e-01 -4.37123939e-01  8.69715250e-01 -4.37123939e-01 -9.35472578e-02 -1.90071496e-01 
 2.09701493e+09	-1.12146778e-01 -2.02546268e-01  8.44036094e-01 -4.75498640e-01  8.44036094e-01 -4.75498640e-01 -1.12146778e-01 -2.02546268e-01 
 2.29671642e+09	-1.31640413e-01 -2.13116093e-01  8.16711537e-01 -5.11931747e-01  8.16711537e-01 -5.11931747e-01 -1.31640413e-01 -2.13116093e-01 
 2.49641791e+09	-1.51819284e-01 -2.21739539e-01  7.87934393e-01 -5.46374373e-01  7.87934393e-01 -5.46374373e-01 -1.51819284e-01 -2.21739539e-01 
 2.69611940e+09	-1.72417363e-01 -2.28419615e-01  7.57825833e-01 -5.78772613e-01  7.57825833e-01 -5.78772613e-01 -1.72417363e-01 -2.28419615e-01 
 2.89582090e+09	-1.93299629e-01 -2.33142823e-01  7.26634002e-01 -6.09144718e-01  7.26634002e-01 -6.09144718e-01 -1.93299629e-01 -2.33142823e-01 
 3.09552239e+09	-2.14280273e-01 -2.35932561e-01  6.94532493e-01 -6.37505671e-01  6.94532493e-01 -6.37505671e-01 -2.14280273e-01 -2.35932561e-01 
 3.29522388e+09	-2.35181805e-01 -2.36830382e-01  6.61680317e-01 -6.63885680e-01  6.61680317e-01 -6.63885680e-01 -2.35181805e-01 -2.36830382e-01 
 3.49492537e+09	-2.55838725e-01 -2.35892857e-01  6.28223235e-01 -6.88328481e-01  6.28223235e-01 -6.88328481e-01 -2.55838725e-01 -2.35892857e-01 
 3.69462687e+09	-2.76098325e-01 -2.33189171e-01  5.94292962e-01 -7.10888775e-01  5.94292962e-01 -7.10888775e-01 -2.76098325e-01 -2.33189171e-01 
 3.89432836e+09	-2.95821092e-01 -2.28798820e-01  5.60006783e-01 -7.31629760e-01  5.60006783e-01 -7.31629760e-01 -2.95821092e-01 -2.28798820e-01 
 4.09402985e+09	-3.14880756e-01 -2.22809468e-01  5.25467531e-01 -7.50620817e-01  5.25467531e-01 -7.50620817e-01 -3.14880756e-01 -2.22809468e-01 
 4.29373134e+09	-3.33164053e-01 -2.15315017e-01  4.90763860e-01 -7.67935381e-01  4.90763860e-01 -7.67935381e-01 -3.33164053e-01 -2.15315017e-01 
 4.49343284e+09	-3.50570265e-01 -2.06413885e-01  4.55970751e-01 -7.83649017e-01  4.55970751e-01 -7.83649017e-01 -3.50570265e-01 -2.06413885e-01 
 4.69313433e+09	-3.67010577e-01 -1.96207527e-01  4.21150216e-01 -7.97837724e-01  4.21150216e-01 -7.97837724e-01 -3.67010577e-01 -1.96207527e-01 
 4.89283582e+09	-3.82407334e-01 -1.84799186e-01  3.86352123e-01 -8.10576445e-01  3.86352123e-01 -8.10576445e-01 -3.82407334e-01 -1.84799186e-01 
 5.09253731e+09	-3.96704457e-01 -1.72285617e-01  3.51626106e-01 -8.21949953e-01  3.51626106e-01 -8.21949953e-01 -3.96704457e-01 -1.72285617e-01 
 5.29223881e+09	-4.09843075e-01 -1.58770329e-01  3.16998846e-01 -8.32028254e-01  3.16998846e-01 -8.32028254e-01 -4.09843075e-01 -1.58770329e-01 
 5.49194030e+09	-4.21763992e-01 -1.44362533e-01  2.82479467e-01 -8.40866267e-01  2.82479467e-01 -8.40866267e-01 -4.21763992e-01 -1.44362533e-01 
 5.69164179e+09	-4.32424854e-01 -1.29164865e-01  2.48077996e-01 -8.48523034e-01  2.48077996e-01 -8.48523034e-01 -4.32424854e-01 -1.29164865e-01 
 5.89134328e+09	-4.41791054e-01 -1.13278111e-01  2.13798036e-01 -8.55052771e-01  2.13798036e-01 -8.55052771e-01 -4.41791054e-01 -1.13278111e-01 
 6.09104478e+09	-4.49834221e-01 -9.68015514e-02  1.79636959e-01 -8.60503595e-01  1.79636959e-01 -8.60503595e-01 -4.49834221e-01 -9.68015514e-02 
 6.29074627e+09	-4.56531565e-01 -7.98329402e-02  1.45586854e-01 -8.64917154e-01  1.45586854e-01 -8.64917154e-01 -4.56531565e-01 -7.98329402e-02 
 6.49044776e+09	-4.61865305e-01 -6.24685752e-02  1.11635448e-01 -8.68328348e-01  1.11635448e-01 -8.68328348e-01 -4.61865305e-01 -6.24685752e-02 
 6.69014925e+09	-4.65822198e-01 -4.48034513e-02  7.77669913e-02 -8.70765128e-01  7.77669913e-02 -8.70765128e-01 -4.65822198e-01 -4.48034513e-02 
 6.88985075e+09	-4.68393151e-01 -2.69314749e-02  4.39631162e-02 -8.72248345e-01  4.39631162e-02 -8.72248345e-01 -4.68393151e-01 -2.69314749e-02 
 7.08955224e+09	-4.69572939e-01 -8.94572328e-03  1.02036674e-02 -8.72791660e-01  1.02036674e-02 -8.72791660e-01 -4.69572939e-01 -8.94572328e-03 
 7.28925373e+09	-4.69360019e-01  9.06126493e-03 -2.35324832e-02 -8.72401494e-01 -2.35324832e-02 -8.72401494e-01 -4.69360019e-01  9.06126493e-03 
 7.48895522e+09	-4.67756445e-01  2.69971824e-02 -5.72666351e-02 -8.71077015e-01 -5.72666351e-02 -8.71077015e-01 -4.67756445e-01  2.69971824e-02 
 7.68865672e+09	-4.64767882e-01  4.47696437e-02 -9.10194622e-02 -8.68810168e-01 -9.10194622e-02 -8.68810168e-01 -4.64767882e-01  4.47696437e-02 
 7.88835821e+09	-4.60403723e-01  6.22858868e-02 -1.24810213e-01 -8.65585736e-01 -1.24810213e-01 -8.65585736e-01 -4.60403723e-01  6.22858868e-02 
 8.08805970e+09	-4.54677298e-01  7.94525004e-02 -1.58655902e-01 -8.61381446e-01 -1.58655902e-01 -8.61381446e-01 -4.54677298e-01  7.94525004e-02 
 8.28776119e+09	-4.47606183e-01  9.61751893e-02 -1.92570482e-01 -8.56168119e-01 -1.92570482e-01 -8.56168119e-01 -4.47606183e-01  9.61751893e-02 
 8.48746269e+09	-4.39212606e-01  1.12358596e-01 -2.26563999e-01 -8.49909877e-01 -2.26563999e-01 -8.49909877e-01 -4.39212606e-01  1.12358596e-01 
 8.68716418e+09	-4.29523935e-01  1.27906189e-01 -2.60641723e-01 -8.42564408e-01 -2.60641723e-01 -8.42564408e-01 -4.29523935e-01  1.27906189e-01 
 8.88686567e+09	-4.18573251e-01  1.42720243e-01 -2.94803245e-01 -8.34083314e-01 -2.94803245e-01 -8.34083314e-01 -4.18573251e-01  1.42720243e-01 
 9.08656716e+09	-4.06400002e-01  1.56701918e-01 -3.29041561e-01 -8.24412546e-01 -3.29041561e-01 -8.24412546e-01 -4.06400002e-01  1.56701918e-01 
 9.28626866e+09	-3.93050709e-01  1.69751464e-01 -3.63342128e-01 -8.13492950e-01 -3.63342128e-01 -8.13492950e-01 -3.93050709e-01  1.69751464e-01 
 9.48597015e+09	-3.78579734e-01  1.81768564e-01 -3.97681913e-01 -8.01260931e-01 -3.97681913e-01 -8.01260931e-01 -3.78579734e-01  1.81768564e-01 
 9.68567164e+09	-3.63050070e-01  1.92652839e-01 -4.32028440e-01 -7.87649267e-01 -4.32028440e-01 -7.87649267e-01 -3.63050070e-01  1.92652839e-01 
 9.88537313e+09	-3.46534145e-01  2.02304531e-01 -4.66338869e-01 -7.72588080e-01 -4.66338869e-01 -7.72588080e-01 -3.46534145e-01  2.02304531e-01 
 1.00850746e+10	-3.29115205e-01  2.10637952e-01 -5.00565158e-01 -7.56022846e-01 -5.00565158e-01 -7.56022846e-01 -3.29115205e-01  2.10637952e-01 
 1.02847761e+10	-3.10884834e-01  2.17556359e-01 -5.34643217e-01 -7.37880196e-01 -5.34643217e-01 -7.37880196e-01 -3.10884834e-01  2.17556359e-01 
 1.04844776e+10	-2.91946749e-01  2.22957900e-01 -5.68490640e-01 -7.18076329e-01 -5.68490640e-01 -7.18076329e-01 -2.91946749e-01  2.22957900e-01 
 1.06841791e+10	-2.72417886e-01  2.26754167e-01 -6.02014647e-01 -6.96541515e-01 -6.02014647e-01 -6.96541515e-01 -2.72417886e-01  2.26754167e-01 
 1.08838806e+10	-2.52427754e-01  2.28865461e-01 -6.35109458e-01 -6.73213215e-01 -6.35109458e-01 -6.73213215e-01 -2.52427754e-01  2.28865461e-01 
 1.10835821e+10	-2.32118325e-01  2.29221080e-01 -6.67655536e-01 -6.48035990e-01 -6.67655536e-01 -6.48035990e-01 -2.32118325e-01  2.29221080e-01 
 1.12832836e+10	-2.11643802e-01  2.27761414e-01 -6.99519809e-01 -6.20963765e-01 -6.99519809e-01 -6.20963765e-01 -2.11643802e-01  2.27761414e-01 
 1.14829851e+10	-1.91170027e-01  2.24440154e-01 -7.30556256e-01 -5.91962202e-01 -7.30556256e-01 -5.91962202e-01 -1.91170027e-01  2.24440154e-01 
 1.16826866e+10	-1.70873478e-01  2.19226566e-01 -7.60606900e-01 -5.61011130e-01 -7.60606900e-01 -5.61011130e-01 -1.70873478e-01  2.19226566e-01 
 1.18823881e+10	-1.50939830e-01  2.12107757e-01 -7.89503256e-01 -5.28106947e-01 -7.89503256e-01 -5.28106947e-01 -1.50939830e-01  2.12107757e-01 
 1.20820896e+10	-1.31562025e-01  2.03090839e-01 -8.17068258e-01 -4.93264916e-01 -8.17068258e-01 -4.93264916e-01 -1.31562025e-01  2.03090839e-01 
 1.22817910e+10	-1.12937875e-01  1.92204885e-01 -8.43118673e-01 -4.56521244e-01 -8.43118673e-01 -4.56521244e-01 -1.12937875e-01  1.92204885e-01 
 1.24814925e+10	-9.52671748e-02  1.79502578e-01 -8.67467990e-01 -4.17934841e-01 -8.67467990e-01 -4.17934841e-01 -9.52671748e-02  1.79502578e-01 
 1.26811940e+10	-7.87483949e-02  1.65061427e-01 -8.89929740e-01 -3.77588643e-01 -8.89929740e-01 -3.77588643e-01 -7.87483949e-02  1.65061427e-01 
 1.28808955e+10	-6.35750103e-02  1.48984438e-01 -9.10321181e-01 -3.35590383e-01 -9.10321181e-01 -3.35590383e-01 -6.35750103e-02  1.48984438e-01 
 1.30805970e+10	-4.99315671e-02  1.31400152e-01 -9.28467237e-01 -2.92072720e-01 -9.28467237e-01 -2.92072720e-01 -4.99315671e-02  1.31400152e-01 
 1.32802985e+10	-3.79896180e-02  1.12461957e-01 -9.44204580e-01 -2.47192641e-01 -9.44204580e-01 -2.47192641e-01 -3.79896180e-02  1.12461957e-01 
 1.34800000e+10	-2.79036779e-02  9.23466387e-02 -9.57385679e-01 -2.01130093e-01 -9.57385679e-01 -2.01130093e-01 -2.79036779e-02  9.23466387e-02 
 1.36797015e+10	-1.98073679e-02  7.12521431e-02 -9.67882667e-01 -1.54085828e-01 -9.67882667e-01 -1.54085828e-01 -1.98073679e-02  7.12521431e-02 
 1.38794030e+10	-1.38099213e-02  4.93945945e-02 -9.75590844e-01 -1.06278495e-01 -9.75590844e-01 -1.06278495e-01 -1.38099213e-02  4.93945945e-02 
 1.40791045e+10	-9.99322039e-03  2.70046325e-02 -9.80431649e-01 -5.79410500e-02 -9.80431649e-01 -5.79410500e-02 -9.99322039e-03  2.70046325e-02 
 1.42788060e+10	-8.40951360e-03  4.32318743e-03 -9.82354945e-01 -9.31660861e-03 -9.82354945e-01 -9.31660861e-03 -8.40951360e-03  4.32318743e-03 
 1.44785075e+10	-9.07993267e-03 -1.84031524e-02 -9.81340506e-01  3.93461212e-02 -9.81340506e-01  3.93461212e-02 -9.07993267e-03 -1.84031524e-02 
 1.46782090e+10	-1.19938894e-02 -4.09270028e-02 -9.77398627e-01  8.77976284e-02 -9.77398627e-01  8.77976284e-02 -1.19938894e-02 -4.09270028e-02 
 1.48779104e+10	-1.71093849e-02 -6.30050779e-02 -9.70569812e-01  1.35792424e-01 -9.70569812e-01  1.35792424e-01 -1.71093849e-02 -6.30050779e-02 
 1.50776119e+10	-2.43542140e-02 -8.44029176e-02 -9.60923571e-01  1.83093697e-01 -9.60923571e-01  1.83093697e-01 -2.43542140e-02 -8.44029176e-02 
 1.52773134e+10	-3.36280008e-02 -1.04899263e-01 -9.48556385e-01  2.29477620e-01 -9.48556385e-01  2.29477620e-01 -3.36280008e-02 -1.04899263e-01 
 1.54770149e+10	-4.48049559e-02 -1.24289914e-01 -9.33588939e-01  2.74737132e-01 -9.33588939e-01  2.74737132e-01 -4.48049559e-02 -1.24289914e-01 
 1.56767164e+10	-5.77372157e-02 -1.42390946e-01 -9.16162787e-01  3.18685079e-01 -9.16162787e-01  3.18685079e-01 -5.77372157e-02 -1.42390946e-01 
 1.58764179e+10	-7.22585994e-02 -1.59041191e-01 -8.96436584e-01  3.61156618e-01 -8.96436584e-01  3.61156618e-01 -7.22585994e-02 -1.59041191e-01 
 1.60761194e+10	-8.81886107e-02 -1.74103942e-01 -8.74582082e-01  4.02010841e-01 -8.74582082e-01  4.02010841e-01 -8.81886107e-02 -1.74103942e-01 
 1.62758209e+10	-1.05336513e-01 -1.87467894e-01 -8.50780045e-01  4.41131624e-01 -8.50780045e-01  4.41131624e-01 -1.05336513e-01 -1.87467894e-01 
 1.64755224e+10	-1.23505319e-01 -1.99047326e-01 -8.25216257e-01  4.78427726e-01 -8.25216257e-01  4.78427726e-01 -1.23505319e-01 -1.99047326e-01 
 1.66752239e+10	-1.42495560e-01 -2.08781635e-01 -7.98077741e-01  5.13832221e-01 -7.98077741e-01  5.13832221e-01 -1.42495560e-01 -2.08781635e-01 
 1.68749254e+10	-1.62108728e-01 -2.16634284e-01 -7.69549321e-01  5.47301344e-01 -7.69549321e-01  5.47301344e-01 -1.62108728e-01 -2.16634284e-01 
 1.70746269e+10	-1.82150293e-01 -2.22591286e-01 -7.39810588e-01  5.78812869e-01 -7.39810588e-01  5.78812869e-01 -1.82150293e-01 -2.22591286e-01 
 1.72743284e+10	-2.02432279e-01 -2.26659340e-01 -7.09033331e-01  6.08364121e-01 -7.09033331e-01  6.08364121e-01 -2.02432279e-01 -2.26659340e-01 
 1.74740299e+10	-2.22775340e-01 -2.28863720e-01 -6.77379458e-01  6.35969746e-01 -6.77379458e-01  6.35969746e-01 -2.22775340e-01 -2.28863720e-01 
 1.76737313e+10	-2.43010366e-01 -2.29246038e-01 -6.44999395e-01  6.61659334e-01 -6.44999395e-01  6.61659334e-01 -2.43010366e-01 -2.29246038e-01 
 1.78734328e+10	-2.62979628e-01 -2.27861964e-01 -6.12030951e-01  6.85474998e-01 -6.12030951e-01  6.85474998e-01 -2.62979628e-01 -2.27861964e-01 
 1.80731343e+10	-2.82537500e-01 -2.24778990e-01 -5.78598607e-01  7.07468977e-01 -5.78598607e-01  7.07468977e-01 -2.82537500e-01 -2.24778990e-01 
 1.82728358e+10	-3.01550816e-01 -2.20074292e-01 -5.44813182e-01  7.27701334e-01 -5.44813182e-01  7.27701334e-01 -3.01550816e-01 -2.20074292e-01 
 1.84725373e+10	-3.19898902e-01 -2.13832752e-01 -5.10771833e-01  7.46237794e-01 -5.10771833e-01  7.46237794e-01 -3.19898902e-01 -2.13832752e-01 
 1.86722388e+10	-3.37473351e-01 -2.06145159e-01 -4.76558322e-01  7.63147755e-01 -4.76558322e-01  7.63147755e-01 -3.37473351e-01 -2.06145159e-01 
 1.88719403e+10	-3.54177586e-01 -1.97106626e-01 -4.42243501e-01  7.78502493e-01 -4.42243501e-01  7.78502493e-01 -3.54177586e-01 -1.97106626e-01 
 1.90716418e+10	-3.69926274e-01 -1.86815211e-01 -4.07885974e-01  7.92373566e-01 -4.07885974e-01  7.92373566e-01 -3.69926274e-01 -1.86815211e-01 
 1.92713433e+10	-3.84644623e-01 -1.75370767e-01 -3.73532881e-01  8.04831419e-01 -3.73532881e-01  8.04831419e-01 -3.84644623e-01 -1.75370767e-01 
 1.94710448e+10	-3.98267620e-01 -1.62873992e-01 -3.39220768e-01  8.15944186e-01 -3.39220768e-01  8.15944186e-01 -3.98267620e-01 -1.62873992e-01 
 1.96707463e+10	-4.10739236e-01 -1.49425681e-01 -3.04976514e-01  8.25776674e-01 -3.04976514e-01  8.25776674e-01 -4.10739236e-01 -1.49425681e-01 
 1.98704478e+10	-4.22011632e-01 -1.35126160e-01 -2.70818285e-01  8.34389508e-01 -2.70818285e-01  8.34389508e-01 -4.22011632e-01 -1.35126160e-01 
 2.00701493e+10	-4.32044383e-01 -1.20074885e-01 -2.36756492e-01  8.41838433e-01 -2.36756492e-01  8.41838433e-01 -4.32044383e-01 -1.20074885e-01 
 2.02698507e+10	-4.40803759e-01 -1.04370179e-01 -2.02794752e-01  8.48173742e-01 -2.02794752e-01  8.48173742e-01 -4.40803759e-01 -1.04370179e-01 
 2.04695522e+10	-4.48262053e-01 -8.81091132e-02 -1.68930817e-01  8.53439823e-01 -1.68930817e-01  8.53439823e-01 -4.48262053e-01 -8.81091132e-02 
 2.06692537e+10	-4.54396986e-01 -7.13874744e-02 -1.35157489e-01  8.57674801e-01 -1.35157489e-01  8.57674801e-01 -4.54396986e-01 -7.13874744e-02 
 2.08689552e+10	-4.59191194e-01 -5.42998402e-02 -1.01463507e-01  8.60910262e-01 -1.01463507e-01  8.60910262e-01 -4.59191194e-01 -5.42998402e-02 
 2.10686567e+10	-4.62631797e-01 -3.69397183e-02 -6.78344000e-02  8.63171054e-01 -6.78344000e-02  8.63171054e-01 -4.62631797e-01 -3.69397183e-02 
 2.12683582e+10	-4.64710065e-01 -1.93997445e-02 -3.42533285e-02  8.64475134e-01 -3.42533285e-02  8.64475134e-01 -4.64710065e-01 -1.93997445e-02 
 2.14680597e+10	-4.65421169e-01 -1.77192308e-03 -7.01893936e-04  8.64833484e-01 -7.01893936e-04  8.64833484e-01 -4.65421169e-01 -1.77192308e-03 
 2.16677612e+10	-4.64764035e-01  1.58521068e-02  3.28390587e-02  8.64250054e-01  3.28390587e-02  8.64250054e-01 -4.64764035e-01  1.58521068e-02 
 2.18674627e+10	-4.62741294e-01  3.33807913e-02  6.63886493e-02  8.62721758e-01  6.63886493e-02  8.62721758e-01 -4.62741294e-01  3.33807913e-02 
 2.20671642e+10	-4.59359321e-01  5.07223832e-02  9.99651724e-02  8.60238501e-01  9.99651724e-02  8.60238501e-01 -4.59359321e-01  5.07223832e-02 
 2.22668657e+10	-4.54628380e-01  6.77846773e-02  1.33585301e-01  8.56783255e-01  1.33585301e-01  8.56783255e-01 -4.54628380e-01  6.77846773e-02 
 2.24665672e+10	-4.48562855e-01  8.44747751e-02  1.67263281e-01  8.52332174e-01  1.67263281e-01  8.52332174e-01 -4.48562855e-01  8.44747751e-02 
 2.26662687e+10	-4.41181577e-01  1.00698891e-01  2.01010105e-01  8.46854757e-01  2.01010105e-01  8.46854757e-01 -4.41181577e-01  1.00698891e-01 
 2.28659701e+10	-4.32508239e-01  1.16362218e-01  2.34832674e-01  8.40314077e-01  2.34832674e-01  8.40314077e-01 -4.32508239e-01  1.16362218e-01 
 2.30656716e+10	-4.22571895e-01  1.31368864e-01  2.68732924e-01  8.32667073e-01  2.68732924e-01  8.32667073e-01 -4.22571895e-01  1.31368864e-01 
 2.32653731e+10	-4.11407535e-01  1.45621881e-01  3.02706941e-01  8.23864925e-01  3.02706941e-01  8.23864925e-01 -4.11407535e-01  1.45621881e-01 
 2.34650746e+10	-3.99056729e-01  1.59023402e-01  3.36744051e-01  8.13853526e-01  3.36744051e-01  8.13853526e-01 -3.99056729e-01  1.59023402e-01 
 2.36647761e+10	-3.85568325e-01  1.71474897e-01  3.70825897e-01  8.02574065e-01  3.70825897e-01  8.02574065e-01 -3.85568325e-01  1.71474897e-01 
 2.38644776e+10	-3.70999189e-01  1.82877580e-01  4.04925512e-01  7.89963734e-01  4.04925512e-01  7.89963734e-01 -3.70999189e-01  1.82877580e-01 
 2.40641791e+10	-3.55414966e-01  1.93132971e-01  4.39006408e-01  7.75956586e-01  4.39006408e-01  7.75956586e-01 -3.55414966e-01  1.93132971e-01 
 2.42638806e+10	-3.38890832e-01  2.02143637e-01  4.73021689e-01  7.60484552e-01  4.73021689e-01  7.60484552e-01 -3.38890832e-01  2.02143637e-01 
 2.44635821e+10	-3.21512219e-01  2.09814122e-01  5.06913234e-01  7.43478625e-01  5.06913234e-01  7.43478625e-01 -3.21512219e-01  2.09814122e-01 
 2.46632836e+10	-3.03375464e-01  2.16052084e-01  5.40610954e-01  7.24870243e-01  5.40610954e-01  7.24870243e-01 -3.03375464e-01  2.16052084e-01 
 2.48629851e+10	-2.84588356e-01  2.20769628e-01  5.74032191e-01  7.04592849e-01  5.74032191e-01  7.04592849e-01 -2.84588356e-01  2.20769628e-01 
 2.50626866e+10	-2.65270269e-01  2.23890381e-01  6.07086625e-01  6.82591793e-01  6.07086625e-01  6.82591793e-01 -2.65270269e-01  2.23890381e-01 
 2.52623881e+10	-2.45551825e-01  2.25340434e-01  6.39666763e-01  6.58809973e-01  6.39666763e-01  6.58809973e-01 -2.45551825e-01  2.25340434e-01 
 2.54620896e+10	-2.25575995e-01  2.25050855e-01  6.71647314e-01  6.33191356e-01  6.71647314e-01  6.33191356e-01 -2.25575995e-01  2.25050855e-01 
 2.56617910e+10	-2.05497873e-01  2.22967061e-01  7.02892063e-01  6.05694152e-01  7.02892063e-01  6.05694152e-01 -2.05497873e-01  2.22967061e-01 
 2.58614925e+10	-1.85483454e-01  2.19049797e-01  7.33253998e-01  5.76291122e-01  7.33253998e-01  5.76291122e-01 -1.85483454e-01  2.19049797e-01 
 2.60611940e+10	-1.65708461e-01  2.13275819e-01  7.62575113e-01  5.44969664e-01  7.62575113e-01  5.44969664e-01 -1.65708461e-01  2.13275819e-01 
 2.62608955e+10	-1.46356761e-01  2.05640027e-01  7.90687986e-01  5.11734076e-01  7.90687986e-01  5.11734076e-01 -1.46356761e-01  2.05640027e-01 
 2.64605970e+10	-1.27618331e-01  1.96157471e-01  8.17417816e-01  4.76607692e-01  8.17417816e-01  4.76607692e-01 -1.27618331e-01  1.96157471e-01 
 2.66602985e+10	-1.09686762e-01  1.84865110e-01  8.42584928e-01  4.39634757e-01  8.42584928e-01  4.39634757e-01 -1.09686762e-01  1.84865110e-01 
 2.68600000e+10	-9.27563283e-02  1.71823234e-01  8.66007703e-01  4.00881962e-01  8.66007703e-01  4.00881962e-01 -9.27563283e-02  1.71823234e-01 
 2.70597015e+10	-7.70186707e-02  1.57116433e-01  8.87505908e-01  3.60439517e-01  8.87505908e-01  3.60439517e-01 -7.70186707e-02  1.57116433e-01 
 2.72594030e+10	-6.26591686e-02  1.40854014e-01  9.06904333e-01  3.18421663e-01  9.06904333e-01  3.18421663e-01 -6.26591686e-02  1.40854014e-01 
