! Touchstone Ver. 1.0
! Number of ports is 1
# Hz  S RI  R  	50
! SCATTERING PARAMETERS  :
 1.00000000e+08	-9.89191842e-01  2.59615619e-02 
 2.99701493e+08	-9.87546924e-01  7.78778056e-02 
 4.99402985e+08	-9.82313041e-01  1.29751076e-01 
 6.99104478e+08	-9.73971638e-01  1.81508517e-01 
 8.98805970e+08	-9.62798633e-01  2.33135048e-01 
 1.09850746e+09	-9.48743003e-01  2.84586218e-01 
 1.29820896e+09	-9.31723048e-01  3.35805579e-01 
 1.49791045e+09	-9.11629738e-01  3.86719077e-01 
 1.69761194e+09	-8.88349280e-01  4.37239308e-01 
 1.89731343e+09	-8.61752296e-01  4.87259332e-01 
 2.09701493e+09	-8.31694288e-01  5.36648669e-01 
 2.29671642e+09	-7.98016697e-01  5.85248818e-01 
 2.49641791e+09	-7.60544673e-01  6.32864975e-01 
 2.69611940e+09	-7.18899508e-01  6.79078012e-01 
 2.89582090e+09	-6.73108741e-01  7.23766200e-01 
 3.09552239e+09	-6.22995712e-01  7.66608154e-01 
 3.29522388e+09	-5.68381019e-01  8.07217643e-01 
 3.49492537e+09	-5.09099388e-01  8.45142114e-01 
 3.69462687e+09	-4.45011026e-01  8.79855330e-01 
 3.89432836e+09	-3.76016118e-01  9.10750639e-01 
 4.09402985e+09	-3.02072970e-01  9.37135671e-01 
 4.29373134e+09	-2.23220227e-01  9.58229550e-01 
 4.49343284e+09	-1.39603381e-01  9.73164074e-01 
 4.69313433e+09	-5.15054389e-02  9.80990696e-01 
 4.89283582e+09	 4.06189774e-02  9.80695524e-01 
 5.09253731e+09	 1.36116375e-01  9.71285148e-01 
 5.29223881e+09	 2.34099288e-01  9.51699279e-01 
 5.49194030e+09	 3.33390119e-01  9.20877223e-01 
 5.69164179e+09	 4.32518547e-01  8.77925544e-01 
 5.89134328e+09	 5.29717851e-01  8.22157870e-01 
 6.09104478e+09	 6.22946501e-01  7.53184664e-01 
 6.29074627e+09	 7.09941371e-01  6.71010028e-01 
 6.49044776e+09	 7.88306663e-01  5.76119921e-01 
 6.69014925e+09	 8.55638161e-01  4.69547331e-01 
 6.88985075e+09	 9.09676010e-01  3.52899164e-01 
 7.08955224e+09	 9.48471892e-01  2.28331948e-01 
 7.28925373e+09	 9.70550350e-01  9.84697225e-02 
 7.48895522e+09	 9.75041068e-01 -3.37332242e-02 
 7.68865672e+09	 9.61760911e-01 -1.65171568e-01 
 7.88835821e+09	 9.31231699e-01 -2.92788145e-01 
 8.08805970e+09	 8.84630623e-01 -4.13766752e-01 
 8.28776119e+09	 8.23681910e-01 -5.25693594e-01 
 8.48746269e+09	 7.50507811e-01 -6.26669242e-01 
 8.68716418e+09	 6.67461668e-01 -7.15362896e-01 
 8.88686567e+09	 5.76965381e-01 -7.91011034e-01 
 9.08656716e+09	 4.81368838e-01 -8.53370483e-01 
 9.28626866e+09	 3.82841967e-01 -9.02640370e-01 
 9.48597015e+09	 2.83302981e-01 -9.39368134e-01 
 9.68567164e+09	 1.84380738e-01 -9.64352787e-01 
 9.88537313e+09	 8.74055359e-02 -9.78555117e-01 
 1.00850746e+10	-6.57914311e-03 -9.83046775e-01 
 1.02847761e+10	-9.67965738e-02 -9.78890909e-01 
 1.04844776e+10	-1.82692338e-01 -9.67111645e-01 
 1.06841791e+10	-2.63900452e-01 -9.48697009e-01 
 1.08838806e+10	-3.40210291e-01 -9.24564117e-01 
 1.10835821e+10	-4.11534075e-01 -8.95544740e-01 
 1.12832836e+10	-4.77877934e-01 -8.62381384e-01 
 1.14829851e+10	-5.39317297e-01 -8.25728269e-01 
 1.16826866e+10	-5.95976539e-01 -7.86155574e-01 
 1.18823881e+10	-6.48012538e-01 -7.44155626e-01 
 1.20820896e+10	-6.95601692e-01 -7.00150121e-01 
 1.22817910e+10	-7.38929844e-01 -6.54497687e-01 
 1.24814925e+10	-7.78184628e-01 -6.07501357e-01 
 1.26811940e+10	-8.13549759e-01 -5.59415679e-01 
 1.28808955e+10	-8.45200861e-01 -5.10453293e-01 
 1.30805970e+10	-8.73302504e-01 -4.60790916e-01 
 1.32802985e+10	-8.98006148e-01 -4.10574711e-01 
 1.34800000e+10	-9.19448773e-01 -3.59925073e-01 
 1.36797015e+10	-9.37752021e-01 -3.08940861e-01 
 1.38794030e+10	-9.53021687e-01 -2.57703153e-01 
 1.40791045e+10	-9.65347466e-01 -2.06278568e-01 
 1.42788060e+10	-9.74802855e-01 -1.54722229e-01 
 1.44785075e+10	-9.81445162e-01 -1.03080441e-01 
 1.46782090e+10	-9.85315551e-01 -5.13931193e-02 
 1.48779104e+10	-9.86439122e-01  3.03937886e-04 
 1.50776119e+10	-9.84824965e-01  5.19769016e-02 
 1.52773134e+10	-9.80466215e-01  1.03591818e-01 
 1.54770149e+10	-9.73340067e-01  1.55112518e-01 
 1.56767164e+10	-9.63407793e-01  2.06498473e-01 
 1.58764179e+10	-9.50614736e-01  2.57702540e-01 
 1.60761194e+10	-9.34890345e-01  3.08668550e-01 
 1.62758209e+10	-9.16148247e-01  3.59328659e-01 
 1.64755224e+10	-8.94286437e-01  4.09600424e-01 
 1.66752239e+10	-8.69187630e-01  4.59383533e-01 
 1.68749254e+10	-8.40719870e-01  5.08556128e-01 
 1.70746269e+10	-8.08737505e-01  5.56970662e-01 
 1.72743284e+10	-7.73082672e-01  6.04449242e-01 
 1.74740299e+10	-7.33587471e-01  6.50778423e-01 
 1.76737313e+10	-6.90077047e-01  6.95703431e-01 
 1.78734328e+10	-6.42373864e-01  7.38921851e-01 
 1.80731343e+10	-5.90303497e-01  7.80076848e-01 
 1.82728358e+10	-5.33702316e-01  8.18750100e-01 
 1.84725373e+10	-4.72427532e-01  8.54454726e-01 
 1.86722388e+10	-4.06370043e-01  8.86628645e-01 
 1.88719403e+10	-3.35470590e-01  9.14629042e-01 
 1.90716418e+10	-2.59739621e-01  9.37728858e-01 
 1.92713433e+10	-1.79281162e-01  9.55116546e-01 
 1.94710448e+10	-9.43206628e-02  9.65900713e-01 
 1.96707463e+10	-5.23637419e-03  9.69121562e-01 
 1.98704478e+10	 8.74069493e-02  9.63771375e-01 
 2.00701493e+10	 1.82824126e-01  9.48826317e-01 
 2.02698507e+10	 2.79978745e-01  9.23291567e-01 
 2.04695522e+10	 3.77560151e-01  8.86260990e-01 
 2.06692537e+10	 4.73974143e-01  8.36991012e-01 
 2.08689552e+10	 5.67354127e-01  7.74986010e-01 
 2.10686567e+10	 6.55599322e-01  7.00089411e-01 
 2.12683582e+10	 7.36445034e-01  6.12571259e-01 
 2.14680597e+10	 8.07566522e-01  5.13199873e-01 
 2.16677612e+10	 8.66712709e-01  4.03283601e-01 
 2.18674627e+10	 9.11859496e-01  2.84669546e-01 
 2.20671642e+10	 9.41366254e-01  1.59690362e-01 
 2.22668657e+10	 9.54114894e-01  3.10576074e-02 
 2.24665672e+10	 9.49610701e-01 -9.82905165e-02 
 2.26662687e+10	 9.28028516e-01 -2.25370241e-01 
 2.28659701e+10	 8.90196449e-01 -3.47339236e-01 
 2.30656716e+10	 8.37519905e-01 -4.61665381e-01 
 2.32653731e+10	 7.71858602e-01 -5.66257063e-01 
 2.34650746e+10	 6.95375844e-01 -6.59542638e-01 
 2.36647761e+10	 6.10381296e-01 -7.40496179e-01 
 2.38644776e+10	 5.19186070e-01 -8.08615159e-01 
 2.40641791e+10	 4.23983488e-01 -8.63861562e-01 
 2.42638806e+10	 3.26762345e-01 -9.06580353e-01 
 2.44635821e+10	 2.29253531e-01 -9.37408700e-01 
 2.46632836e+10	 1.32906439e-01 -9.57186821e-01 
 2.48629851e+10	 3.88891610e-02 -9.66877926e-01 
 2.50626866e+10	-5.18954958e-02 -9.67517408e-01 
 2.52623881e+10	-1.38783308e-01 -9.60127320e-01 
 2.54620896e+10	-2.21311223e-01 -9.45682689e-01 
 2.56617910e+10	-2.99183500e-01 -9.25107991e-01 
 2.58614925e+10	-3.72240970e-01 -8.99256937e-01 
 2.60611940e+10	-4.40431417e-01 -8.68900160e-01 
 2.62608955e+10	-5.03783674e-01 -8.34723260e-01 
 2.64605970e+10	-5.62385768e-01 -7.97328889e-01 
 2.66602985e+10	-6.16366947e-01 -7.57241438e-01 
 2.68600000e+10	-6.65883230e-01 -7.14913249e-01 
 2.70597015e+10	-7.11106025e-01 -6.70731570e-01 
 2.72594030e+10	-7.52213328e-01 -6.25025701e-01 
 2.74591045e+10	-7.89383039e-01 -5.78073968e-01 
 2.76588060e+10	-8.22787991e-01 -5.30110308e-01 
 2.78585075e+10	-8.52592321e-01 -4.81330344e-01 
 2.80582090e+10	-8.78948889e-01 -4.31896898e-01 
 2.82579104e+10	-9.01997497e-01 -3.81944938e-01 
 2.84576119e+10	-9.21863691e-01 -3.31585992e-01 
 2.86573134e+10	-9.38658018e-01 -2.80912065e-01 
 2.88570149e+10	-9.52475573e-01 -2.29999121e-01 
 2.90567164e+10	-9.63395774e-01 -1.78910193e-01 
 2.92564179e+10	-9.71482261e-01 -1.27698167e-01 
 2.94561194e+10	-9.76782892e-01 -7.64083232e-02 
 2.96558209e+10	-9.79329762e-01 -2.50806719e-02 
 2.98555224e+10	-9.79139251e-01  2.62478434e-02 
 3.00552239e+10	-9.76212059e-01  7.75412285e-02 
 3.02549254e+10	-9.70533227e-01  1.28762348e-01 
 3.04546269e+10	-9.62072153e-01  1.79870812e-01 
 3.06543284e+10	-9.50782597e-01  2.30820775e-01 
 3.08540299e+10	-9.36602704e-01  2.81558613e-01 
 3.10537313e+10	-9.19455076e-01  3.32020394e-01 
 3.12534328e+10	-8.99246925e-01  3.82129114e-01 
 3.14531343e+10	-8.75870369e-01  4.31791615e-01 
 3.16528358e+10	-8.49202949e-01  4.80895139e-01 
 3.18525373e+10	-8.19108462e-01  5.29303465e-01 
 3.20522388e+10	-7.85438230e-01  5.76852564e-01 
 3.22519403e+10	-7.48032977e-01  6.23345740e-01 
 3.24516418e+10	-7.06725498e-01  6.68548236e-01 
 3.26513433e+10	-6.61344375e-01  7.12181315e-01 
 3.28510448e+10	-6.11719033e-01  7.53915868e-01 
 3.30507463e+10	-5.57686481e-01  7.93365682e-01 
 3.32504478e+10	-4.99100141e-01  8.30080595e-01 
 3.34501493e+10	-4.35841215e-01  8.63539909e-01 
 3.36498507e+10	-3.67833028e-01  8.93146593e-01 
 3.38495522e+10	-2.95058795e-01  9.18223092e-01 
 3.40492537e+10	-2.17583115e-01  9.38009765e-01 
 3.42489552e+10	-1.35577328e-01  9.51667385e-01 
 3.44486567e+10	-4.93484378e-02  9.58285391e-01 
 3.46483582e+10	 4.06291891e-02  9.56897924e-01 
 3.48480597e+10	 1.33681021e-01  9.46509814e-01 
 3.50477612e+10	 2.28901111e-01  9.26134567e-01 
 3.52474627e+10	 3.25126323e-01  8.94845885e-01 
 3.54471642e+10	 4.20921161e-01  8.51843068e-01 
 3.56468657e+10	 5.14579354e-01  7.96528800e-01 
 3.58465672e+10	 6.04148639e-01  7.28595121e-01 
 3.60462687e+10	 6.87484308e-01  6.48110266e-01 
 3.62459701e+10	 7.62334655e-01  5.55595851e-01 
 3.64456716e+10	 8.26457183e-01  4.52081616e-01 
 3.66453731e+10	 8.77758734e-01  3.39124590e-01 
 3.68450746e+10	 9.14446572e-01  2.18781985e-01 
 3.70447761e+10	 9.35172416e-01  9.35328083e-02 
 3.72444776e+10	 9.39149293e-01 -3.38487390e-02 
 3.74441791e+10	 9.26223082e-01 -1.60456087e-01 
 3.76438806e+10	 8.96886973e-01 -2.83430025e-01 
 3.78435821e+10	 8.52236357e-01 -4.00132417e-01 
 3.80432836e+10	 7.93871697e-01 -5.08292264e-01 
 3.82429851e+10	 7.23764923e-01 -6.06108236e-01 
 3.84426866e+10	 6.44109095e-01 -6.92300215e-01 
 3.86423881e+10	 5.57170865e-01 -7.66111217e-01 
 3.88420896e+10	 4.65161389e-01 -8.27268023e-01 
 3.90417910e+10	 3.70135561e-01 -8.75912889e-01 
 3.92414925e+10	 2.73923298e-01 -9.12519656e-01 
 3.94411940e+10	 1.78091581e-01 -9.37806034e-01 
 3.96408955e+10	 8.39326259e-02 -9.52651028e-01 
 3.98405970e+10	-7.52805440e-03 -9.58023135e-01 
 4.00402985e+10	-9.55101100e-02 -9.54922051e-01 
 4.02400000e+10	-1.79449027e-01 -9.44334298e-01 
 4.04397015e+10	-2.58963542e-01 -9.27201735e-01 
 4.06394030e+10	-3.33823049e-01 -9.04401054e-01 
 4.08391045e+10	-4.03917126e-01 -8.76732107e-01 
 4.10388060e+10	-4.69228342e-01 -8.44912946e-01 
 4.12385075e+10	-5.29808870e-01 -8.09579687e-01 
 4.14382090e+10	-5.85760946e-01 -7.71289649e-01 
 4.16379104e+10	-6.37220921e-01 -7.30526548e-01 
 4.18376119e+10	-6.84346522e-01 -6.87706835e-01 
 4.20373134e+10	-7.27306874e-01 -6.43186510e-01 
 4.22370149e+10	-7.66274819e-01 -5.97267983e-01 
 4.24367164e+10	-8.01421114e-01 -5.50206675e-01 
 4.26364179e+10	-8.32910133e-01 -5.02217206e-01 
 4.28361194e+10	-8.60896746e-01 -4.53479061e-01 
 4.30358209e+10	-8.85524109e-01 -4.04141723e-01 
 4.32355224e+10	-9.06922147e-01 -3.54329277e-01 
 4.34352239e+10	-9.25206551e-01 -3.04144510e-01 
 4.36349254e+10	-9.40478145e-01 -2.53672565e-01 
 4.38346269e+10	-9.52822519e-01 -2.02984196e-01 
 4.40343284e+10	-9.62309840e-01 -1.52138690e-01 
 4.42340299e+10	-9.68994776e-01 -1.01186509e-01 
 4.44337313e+10	-9.72916483e-01 -5.01717115e-02 
 4.46334328e+10	-9.74098629e-01  8.65789734e-04 
 4.48331343e+10	-9.72549422e-01  5.18880736e-02 
 4.50328358e+10	-9.68261633e-01  1.02857115e-01 
 4.52325373e+10	-9.61212622e-01  1.53732689e-01 
 4.54322388e+10	-9.51364341e-01  2.04470219e-01 
 4.56319403e+10	-9.38663369e-01  2.55018528e-01 
 4.58316418e+10	-9.23040969e-01  3.05317417e-01 
 4.60313433e+10	-9.04413217e-01  3.55295038e-01 
 4.62310448e+10	-8.82681253e-01  4.04864989e-01 
 4.64307463e+10	-8.57731715e-01  4.53923084e-01 
 4.66304478e+10	-8.29437442e-01  5.02343729e-01 
 4.68301493e+10	-7.97658560e-01  5.49975873e-01 
 4.70298507e+10	-7.62244087e-01  5.96638468e-01 
 4.72295522e+10	-7.23034233e-01  6.42115426e-01 
 4.74292537e+10	-6.79863621e-01  6.86150062e-01 
 4.76289552e+10	-6.32565681e-01  7.28439068e-01 
 4.78286567e+10	-5.80978541e-01  7.68626098e-01 
 4.80283582e+10	-5.24952778e-01  8.06295163e-01 
 4.82280597e+10	-4.64361439e-01  8.40964114e-01 
 4.84277612e+10	-3.99112757e-01  8.72078680e-01 
 4.86274627e+10	-3.29166007e-01  8.99007710e-01 
 4.88271642e+10	-2.54550841e-01  9.21040527e-01 
 4.90268657e+10	-1.75390308e-01  9.37387607e-01 
 4.92265672e+10	-9.19274819e-02  9.47186079e-01 
 4.94262687e+10	-4.55513243e-03  9.49511899e-01 
 4.96259701e+10	 8.61527576e-02  9.43400707e-01 
 4.98256716e+10	 1.79409765e-01  9.27879426e-01 
 5.00253731e+10	 2.74189295e-01  9.02010349e-01 
 5.02250746e+10	 3.69204783e-01  8.64948600e-01 
 5.04247761e+10	 4.62903317e-01  8.16012424e-01 
 5.06244776e+10	 5.53478854e-01  7.54763501e-01 
 5.08241791e+10	 6.38910890e-01  6.81091672e-01 
 5.10238806e+10	 7.17032881e-01  5.95295346e-01 
 5.12235821e+10	 7.85631405e-01  4.98146173e-01 
 5.14232836e+10	 8.42572204e-01  3.90925237e-01 
 5.16229851e+10	 8.85943408e-01  2.75419033e-01 
 5.18226866e+10	 9.14200730e-01  1.53867451e-01 
 5.20223881e+10	 9.26295826e-01  2.88627501e-02 
 5.22220896e+10	 9.21768952e-01 -9.67930962e-02 
 5.24217910e+10	 9.00791112e-01 -2.20257217e-01 
 5.26214925e+10	 8.64148660e-01 -3.38819969e-01 
 5.28211940e+10	 8.13172890e-01 -4.50062332e-01 
 5.30208955e+10	 7.49626092e-01 -5.51978071e-01 
 5.32205970e+10	 6.75561548e-01 -6.43049215e-01 
 5.34202985e+10	 5.93176894e-01 -7.22271932e-01 
 5.36200000e+10	 5.04678133e-01 -7.89137730e-01 
 5.38197015e+10	 4.12166839e-01 -8.43580246e-01 
 5.40194030e+10	 3.17557099e-01 -8.85900310e-01 
 5.42191045e+10	 2.22523324e-01 -9.16681632e-01 
 5.44188060e+10	 1.28475938e-01 -9.36707240e-01 
 5.46185075e+10	 3.65595734e-02 -9.46883796e-01 
 5.48182090e+10	-5.23324332e-02 -9.48177829e-01 
 5.50179104e+10	-1.37533169e-01 -9.41565407e-01 
 5.52176119e+10	-2.18571881e-01 -9.27994909e-01 
 5.54173134e+10	-2.95142114e-01 -9.08361466e-01 
 5.56170149e+10	-3.67070861e-01 -8.83491080e-01 
 5.58167164e+10	-4.34290337e-01 -8.54132354e-01 
 5.60164179e+10	-4.96813199e-01 -8.20953866e-01 
 5.62161194e+10	-5.54711483e-01 -7.84545515e-01 
 5.64158209e+10	-6.08099159e-01 -7.45422505e-01 
 5.66155224e+10	-6.57118022e-01 -7.04030902e-01 
 5.68152239e+10	-7.01926476e-01 -6.60754013e-01 
 5.70149254e+10	-7.42690811e-01 -6.15919036e-01 
 5.72146269e+10	-7.79578517e-01 -5.69803624e-01 
 5.74143284e+10	-8.12753256e-01 -5.22642134e-01 
 5.76140299e+10	-8.42371163e-01 -4.74631433e-01 
 5.78137313e+10	-8.68578170e-01 -4.25936197e-01 
 5.80134328e+10	-8.91508126e-01 -3.76693689e-01 
 5.82131343e+10	-9.11281510e-01 -3.27018051e-01 
 5.84128358e+10	-9.28004592e-01 -2.77004122e-01 
 5.86125373e+10	-9.41768912e-01 -2.26730854e-01 
 5.88122388e+10	-9.52650972e-01 -1.76264363e-01 
 5.90119403e+10	-9.60712087e-01 -1.25660689e-01 
 5.92116418e+10	-9.65998328e-01 -7.49683083e-02 
 5.94113433e+10	-9.68540507e-01 -2.42304540e-02 
 5.96110448e+10	-9.68354198e-01  2.65126859e-02 
 5.98107463e+10	-9.65439757e-01  7.72218568e-02 
 6.00104478e+10	-9.59782346e-01  1.27856650e-01 
 6.02101493e+10	-9.51351947e-01  1.78373389e-01 
 6.04098507e+10	-9.40103391e-01  2.28722941e-01 
 6.06095522e+10	-9.25976413e-01  2.78848391e-01 
 6.08092537e+10	-9.08895763e-01  3.28682543e-01 
 6.10089552e+10	-8.88771407e-01  3.78145167e-01 
 6.12086567e+10	-8.65498900e-01  4.27139966e-01 
 6.14083582e+10	-8.38959967e-01  4.75551185e-01 
 6.16080597e+10	-8.09023429e-01  5.23239821e-01 
 6.18077612e+10	-7.75546563e-01  5.70039391e-01 
 6.20074627e+10	-7.38377080e-01  6.15751211e-01 
 6.22071642e+10	-6.97355893e-01  6.60139191e-01 
 6.24068657e+10	-6.52320921e-01  7.02924151e-01 
 6.26065672e+10	-6.03112213e-01  7.43777732e-01 
 6.28062687e+10	-5.49578722e-01  7.82316036e-01 
 6.30059701e+10	-4.91587102e-01  8.18093228e-01 
 6.32056716e+10	-4.29032946e-01  8.50595477e-01 
 6.34053731e+10	-3.61854883e-01  8.79235776e-01 
 6.36050746e+10	-2.90051895e-01  9.03350410e-01 
 6.38047761e+10	-2.13704156e-01  9.22198092e-01 
 6.40044776e+10	-1.32997416e-01  9.34963125e-01 
 6.42041791e+10	-4.82506346e-02  9.40764192e-01 
 6.44038806e+10	 4.00539963e-02  9.38670678e-01 
 6.46035821e+10	 1.31240275e-01  9.27728525e-01 
 6.48032836e+10	 2.24409059e-01  9.06997475e-01 
 6.50029851e+10	 3.18414912e-01  8.75601019e-01 
 6.52026866e+10	 4.11853217e-01  8.32789254e-01 
 6.54023881e+10	 5.03063467e-01  7.78013026e-01 
 6.56020896e+10	 5.90154707e-01  7.11005297e-01 
 6.58017910e+10	 6.71058191e-01  6.31862684e-01 
 6.60014925e+10	 7.43609955e-01  5.41117259e-01 
 6.62011940e+10	 8.05661998e-01  4.39786634e-01 
 6.64008955e+10	 8.55215449e-01  3.29390129e-01 
 6.66005970e+10	 8.90563406e-01  2.11921228e-01 
 6.68002985e+10	 9.10426536e-01  8.97718431e-02 
 6.70000000e+10	 9.14062629e-01 -3.43885220e-02 
