! Touchstone Ver. 1.0
! Number of ports is 1
# Hz  S RI  R  	50
! SCATTERING PARAMETERS  :
 1.00000000e+08	-9.99646080e-01  2.66029174e-02 
 2.99701493e+08	-9.96816116e-01  7.97347493e-02 
 4.99402985e+08	-9.91131947e-01  1.32881392e-01 
 6.99104478e+08	-9.82540662e-01  1.86047973e-01 
 8.98805970e+08	-9.70962363e-01  2.39232292e-01 
 1.09850746e+09	-9.56289549e-01  2.92421438e-01 
 1.29820896e+09	-9.38386366e-01  3.45587946e-01 
 1.49791045e+09	-9.17087790e-01  3.98685322e-01 
 1.69761194e+09	-8.92198860e-01  4.51642772e-01 
 1.89731343e+09	-8.63494102e-01  5.04358936e-01 
 2.09701493e+09	-8.30717354e-01  5.56694420e-01 
 2.29671642e+09	-7.93582323e-01  6.08462896e-01 
 2.49641791e+09	-7.51774252e-01  6.59420559e-01 
 2.69611940e+09	-7.04953288e-01  7.09253735e-01 
 2.89582090e+09	-6.52760289e-01  7.57564522e-01 
 3.09552239e+09	-5.94826045e-01  8.03854450e-01 
 3.29522388e+09	-5.30785163e-01  8.47506407e-01 
 3.49492537e+09	-4.60296119e-01  8.87765444e-01 
 3.69462687e+09	-3.83069252e-01  9.23719626e-01 
 3.89432836e+09	-2.98904609e-01  9.54282995e-01 
 4.09402985e+09	-2.07741421e-01  9.78183777e-01 
 4.29373134e+09	-1.09720461e-01  9.93962484e-01 
 4.49343284e+09	-5.25916144e-03  9.99986171e-01 
 4.69313433e+09	 1.04862978e-01  9.94486680e-01 
 4.89283582e+09	 2.19414944e-01  9.75631632e-01 
 5.09253731e+09	 3.36632163e-01  9.41636229e-01 
 5.29223881e+09	 4.54159306e-01  8.90920493e-01 
 5.49194030e+09	 5.69040963e-01  8.22309177e-01 
 5.69164179e+09	 6.77785529e-01  7.35259666e-01 
 5.89134328e+09	 7.76523567e-01  6.30088207e-01 
 6.09104478e+09	 8.61268308e-01  5.08150471e-01 
 6.29074627e+09	 9.28262650e-01  3.71925332e-01 
 6.49044776e+09	 9.74368506e-01  2.24957807e-01 
 6.69014925e+09	 9.97430433e-01  7.16416808e-02 
 6.88985075e+09	 9.96537913e-01 -8.31395743e-02 
 7.08955224e+09	 9.72126777e-01 -2.34455813e-01 
 7.28925373e+09	 9.25897499e-01 -3.77774829e-01 
 7.48895522e+09	 8.60573090e-01 -5.09326965e-01 
 7.68865672e+09	 7.79555245e-01 -6.26333473e-01 
 7.88835821e+09	 6.86551899e-01 -7.27080800e-01 
 8.08805970e+09	 5.85241237e-01 -8.10859232e-01 
 8.28776119e+09	 4.79014218e-01 -8.77807142e-01 
 8.48746269e+09	 3.70811001e-01 -9.28708351e-01 
 8.68716418e+09	 2.63045142e-01 -9.64783527e-01 
 8.88686567e+09	 1.57596966e-01 -9.87503517e-01 
 9.08656716e+09	 5.58535085e-02 -9.98438974e-01 
 9.28626866e+09	-4.12257035e-02 -9.99149859e-01 
 9.48597015e+09	-1.33033068e-01 -9.91111600e-01 
 9.68567164e+09	-2.19238313e-01 -9.75671339e-01 
 9.88537313e+09	-2.99721118e-01 -9.54026861e-01 
 1.00850746e+10	-3.74513766e-01 -9.27221354e-01 
 1.02847761e+10	-4.43754463e-01 -8.96148412e-01 
 1.04844776e+10	-5.07650615e-01 -8.61563029e-01 
 1.06841791e+10	-5.66450786e-01 -8.24095569e-01 
 1.08838806e+10	-6.20423818e-01 -7.84266719e-01 
 1.10835821e+10	-6.69843680e-01 -7.42502151e-01 
 1.12832836e+10	-7.14978736e-01 -6.99146198e-01 
 1.14829851e+10	-7.56084361e-01 -6.54474169e-01 
 1.16826866e+10	-7.93398020e-01 -6.08703197e-01 
 1.18823881e+10	-8.27136119e-01 -5.62001638e-01 
 1.20820896e+10	-8.57492106e-01 -5.14497122e-01 
 1.22817910e+10	-8.84635394e-01 -4.66283412e-01 
 1.24814925e+10	-9.08710820e-01 -4.17426216e-01 
 1.26811940e+10	-9.29838405e-01 -3.67968124e-01 
 1.28808955e+10	-9.48113242e-01 -3.17932823e-01 
 1.30805970e+10	-9.63605390e-01 -2.67328736e-01 
 1.32802985e+10	-9.76359675e-01 -2.16152225e-01 
 1.34800000e+10	-9.86395342e-01 -1.64390477e-01 
 1.36797015e+10	-9.93705477e-01 -1.12024213e-01 
 1.38794030e+10	-9.98256190e-01 -5.90303311e-02 
 1.40791045e+10	-9.99985503e-01 -5.38462094e-03 
 1.42788060e+10	-9.98801950e-01  4.89353212e-02 
 1.44785075e+10	-9.94582857e-01  1.03946819e-01 
 1.46782090e+10	-9.87172336e-01  1.59658318e-01 
 1.48779104e+10	-9.76379014e-01  2.16064855e-01 
 1.50776119e+10	-9.61973563e-01  2.73142572e-01 
 1.52773134e+10	-9.43686163e-01  3.30841996e-01 
 1.54770149e+10	-9.21204072e-01  3.89079758e-01 
 1.56767164e+10	-8.94169602e-01  4.47728403e-01 
 1.58764179e+10	-8.62178938e-01  5.06603868e-01 
 1.60761194e+10	-8.24782423e-01  5.65450223e-01 
 1.62758209e+10	-7.81487226e-01  6.23921241e-01 
 1.64755224e+10	-7.31763614e-01  6.81558518e-01 
 1.66752239e+10	-6.75056519e-01  7.37766017e-01 
 1.68749254e+10	-6.10804577e-01  7.91781390e-01 
 1.70746269e+10	-5.38469356e-01  8.42645093e-01 
 1.72743284e+10	-4.57577963e-01  8.89169505e-01 
 1.74740299e+10	-3.67782401e-01  9.29911881e-01 
 1.76737313e+10	-2.68938657e-01  9.63157307e-01 
 1.78734328e+10	-1.61206962e-01  9.86920623e-01 
 1.80731343e+10	-4.51714108e-02  9.98979251e-01 
 1.82728358e+10	 7.80285111e-02  9.96951128e-01 
 1.84725373e+10	 2.06570225e-01  9.78431777e-01 
 1.86722388e+10	 3.37850133e-01  9.41199919e-01 
 1.88719403e+10	 4.68451059e-01  8.83489448e-01 
 1.90716418e+10	 5.94215020e-01  8.04306229e-01 
 1.92713433e+10	 7.10454233e-01  7.03743407e-01 
 1.94710448e+10	 8.12309642e-01  5.83226411e-01 
 1.96707463e+10	 8.95226944e-01  4.45610501e-01 
 1.98704478e+10	 9.55475286e-01  2.95071139e-01 
 2.00701493e+10	 9.90602403e-01  1.36773096e-01 
 2.02698507e+10	 9.99720673e-01 -2.36342139e-02 
 2.04695522e+10	 9.83557566e-01 -1.80594890e-01 
 2.06692537e+10	 9.44267958e-01 -3.29177799e-01 
 2.08689552e+10	 8.85068070e-01 -4.65461612e-01 
 2.10686567e+10	 8.09786601e-01 -5.86724519e-01 
 2.12683582e+10	 7.22428935e-01 -6.91445178e-01 
 2.14680597e+10	 6.26823318e-01 -7.79161426e-01 
 2.16677612e+10	 5.26380649e-01 -8.50249029e-01 
 2.18674627e+10	 4.23967115e-01 -9.05677584e-01 
 2.20671642e+10	 3.21868815e-01 -9.46784276e-01 
 2.22668657e+10	 2.21820107e-01 -9.75087606e-01 
 2.24665672e+10	 1.25068751e-01 -9.92148077e-01 
 2.26662687e+10	 3.24567664e-02 -9.99473140e-01 
 2.28659701e+10	-5.54972607e-02 -9.98458839e-01 
 2.30656716e+10	-1.38522744e-01 -9.90359253e-01 
 2.32653731e+10	-2.16532418e-01 -9.76275428e-01 
 2.34650746e+10	-2.89569431e-01 -9.57157011e-01 
 2.36647761e+10	-3.57765597e-01 -9.33811425e-01 
 2.38644776e+10	-4.21309371e-01 -9.06916983e-01 
 2.40641791e+10	-4.80421888e-01 -8.77037519e-01 
 2.42638806e+10	-5.35339411e-01 -8.44637032e-01 
 2.44635821e+10	-5.86300759e-01 -8.10093463e-01 
 2.46632836e+10	-6.33538481e-01 -7.73711182e-01 
 2.48629851e+10	-6.77272803e-01 -7.35731983e-01 
 2.50626866e+10	-7.17707586e-01 -6.96344613e-01 
 2.52623881e+10	-7.55027686e-01 -6.55692911e-01 
 2.54620896e+10	-7.89397269e-01 -6.13882685e-01 
 2.56617910e+10	-8.20958748e-01 -5.70987508e-01 
 2.58614925e+10	-8.49832067e-01 -5.27053563e-01 
 2.60611940e+10	-8.76114149e-01 -4.82103721e-01 
 2.62608955e+10	-8.99878358e-01 -4.36140965e-01 
 2.64605970e+10	-9.21173843e-01 -3.89151321e-01 
 2.66602985e+10	-9.40024688e-01 -3.41106414e-01 
 2.68600000e+10	-9.56428770e-01 -2.91965764e-01 
 2.70597015e+10	-9.70356262e-01 -2.41678970e-01 
 2.72594030e+10	-9.81747710e-01 -1.90187889e-01 
 2.74591045e+10	-9.90511623e-01 -1.37428983e-01 
 2.76588060e+10	-9.96521507e-01 -8.33359807e-02 
 2.78585075e+10	-9.99612306e-01 -2.78430852e-02 
 2.80582090e+10	-9.99576184e-01  2.91110474e-02 
 2.82579104e+10	-9.96157645e-01  8.75782247e-02 
 2.84576119e+10	-9.89048011e-01  1.47594145e-01 
 2.86573134e+10	-9.77879327e-01  2.09169841e-01 
 2.88570149e+10	-9.62217916e-01  2.72280521e-01 
 2.90567164e+10	-9.41557941e-01  3.36851071e-01 
 2.92564179e+10	-9.15315613e-01  4.02737296e-01 
 2.94561194e+10	-8.82825076e-01  4.69701911e-01 
 2.96558209e+10	-8.43337573e-01  5.37384162e-01 
 2.98555224e+10	-7.96026265e-01  6.05262080e-01 
 3.00552239e+10	-7.40000148e-01  6.72606706e-01 
 3.02549254e+10	-6.74331805e-01  7.38428478e-01 
 3.04546269e+10	-5.98105177e-01  8.01417617e-01 
 3.06543284e+10	-5.10490883e-01  8.59883166e-01 
 3.08540299e+10	-4.10857099e-01  9.11699755e-01 
 3.10537313e+10	-2.98922685e-01  9.54277333e-01 
 3.12534328e+10	-1.74954189e-01  9.84576575e-01 
 3.14531343e+10	-3.99977254e-02  9.99199771e-01 
 3.16528358e+10	 1.03881125e-01  9.94589720e-01 
 3.18525373e+10	 2.53400276e-01  9.67361515e-01 
 3.20522388e+10	 4.03981827e-01  9.14767011e-01 
 3.22519403e+10	 5.49876169e-01  8.35246190e-01 
 3.24516418e+10	 6.84554952e-01  7.28961259e-01 
 3.26513433e+10	 8.01375018e-01  5.98162253e-01 
 3.28510448e+10	 8.94418102e-01  4.47231772e-01 
 3.30507463e+10	 9.59318702e-01  2.82325394e-01 
 3.32504478e+10	 9.93859392e-01  1.10650393e-01 
 3.34501493e+10	 9.98171423e-01 -6.04467506e-02 
 3.36498507e+10	 9.74508322e-01 -2.24351356e-01 
 3.38495522e+10	 9.26696131e-01 -3.75811495e-01 
 3.40492537e+10	 8.59441237e-01 -5.11234546e-01 
 3.42489552e+10	 7.77672813e-01 -6.28669226e-01 
 3.44486567e+10	 6.86036018e-01 -7.27567579e-01 
 3.46483582e+10	 5.88576691e-01 -8.08441389e-01 
 3.48480597e+10	 4.88600873e-01 -8.72507413e-01 
 3.50477612e+10	 3.88663815e-01 -9.21379639e-01 
 3.52474627e+10	 2.90638342e-01 -9.56832981e-01 
 3.54471642e+10	 1.95821100e-01 -9.80639637e-01 
 3.56468657e+10	 1.05048093e-01 -9.94467143e-01 
 3.58465672e+10	 1.88028293e-02 -9.99823211e-01 
 3.60462687e+10	-6.26907986e-02 -9.98032997e-01 
 3.62459701e+10	-1.39393150e-01 -9.90237118e-01 
 3.64456716e+10	-2.11390140e-01 -9.77401764e-01 
 3.66453731e+10	-2.78848940e-01 -9.60334977e-01 
 3.68450746e+10	-3.41985406e-01 -9.39705263e-01 
 3.70447761e+10	-4.01040664e-01 -9.16060252e-01 
 3.72444776e+10	-4.56264644e-01 -8.89844129e-01 
 3.74441791e+10	-5.07904756e-01 -8.61413233e-01 
 3.76438806e+10	-5.56198280e-01 -8.31049621e-01 
 3.78435821e+10	-6.01367406e-01 -7.98972617e-01 
 3.80432836e+10	-6.43616081e-01 -7.65348509e-01 
 3.82429851e+10	-6.83128090e-01 -7.30298578e-01 
 3.84426866e+10	-7.20065886e-01 -6.93905700e-01 
 3.86423881e+10	-7.54569877e-01 -6.56219705e-01 
 3.88420896e+10	-7.86757890e-01 -6.17261713e-01 
 3.90417910e+10	-8.16724645e-01 -5.77027602e-01 
 3.92414925e+10	-8.44541074e-01 -5.35490778e-01 
 3.94411940e+10	-8.70253370e-01 -4.92604376e-01 
 3.96408955e+10	-8.93881642e-01 -4.48303033e-01 
 3.98405970e+10	-9.15418072e-01 -4.02504352e-01 
 4.00402985e+10	-9.34824450e-01 -3.55110192e-01 
 4.02400000e+10	-9.52028962e-01 -3.06007935e-01 
 4.04397015e+10	-9.66922090e-01 -2.55071894e-01 
 4.06394030e+10	-9.79351456e-01 -2.02165095e-01 
 4.08391045e+10	-9.89115422e-01 -1.47141706e-01 
 4.10388060e+10	-9.95955263e-01 -8.98505135e-02 
 4.12385075e+10	-9.99545688e-01 -3.01399517e-02 
 4.14382090e+10	-9.99483550e-01  3.21346007e-02 
 4.16379104e+10	-9.95274602e-01  9.71002928e-02 
 4.18376119e+10	-9.86318356e-01  1.64851751e-01 
 4.20373134e+10	-9.71891362e-01  2.35429777e-01 
 4.22370149e+10	-9.51129734e-01  3.08791563e-01 
 4.24367164e+10	-9.23012656e-01  3.84769590e-01 
 4.26364179e+10	-8.86349986e-01  4.63015877e-01 
 4.28361194e+10	-8.39779272e-01  5.42927964e-01 
 4.30358209e+10	-7.81780701e-01  6.23553475e-01 
 4.32355224e+10	-7.10722829e-01  7.03472146e-01 
 4.34352239e+10	-6.24957218e-01  7.80659001e-01 
 4.36349254e+10	-5.22985006e-01  8.52341882e-01 
 4.38346269e+10	-4.03720142e-01  9.14882532e-01 
 4.40343284e+10	-2.66866665e-01  9.63733460e-01 
 4.42340299e+10	-1.13402441e-01  9.93549136e-01 
 4.44337313e+10	 5.38894361e-02  9.98546909e-01 
 4.46334328e+10	 2.29977476e-01  9.73195952e-01 
 4.48331343e+10	 4.07441879e-01  9.13231140e-01 
 4.50328358e+10	 5.76875691e-01  8.16831952e-01 
 4.52325373e+10	 7.27957910e-01  6.85621820e-01 
 4.54322388e+10	 8.51069841e-01  5.25052499e-01 
 4.56319403e+10	 9.39016897e-01  3.43871002e-01 
 4.58316418e+10	 9.88268687e-01  1.52725252e-01 
 4.60313433e+10	 9.99291120e-01 -3.76464904e-02 
 4.62310448e+10	 9.75940417e-01 -2.18037390e-01 
 4.64307463e+10	 9.24261109e-01 -3.81760924e-01 
 4.66304478e+10	 8.51165476e-01 -5.24897450e-01 
 4.68301493e+10	 7.63362116e-01 -6.45970804e-01 
 4.70298507e+10	 6.66688015e-01 -7.45336898e-01 
 4.72295522e+10	 5.65821209e-01 -8.24527962e-01 
 4.74292537e+10	 4.64264945e-01 -8.85696371e-01 
 4.76289552e+10	 3.64483957e-01 -9.31209668e-01 
 4.78286567e+10	 2.68100951e-01 -9.63390824e-01 
 4.80283582e+10	 1.76096664e-01 -9.84372879e-01 
 4.82280597e+10	 8.89854771e-02 -9.96032924e-01 
 4.84277612e+10	 6.95698583e-03 -9.99975800e-01 
 4.86274627e+10	-7.00160593e-02 -9.97545864e-01 
 4.88271642e+10	-1.42098703e-01 -9.89852493e-01 
 4.90268657e+10	-2.09537679e-01 -9.77800573e-01 
 4.92265672e+10	-2.72622646e-01 -9.62121038e-01 
 4.94262687e+10	-3.31660090e-01 -9.43398953e-01 
 4.96259701e+10	-3.86956219e-01 -9.22098088e-01 
 4.98256716e+10	-4.38806134e-01 -8.98581759e-01 
 5.00253731e+10	-4.87487246e-01 -8.73130108e-01 
 5.02250746e+10	-5.33255532e-01 -8.45954217e-01 
 5.04247761e+10	-5.76343613e-01 -8.17207464e-01 
 5.06244776e+10	-6.16959932e-01 -7.86994563e-01 
 5.08241791e+10	-6.55288550e-01 -7.55378658e-01 
 5.10238806e+10	-6.91489200e-01 -7.22386798e-01 
 5.12235821e+10	-7.25697344e-01 -6.88014073e-01 
 5.14232836e+10	-7.58024025e-01 -6.52226631e-01 
 5.16229851e+10	-7.88555376e-01 -6.14963755e-01 
 5.18226866e+10	-8.17351612e-01 -5.76139169e-01 
 5.20223881e+10	-8.44445369e-01 -5.35641688e-01 
 5.22220896e+10	-8.69839208e-01 -4.93335335e-01 
 5.24217910e+10	-8.93502084e-01 -4.49059045e-01 
 5.26214925e+10	-9.15364527e-01 -4.02626109e-01 
 5.28211940e+10	-9.35312205e-01 -3.53823514e-01 
 5.30208955e+10	-9.53177479e-01 -3.02411463e-01 
 5.32205970e+10	-9.68728427e-01 -2.48123428e-01 
 5.34202985e+10	-9.81654708e-01 -1.90667338e-01 
 5.36200000e+10	-9.91549521e-01 -1.29728746e-01 
 5.38197015e+10	-9.97886741e-01 -6.49773169e-02 
 5.40194030e+10	-9.99992311e-01  3.92136423e-03 
 5.42191045e+10	-9.97008990e-01  7.72856584e-02 
 5.44188060e+10	-9.87853990e-01  1.55384985e-01 
 5.46185075e+10	-9.71170056e-01  2.38387758e-01 
 5.48182090e+10	-9.45272770e-01  3.26281153e-01 
 5.50179104e+10	-9.08101218e-01  4.18750734e-01 
 5.52176119e+10	-8.57186948e-01  5.15005375e-01 
 5.54173134e+10	-7.89669225e-01  6.13532815e-01 
 5.56170149e+10	-7.02404291e-01  7.11778204e-01 
 5.58167164e+10	-5.92241585e-01  8.05760451e-01 
 5.60164179e+10	-4.56561869e-01  8.89691665e-01 
 5.62161194e+10	-2.94165979e-01  9.55754350e-01 
 5.64158209e+10	-1.06520122e-01  9.94310547e-01 
 5.66155224e+10	 1.00853288e-01  9.94901309e-01 
 5.68152239e+10	 3.17399670e-01  9.48291859e-01 
 5.70149254e+10	 5.27826248e-01  8.49352372e-01 
 5.72146269e+10	 7.14350531e-01  6.99788053e-01 
 5.74143284e+10	 8.60650198e-01  5.09196658e-01 
 5.76140299e+10	 9.55984639e-01  2.93416717e-01 
 5.78137313e+10	 9.97500849e-01  7.06544809e-02 
 5.80134328e+10	 9.89756839e-01 -1.42763439e-01 
 5.82131343e+10	 9.42152148e-01 -3.35185515e-01 
 5.84128358e+10	 8.65826739e-01 -5.00343940e-01 
 5.86125373e+10	 7.71270712e-01 -6.36507257e-01 
 5.88122388e+10	 6.67060503e-01 -7.45003547e-01 
 5.90119403e+10	 5.59527478e-01 -8.28811801e-01 
 5.92116418e+10	 4.52968123e-01 -8.91526713e-01 
 5.94113433e+10	 3.50066993e-01 -9.36724666e-01 
 5.96110448e+10	 2.52337156e-01 -9.67639375e-01 
 5.98107463e+10	 1.60492257e-01 -9.87037099e-01 
 6.00104478e+10	 7.47286364e-02 -9.97203906e-01 
 6.02101493e+10	-5.07453404e-03 -9.99987124e-01 
 6.04098507e+10	-7.92197295e-02 -9.96857179e-01 
 6.06095522e+10	-1.48102587e-01 -9.88972004e-01 
 6.08092537e+10	-2.12156025e-01 -9.77235806e-01 
 6.10089552e+10	-2.71816215e-01 -9.62349181e-01 
 6.12086567e+10	-3.27502804e-01 -9.44850207e-01 
 6.14083582e+10	-3.79608231e-01 -9.25147335e-01 
 6.16080597e+10	-4.28492682e-01 -9.03545251e-01 
 6.18077612e+10	-4.74482436e-01 -8.80264971e-01 
 6.20074627e+10	-5.17870131e-01 -8.55459250e-01 
 6.22071642e+10	-5.58916022e-01 -8.29224264e-01 
 6.24068657e+10	-5.97849616e-01 -8.01608281e-01 
 6.26065672e+10	-6.34871287e-01 -7.72617919e-01 
 6.28062687e+10	-6.70153616e-01 -7.42222427e-01 
 6.30059701e+10	-7.03842237e-01 -7.10356323e-01 
 6.32056716e+10	-7.36056036e-01 -6.76920610e-01 
 6.34053731e+10	-7.66886499e-01 -6.41782749e-01 
 6.36050746e+10	-7.96396020e-01 -6.04775478e-01 
 6.38047761e+10	-8.24614869e-01 -5.65694545e-01 
 6.40044776e+10	-8.51536458e-01 -5.24295394e-01 
 6.42041791e+10	-8.77110387e-01 -4.80288839e-01 
 6.44038806e+10	-9.01232534e-01 -4.33335806e-01 
 6.46035821e+10	-9.23731217e-01 -3.83041302e-01 
 6.48032836e+10	-9.44348037e-01 -3.28947997e-01 
 6.50029851e+10	-9.62711504e-01 -2.70530145e-01 
 6.52026866e+10	-9.78300880e-01 -2.07189256e-01 
 6.54023881e+10	-9.90396788e-01 -1.38254123e-01 
 6.56020896e+10	-9.98014169e-01 -6.29898232e-02 
 6.58017910e+10	-9.99812264e-01  1.93761974e-02 
 6.60014925e+10	-9.93976096e-01  1.09597084e-01 
 6.62011940e+10	-9.78065955e-01  2.08295434e-01 
 6.64008955e+10	-9.48838807e-01  3.15760856e-01 
 6.66005970e+10	-9.02065101e-01  4.31599992e-01 
 6.68002985e+10	-8.32407937e-01  5.54163357e-01 
 6.70000000e+10	-7.33516404e-01  6.79671748e-01 
