! Touchstone Ver. 1.0
! Number of ports is 1
# Hz  S RI  R  	50
! SCATTERING PARAMETERS  :
 1.00000000e+08	-9.96186195e-01  6.00589775e-03 
 7.69000000e+08	-9.95121894e-01  4.61683327e-02 
 1.43800000e+09	-9.92294926e-01  8.62406602e-02 
 2.10700000e+09	-9.87784277e-01  1.26148435e-01 
 2.77600000e+09	-9.81670368e-01  1.65829117e-01 
 3.44500000e+09	-9.73966124e-01  2.05217482e-01 
 4.11400000e+09	-9.64685734e-01  2.44248833e-01 
 4.78300000e+09	-9.53846093e-01  2.82859195e-01 
 5.45200000e+09	-9.41427997e-01  3.20972098e-01 
 6.12100000e+09	-9.27478165e-01  3.58529747e-01 
 6.79000000e+09	-9.12036628e-01  3.95475451e-01 
 7.45900000e+09	-8.95132091e-01  4.31749808e-01 
 8.12800000e+09	-8.76794552e-01  4.67294377e-01 
 8.79700000e+09	-8.57056379e-01  5.02052130e-01 
 9.46600000e+09	-8.35952242e-01  5.35967548e-01 
 1.01350000e+10	-8.13550851e-01  5.69009198e-01 
 1.08040000e+10	-7.89918991e-01  6.01151789e-01 
 1.14730000e+10	-7.65041525e-01  6.32309709e-01 
 1.21420000e+10	-7.38950302e-01  6.62426820e-01 
 1.28110000e+10	-7.11689868e-01  6.91455875e-01 
 1.34800000e+10	-6.83306604e-01  7.19351614e-01 
 1.41490000e+10	-6.53848630e-01  7.46070839e-01 
 1.48180000e+10	-6.23365704e-01  7.71572471e-01 
 1.54870000e+10	-5.91909124e-01  7.95817618e-01 
 1.61560000e+10	-5.59531627e-01  8.18769626e-01 
 1.68250000e+10	-5.26287284e-01  8.40394128e-01 
 1.74940000e+10	-4.92231397e-01  8.60659090e-01 
 1.81630000e+10	-4.57420388e-01  8.79534849e-01 
 1.88320000e+10	-4.21911700e-01  8.96994149e-01 
 1.95010000e+10	-3.85763683e-01  9.13012165e-01 
 2.01700000e+10	-3.49035490e-01  9.27566535e-01 
 2.08390000e+10	-3.11786968e-01  9.40637369e-01 
 2.15080000e+10	-2.74078552e-01  9.52207271e-01 
 2.21770000e+10	-2.35971157e-01  9.62261341e-01 
 2.28460000e+10	-1.97526074e-01  9.70787184e-01 
 2.35150000e+10	-1.58804864e-01  9.77774908e-01 
 2.41840000e+10	-1.19869254e-01  9.83217118e-01 
 2.48530000e+10	-8.07810364e-02  9.87108907e-01 
 2.55220000e+10	-4.16019650e-02  9.89447843e-01 
 2.61910000e+10	-2.39366002e-03  9.90233952e-01 
 2.68600000e+10	 3.67824913e-02  9.89469693e-01 
 2.75290000e+10	 7.58654293e-02  9.87159937e-01 
 2.81980000e+10	 1.14794514e-01  9.83311937e-01 
 2.88670000e+10	 1.53509617e-01  9.77935293e-01 
 2.95360000e+10	 1.91951208e-01  9.71041921e-01 
 3.02050000e+10	 2.30060442e-01  9.62646011e-01 
 3.08740000e+10	 2.67779241e-01  9.52763987e-01 
 3.15430000e+10	 3.05050376e-01  9.41414464e-01 
 3.22120000e+10	 3.41817543e-01  9.28618199e-01 
 3.28810000e+10	 3.78025441e-01  9.14398046e-01 
 3.35500000e+10	 4.13619839e-01  8.98778902e-01 
 3.42190000e+10	 4.48547653e-01  8.81787654e-01 
 3.48880000e+10	 4.82757008e-01  8.63453125e-01 
 3.55570000e+10	 5.16197301e-01  8.43806019e-01 
 3.62260000e+10	 5.48819268e-01  8.22878860e-01 
 3.68950000e+10	 5.80575036e-01  8.00705934e-01 
 3.75640000e+10	 6.11418183e-01  7.77323228e-01 
 3.82330000e+10	 6.41303790e-01  7.52768367e-01 
 3.89020000e+10	 6.70188493e-01  7.27080553e-01 
 3.95710000e+10	 6.98030527e-01  7.00300500e-01 
 4.02400000e+10	 7.24789776e-01  6.72470369e-01 
 4.09090000e+10	 7.50427811e-01  6.43633700e-01 
 4.15780000e+10	 7.74907936e-01  6.13835353e-01 
 4.22470000e+10	 7.98195221e-01  5.83121433e-01 
 4.29160000e+10	 8.20256537e-01  5.51539226e-01 
 4.35850000e+10	 8.41060593e-01  5.19137135e-01 
 4.42540000e+10	 8.60577967e-01  4.85964605e-01 
 4.49230000e+10	 8.78781128e-01  4.52072061e-01 
 4.55920000e+10	 8.95644471e-01  4.17510835e-01 
 4.62610000e+10	 9.11144333e-01  3.82333100e-01 
 4.69300000e+10	 9.25259023e-01  3.46591799e-01 
 4.75990000e+10	 9.37968835e-01  3.10340579e-01 
 4.82680000e+10	 9.49256073e-01  2.73633717e-01 
 4.89370000e+10	 9.59105061e-01  2.36526055e-01 
 4.96060000e+10	 9.67502160e-01  1.99072928e-01 
 5.02750000e+10	 9.74435780e-01  1.61330096e-01 
 5.09440000e+10	 9.79896393e-01  1.23353674e-01 
 5.16130000e+10	 9.83876535e-01  8.52000622e-02 
 5.22820000e+10	 9.86370820e-01  4.69258757e-02 
 5.29510000e+10	 9.87375942e-01  8.58787629e-03 
 5.36200000e+10	 9.86890675e-01 -2.97570981e-02 
 5.42890000e+10	 9.84915881e-01 -6.80522032e-02 
 5.49580000e+10	 9.81454504e-01 -1.06240658e-01 
 5.56270000e+10	 9.76511569e-01 -1.44265815e-01 
 5.62960000e+10	 9.70094181e-01 -1.82071230e-01 
 5.69650000e+10	 9.62211514e-01 -2.19600730e-01 
 5.76340000e+10	 9.52874807e-01 -2.56798487e-01 
 5.83030000e+10	 9.42097353e-01 -2.93609087e-01 
 5.89720000e+10	 9.29894489e-01 -3.29977595e-01 
 5.96410000e+10	 9.16283580e-01 -3.65849632e-01 
 6.03100000e+10	 9.01284003e-01 -4.01171441e-01 
 6.09790000e+10	 8.84917133e-01 -4.35889959e-01 
 6.16480000e+10	 8.67206322e-01 -4.69952883e-01 
 6.23170000e+10	 8.48176876e-01 -5.03308746e-01 
 6.29860000e+10	 8.27856031e-01 -5.35906979e-01 
 6.36550000e+10	 8.06272929e-01 -5.67697988e-01 
 6.43240000e+10	 7.83458589e-01 -5.98633219e-01 
 6.49930000e+10	 7.59445875e-01 -6.28665226e-01 
 6.56620000e+10	 7.34269464e-01 -6.57747744e-01 
 6.63310000e+10	 7.07965809e-01 -6.85835752e-01 
 6.70000000e+10	 6.80573105e-01 -7.12885545e-01 
