! Touchstone Ver. 1.0
! Number of ports is 2
# Hz  S RI  R  	50
! SCATTERING PARAMETERS  :
 1.00000000e+08	 9.99999887e-01 -3.36424444e-04  1.13181419e-07  3.36424444e-04  1.13181419e-07  3.36424444e-04  9.99999887e-01 -3.36424444e-04 
 7.69000000e+08	 9.99993307e-01 -2.58708695e-03  6.69306368e-06  2.58708695e-03  6.69306368e-06  2.58708695e-03  9.99993307e-01 -2.58708695e-03 
 1.43800000e+09	 9.99976596e-01 -4.83767082e-03  2.34036067e-05  4.83767082e-03  2.34036067e-05  4.83767082e-03  9.99976596e-01 -4.83767082e-03 
 2.10700000e+09	 9.99949756e-01 -7.08810768e-03  5.02437949e-05  7.08810768e-03  5.02437949e-05  7.08810768e-03  9.99949756e-01 -7.08810768e-03 
 2.77600000e+09	 9.99912788e-01 -9.33832913e-03  8.72119968e-05  9.33832913e-03  8.72119968e-05  9.33832913e-03  9.99912788e-01 -9.33832913e-03 
 3.44500000e+09	 9.99865694e-01 -1.15882668e-02  1.34305966e-04  1.15882668e-02  1.34305966e-04  1.15882668e-02  9.99865694e-01 -1.15882668e-02 
 4.11400000e+09	 9.99808477e-01 -1.38378524e-02  1.91522840e-04  1.38378524e-02  1.91522840e-04  1.38378524e-02  9.99808477e-01 -1.38378524e-02 
 4.78300000e+09	 9.99741141e-01 -1.60870176e-02  2.58859144e-04  1.60870176e-02  2.58859144e-04  1.60870176e-02  9.99741141e-01 -1.60870176e-02 
 5.45200000e+09	 9.99663689e-01 -1.83356942e-02  3.36310786e-04  1.83356942e-02  3.36310786e-04  1.83356942e-02  9.99663689e-01 -1.83356942e-02 
 6.12100000e+09	 9.99576127e-01 -2.05838139e-02  4.23873063e-04  2.05838139e-02  4.23873063e-04  2.05838139e-02  9.99576127e-01 -2.05838139e-02 
 6.79000000e+09	 9.99478459e-01 -2.28313086e-02  5.21540659e-04  2.28313086e-02  5.21540659e-04  2.28313086e-02  9.99478459e-01 -2.28313086e-02 
 7.45900000e+09	 9.99370692e-01 -2.50781103e-02  6.29307644e-04  2.50781103e-02  6.29307644e-04  2.50781103e-02  9.99370692e-01 -2.50781103e-02 
 8.12800000e+09	 9.99252833e-01 -2.73241509e-02  7.47167481e-04  2.73241509e-02  7.47167481e-04  2.73241509e-02  9.99252833e-01 -2.73241509e-02 
 8.79700000e+09	 9.99124887e-01 -2.95693625e-02  8.75113019e-04  2.95693625e-02  8.75113019e-04  2.95693625e-02  9.99124887e-01 -2.95693625e-02 
 9.46600000e+09	 9.98986864e-01 -3.18136771e-02  1.01313650e-03  3.18136771e-02  1.01313650e-03  3.18136771e-02  9.98986864e-01 -3.18136771e-02 
 1.01350000e+10	 9.98838770e-01 -3.40570272e-02  1.16122956e-03  3.40570272e-02  1.16122956e-03  3.40570272e-02  9.98838770e-01 -3.40570272e-02 
 1.08040000e+10	 9.98680617e-01 -3.62993450e-02  1.31938322e-03  3.62993450e-02  1.31938322e-03  3.62993450e-02  9.98680617e-01 -3.62993450e-02 
 1.14730000e+10	 9.98512412e-01 -3.85405629e-02  1.48758791e-03  3.85405629e-02  1.48758791e-03  3.85405629e-02  9.98512412e-01 -3.85405629e-02 
 1.21420000e+10	 9.98334167e-01 -4.07806135e-02  1.66583344e-03  4.07806135e-02  1.66583344e-03  4.07806135e-02  9.98334167e-01 -4.07806135e-02 
 1.28110000e+10	 9.98145891e-01 -4.30194295e-02  1.85410903e-03  4.30194295e-02  1.85410903e-03  4.30194295e-02  9.98145891e-01 -4.30194295e-02 
 1.34800000e+10	 9.97947597e-01 -4.52569436e-02  2.05240330e-03  4.52569436e-02  2.05240330e-03  4.52569436e-02  9.97947597e-01 -4.52569436e-02 
 1.41490000e+10	 9.97739296e-01 -4.74930888e-02  2.26070427e-03  4.74930888e-02  2.26070427e-03  4.74930888e-02  9.97739296e-01 -4.74930888e-02 
 1.48180000e+10	 9.97521001e-01 -4.97277982e-02  2.47899935e-03  4.97277982e-02  2.47899935e-03  4.97277982e-02  9.97521001e-01 -4.97277982e-02 
 1.54870000e+10	 9.97292725e-01 -5.19610049e-02  2.70727537e-03  5.19610049e-02  2.70727537e-03  5.19610049e-02  9.97292725e-01 -5.19610049e-02 
 1.61560000e+10	 9.97054481e-01 -5.41926423e-02  2.94551855e-03  5.41926423e-02  2.94551855e-03  5.41926423e-02  9.97054481e-01 -5.41926423e-02 
 1.68250000e+10	 9.96806285e-01 -5.64226439e-02  3.19371455e-03  5.64226439e-02  3.19371455e-03  5.64226439e-02  9.96806285e-01 -5.64226439e-02 
 1.74940000e+10	 9.96548152e-01 -5.86509434e-02  3.45184842e-03  5.86509434e-02  3.45184842e-03  5.86509434e-02  9.96548152e-01 -5.86509434e-02 
 1.81630000e+10	 9.96280095e-01 -6.08774747e-02  3.71990461e-03  6.08774747e-02  3.71990461e-03  6.08774747e-02  9.96280095e-01 -6.08774747e-02 
 1.88320000e+10	 9.96002133e-01 -6.31021717e-02  3.99786701e-03  6.31021717e-02  3.99786701e-03  6.31021717e-02  9.96002133e-01 -6.31021717e-02 
 1.95010000e+10	 9.95714281e-01 -6.53249687e-02  4.28571892e-03  6.53249687e-02  4.28571892e-03  6.53249687e-02  9.95714281e-01 -6.53249687e-02 
 2.01700000e+10	 9.95416557e-01 -6.75458001e-02  4.58344306e-03  6.75458001e-02  4.58344306e-03  6.75458001e-02  9.95416557e-01 -6.75458001e-02 
 2.08390000e+10	 9.95108978e-01 -6.97646005e-02  4.89102157e-03  6.97646005e-02  4.89102157e-03  6.97646005e-02  9.95108978e-01 -6.97646005e-02 
 2.15080000e+10	 9.94791564e-01 -7.19813046e-02  5.20843601e-03  7.19813046e-02  5.20843601e-03  7.19813046e-02  9.94791564e-01 -7.19813046e-02 
 2.21770000e+10	 9.94464333e-01 -7.41958475e-02  5.53566740e-03  7.41958475e-02  5.53566740e-03  7.41958475e-02  9.94464333e-01 -7.41958475e-02 
 2.28460000e+10	 9.94127304e-01 -7.64081644e-02  5.87269614e-03  7.64081644e-02  5.87269614e-03  7.64081644e-02  9.94127304e-01 -7.64081644e-02 
 2.35150000e+10	 9.93780498e-01 -7.86181907e-02  6.21950212e-03  7.86181907e-02  6.21950212e-03  7.86181907e-02  9.93780498e-01 -7.86181907e-02 
 2.41840000e+10	 9.93423935e-01 -8.08258621e-02  6.57606462e-03  8.08258621e-02  6.57606462e-03  8.08258621e-02  9.93423935e-01 -8.08258621e-02 
 2.48530000e+10	 9.93057638e-01 -8.30311146e-02  6.94236238e-03  8.30311146e-02  6.94236238e-03  8.30311146e-02  9.93057638e-01 -8.30311146e-02 
 2.55220000e+10	 9.92681626e-01 -8.52338841e-02  7.31837360e-03  8.52338841e-02  7.31837360e-03  8.52338841e-02  9.92681626e-01 -8.52338841e-02 
 2.61910000e+10	 9.92295924e-01 -8.74341072e-02  7.70407590e-03  8.74341072e-02  7.70407590e-03  8.74341072e-02  9.92295924e-01 -8.74341072e-02 
 2.68600000e+10	 9.91900554e-01 -8.96317205e-02  8.09944635e-03  8.96317205e-02  8.09944635e-03  8.96317205e-02  9.91900554e-01 -8.96317205e-02 
 2.75290000e+10	 9.91495538e-01 -9.18266608e-02  8.50446151e-03  9.18266608e-02  8.50446151e-03  9.18266608e-02  9.91495538e-01 -9.18266608e-02 
 2.81980000e+10	 9.91080903e-01 -9.40188654e-02  8.91909735e-03  9.40188654e-02  8.91909735e-03  9.40188654e-02  9.91080903e-01 -9.40188654e-02 
 2.88670000e+10	 9.90656671e-01 -9.62082716e-02  9.34332932e-03  9.62082716e-02  9.34332932e-03  9.62082716e-02  9.90656671e-01 -9.62082716e-02 
 2.95360000e+10	 9.90222868e-01 -9.83948171e-02  9.77713235e-03  9.83948171e-02  9.77713235e-03  9.83948171e-02  9.90222868e-01 -9.83948171e-02 
 3.02050000e+10	 9.89779519e-01 -1.00578440e-01  1.02204808e-02  1.00578440e-01  1.02204808e-02  1.00578440e-01  9.89779519e-01 -1.00578440e-01 
 3.08740000e+10	 9.89326651e-01 -1.02759078e-01  1.06733486e-02  1.02759078e-01  1.06733486e-02  1.02759078e-01  9.89326651e-01 -1.02759078e-01 
 3.15430000e+10	 9.88864291e-01 -1.04936671e-01  1.11357089e-02  1.04936671e-01  1.11357089e-02  1.04936671e-01  9.88864291e-01 -1.04936671e-01 
 3.22120000e+10	 9.88392465e-01 -1.07111156e-01  1.16075347e-02  1.07111156e-01  1.16075347e-02  1.07111156e-01  9.88392465e-01 -1.07111156e-01 
 3.28810000e+10	 9.87911202e-01 -1.09282474e-01  1.20887982e-02  1.09282474e-01  1.20887982e-02  1.09282474e-01  9.87911202e-01 -1.09282474e-01 
 3.35500000e+10	 9.87420529e-01 -1.11450563e-01  1.25794712e-02  1.11450563e-01  1.25794712e-02  1.11450563e-01  9.87420529e-01 -1.11450563e-01 
 3.42190000e+10	 9.86920475e-01 -1.13615364e-01  1.30795249e-02  1.13615364e-01  1.30795249e-02  1.13615364e-01  9.86920475e-01 -1.13615364e-01 
 3.48880000e+10	 9.86411070e-01 -1.15776816e-01  1.35889302e-02  1.15776816e-01  1.35889302e-02  1.15776816e-01  9.86411070e-01 -1.15776816e-01 
 3.55570000e+10	 9.85892343e-01 -1.17934860e-01  1.41076573e-02  1.17934860e-01  1.41076573e-02  1.17934860e-01  9.85892343e-01 -1.17934860e-01 
 3.62260000e+10	 9.85364324e-01 -1.20089437e-01  1.46356759e-02  1.20089437e-01  1.46356759e-02  1.20089437e-01  9.85364324e-01 -1.20089437e-01 
 3.68950000e+10	 9.84827045e-01 -1.22240487e-01  1.51729553e-02  1.22240487e-01  1.51729553e-02  1.22240487e-01  9.84827045e-01 -1.22240487e-01 
 3.75640000e+10	 9.84280536e-01 -1.24387953e-01  1.57194644e-02  1.24387953e-01  1.57194644e-02  1.24387953e-01  9.84280536e-01 -1.24387953e-01 
 3.82330000e+10	 9.83724829e-01 -1.26531775e-01  1.62751714e-02  1.26531775e-01  1.62751714e-02  1.26531775e-01  9.83724829e-01 -1.26531775e-01 
 3.89020000e+10	 9.83159956e-01 -1.28671897e-01  1.68400441e-02  1.28671897e-01  1.68400441e-02  1.28671897e-01  9.83159956e-01 -1.28671897e-01 
 3.95710000e+10	 9.82585950e-01 -1.30808260e-01  1.74140499e-02  1.30808260e-01  1.74140499e-02  1.30808260e-01  9.82585950e-01 -1.30808260e-01 
 4.02400000e+10	 9.82002844e-01 -1.32940807e-01  1.79971557e-02  1.32940807e-01  1.79971557e-02  1.32940807e-01  9.82002844e-01 -1.32940807e-01 
 4.09090000e+10	 9.81410672e-01 -1.35069481e-01  1.85893279e-02  1.35069481e-01  1.85893279e-02  1.35069481e-01  9.81410672e-01 -1.35069481e-01 
 4.15780000e+10	 9.80809468e-01 -1.37194227e-01  1.91905324e-02  1.37194227e-01  1.91905324e-02  1.37194227e-01  9.80809468e-01 -1.37194227e-01 
 4.22470000e+10	 9.80199265e-01 -1.39314987e-01  1.98007347e-02  1.39314987e-01  1.98007347e-02  1.39314987e-01  9.80199265e-01 -1.39314987e-01 
 4.29160000e+10	 9.79580100e-01 -1.41431707e-01  2.04199000e-02  1.41431707e-01  2.04199000e-02  1.41431707e-01  9.79580100e-01 -1.41431707e-01 
 4.35850000e+10	 9.78952007e-01 -1.43544330e-01  2.10479928e-02  1.43544330e-01  2.10479928e-02  1.43544330e-01  9.78952007e-01 -1.43544330e-01 
 4.42540000e+10	 9.78315023e-01 -1.45652803e-01  2.16849772e-02  1.45652803e-01  2.16849772e-02  1.45652803e-01  9.78315023e-01 -1.45652803e-01 
 4.49230000e+10	 9.77669183e-01 -1.47757070e-01  2.23308170e-02  1.47757070e-01  2.23308170e-02  1.47757070e-01  9.77669183e-01 -1.47757070e-01 
 4.55920000e+10	 9.77014525e-01 -1.49857077e-01  2.29854755e-02  1.49857077e-01  2.29854755e-02  1.49857077e-01  9.77014525e-01 -1.49857077e-01 
 4.62610000e+10	 9.76351084e-01 -1.51952770e-01  2.36489155e-02  1.51952770e-01  2.36489155e-02  1.51952770e-01  9.76351084e-01 -1.51952770e-01 
 4.69300000e+10	 9.75678900e-01 -1.54044097e-01  2.43210996e-02  1.54044097e-01  2.43210996e-02  1.54044097e-01  9.75678900e-01 -1.54044097e-01 
 4.75990000e+10	 9.74998010e-01 -1.56131003e-01  2.50019896e-02  1.56131003e-01  2.50019896e-02  1.56131003e-01  9.74998010e-01 -1.56131003e-01 
 4.82680000e+10	 9.74308453e-01 -1.58213437e-01  2.56915474e-02  1.58213437e-01  2.56915474e-02  1.58213437e-01  9.74308453e-01 -1.58213437e-01 
 4.89370000e+10	 9.73610266e-01 -1.60291347e-01  2.63897340e-02  1.60291347e-01  2.63897340e-02  1.60291347e-01  9.73610266e-01 -1.60291347e-01 
 4.96060000e+10	 9.72903490e-01 -1.62364680e-01  2.70965103e-02  1.62364680e-01  2.70965103e-02  1.62364680e-01  9.72903490e-01 -1.62364680e-01 
 5.02750000e+10	 9.72188163e-01 -1.64433386e-01  2.78118368e-02  1.64433386e-01  2.78118368e-02  1.64433386e-01  9.72188163e-01 -1.64433386e-01 
 5.09440000e+10	 9.71464327e-01 -1.66497413e-01  2.85356733e-02  1.66497413e-01  2.85356733e-02  1.66497413e-01  9.71464327e-01 -1.66497413e-01 
 5.16130000e+10	 9.70732020e-01 -1.68556712e-01  2.92679797e-02  1.68556712e-01  2.92679797e-02  1.68556712e-01  9.70732020e-01 -1.68556712e-01 
 5.22820000e+10	 9.69991285e-01 -1.70611231e-01  3.00087152e-02  1.70611231e-01  3.00087152e-02  1.70611231e-01  9.69991285e-01 -1.70611231e-01 
 5.29510000e+10	 9.69242161e-01 -1.72660922e-01  3.07578386e-02  1.72660922e-01  3.07578386e-02  1.72660922e-01  9.69242161e-01 -1.72660922e-01 
 5.36200000e+10	 9.68484691e-01 -1.74705735e-01  3.15153086e-02  1.74705735e-01  3.15153086e-02  1.74705735e-01  9.68484691e-01 -1.74705735e-01 
 5.42890000e+10	 9.67718917e-01 -1.76745622e-01  3.22810832e-02  1.76745622e-01  3.22810832e-02  1.76745622e-01  9.67718917e-01 -1.76745622e-01 
 5.49580000e+10	 9.66944880e-01 -1.78780534e-01  3.30551203e-02  1.78780534e-01  3.30551203e-02  1.78780534e-01  9.66944880e-01 -1.78780534e-01 
 5.56270000e+10	 9.66162623e-01 -1.80810423e-01  3.38373773e-02  1.80810423e-01  3.38373773e-02  1.80810423e-01  9.66162623e-01 -1.80810423e-01 
 5.62960000e+10	 9.65372189e-01 -1.82835243e-01  3.46278114e-02  1.82835243e-01  3.46278114e-02  1.82835243e-01  9.65372189e-01 -1.82835243e-01 
 5.69650000e+10	 9.64573621e-01 -1.84854946e-01  3.54263793e-02  1.84854946e-01  3.54263793e-02  1.84854946e-01  9.64573621e-01 -1.84854946e-01 
 5.76340000e+10	 9.63766963e-01 -1.86869485e-01  3.62330375e-02  1.86869485e-01  3.62330375e-02  1.86869485e-01  9.63766963e-01 -1.86869485e-01 
 5.83030000e+10	 9.62952258e-01 -1.88878815e-01  3.70477420e-02  1.88878815e-01  3.70477420e-02  1.88878815e-01  9.62952258e-01 -1.88878815e-01 
 5.89720000e+10	 9.62129551e-01 -1.90882890e-01  3.78704488e-02  1.90882890e-01  3.78704488e-02  1.90882890e-01  9.62129551e-01 -1.90882890e-01 
 5.96410000e+10	 9.61298887e-01 -1.92881666e-01  3.87011131e-02  1.92881666e-01  3.87011131e-02  1.92881666e-01  9.61298887e-01 -1.92881666e-01 
 6.03100000e+10	 9.60460310e-01 -1.94875096e-01  3.95396903e-02  1.94875096e-01  3.95396903e-02  1.94875096e-01  9.60460310e-01 -1.94875096e-01 
 6.09790000e+10	 9.59613865e-01 -1.96863138e-01  4.03861351e-02  1.96863138e-01  4.03861351e-02  1.96863138e-01  9.59613865e-01 -1.96863138e-01 
 6.16480000e+10	 9.58759598e-01 -1.98845748e-01  4.12404022e-02  1.98845748e-01  4.12404022e-02  1.98845748e-01  9.58759598e-01 -1.98845748e-01 
 6.23170000e+10	 9.57897554e-01 -2.00822881e-01  4.21024457e-02  2.00822881e-01  4.21024457e-02  2.00822881e-01  9.57897554e-01 -2.00822881e-01 
 6.29860000e+10	 9.57027780e-01 -2.02794497e-01  4.29722196e-02  2.02794497e-01  4.29722196e-02  2.02794497e-01  9.57027780e-01 -2.02794497e-01 
 6.36550000e+10	 9.56150322e-01 -2.04760551e-01  4.38496776e-02  2.04760551e-01  4.38496776e-02  2.04760551e-01  9.56150322e-01 -2.04760551e-01 
 6.43240000e+10	 9.55265227e-01 -2.06721003e-01  4.47347732e-02  2.06721003e-01  4.47347732e-02  2.06721003e-01  9.55265227e-01 -2.06721003e-01 
 6.49930000e+10	 9.54372541e-01 -2.08675812e-01  4.56274594e-02  2.08675812e-01  4.56274594e-02  2.08675812e-01  9.54372541e-01 -2.08675812e-01 
 6.56620000e+10	 9.53472311e-01 -2.10624935e-01  4.65276891e-02  2.10624935e-01  4.65276891e-02  2.10624935e-01  9.53472311e-01 -2.10624935e-01 
 6.63310000e+10	 9.52564585e-01 -2.12568333e-01  4.74354150e-02  2.12568333e-01  4.74354150e-02  2.12568333e-01  9.52564585e-01 -2.12568333e-01 
 6.70000000e+10	 9.51649411e-01 -2.14505967e-01  4.83505894e-02  2.14505967e-01  4.83505894e-02  2.14505967e-01  9.51649411e-01 -2.14505967e-01 
