! Touchstone Ver. 1.0
! Number of ports is 1
# Hz  S RI  R  	50
! SCATTERING PARAMETERS  :
 1.00000000e+08	 9.99999943e-01 -3.36424472e-04 
 7.69000000e+08	 9.99996653e-01 -2.58709994e-03 
 1.43800000e+09	 9.99988298e-01 -4.83775574e-03 
 2.10700000e+09	 9.99974877e-01 -7.08837479e-03 
 2.77600000e+09	 9.99956391e-01 -9.33893998e-03 
 3.44500000e+09	 9.99932840e-01 -1.15894342e-02 
 4.11400000e+09	 9.99904225e-01 -1.38398404e-02 
 4.78300000e+09	 9.99870545e-01 -1.60901414e-02 
 5.45200000e+09	 9.99831802e-01 -1.83403202e-02 
 6.12100000e+09	 9.99787996e-01 -2.05903597e-02 
 6.79000000e+09	 9.99739128e-01 -2.28402427e-02 
 7.45900000e+09	 9.99685198e-01 -2.50899523e-02 
 8.12800000e+09	 9.99626207e-01 -2.73394713e-02 
 8.79700000e+09	 9.99562156e-01 -2.95887826e-02 
 9.46600000e+09	 9.99493047e-01 -3.18378692e-02 
 1.01350000e+10	 9.99418879e-01 -3.40867141e-02 
 1.08040000e+10	 9.99339655e-01 -3.63353001e-02 
 1.14730000e+10	 9.99255375e-01 -3.85836103e-02 
 1.21420000e+10	 9.99166041e-01 -4.08316275e-02 
 1.28110000e+10	 9.99071655e-01 -4.30793348e-02 
 1.34800000e+10	 9.98972216e-01 -4.53267151e-02 
 1.41490000e+10	 9.98867728e-01 -4.75737514e-02 
 1.48180000e+10	 9.98758191e-01 -4.98204268e-02 
 1.54870000e+10	 9.98643608e-01 -5.20667241e-02 
 1.61560000e+10	 9.98523980e-01 -5.43126264e-02 
 1.68250000e+10	 9.98399309e-01 -5.65581167e-02 
 1.74940000e+10	 9.98269596e-01 -5.88031781e-02 
 1.81630000e+10	 9.98134844e-01 -6.10477936e-02 
 1.88320000e+10	 9.97995055e-01 -6.32919463e-02 
 1.95010000e+10	 9.97850231e-01 -6.55356191e-02 
 2.01700000e+10	 9.97700373e-01 -6.77787953e-02 
 2.08390000e+10	 9.97545485e-01 -7.00214578e-02 
 2.15080000e+10	 9.97385569e-01 -7.22635898e-02 
 2.21770000e+10	 9.97220627e-01 -7.45051744e-02 
 2.28460000e+10	 9.97050662e-01 -7.67461947e-02 
 2.35150000e+10	 9.96875675e-01 -7.89866339e-02 
 2.41840000e+10	 9.96695671e-01 -8.12264750e-02 
 2.48530000e+10	 9.96510651e-01 -8.34657014e-02 
 2.55220000e+10	 9.96320618e-01 -8.57042962e-02 
 2.61910000e+10	 9.96125575e-01 -8.79422425e-02 
 2.68600000e+10	 9.95925526e-01 -9.01795237e-02 
 2.75290000e+10	 9.95720473e-01 -9.24161229e-02 
 2.81980000e+10	 9.95510419e-01 -9.46520233e-02 
 2.88670000e+10	 9.95295368e-01 -9.68872084e-02 
 2.95360000e+10	 9.95075322e-01 -9.91216613e-02 
 3.02050000e+10	 9.94850285e-01 -1.01355365e-01 
 3.08740000e+10	 9.94620261e-01 -1.03588304e-01 
 3.15430000e+10	 9.94385252e-01 -1.05820460e-01 
 3.22120000e+10	 9.94145263e-01 -1.08051818e-01 
 3.28810000e+10	 9.93900297e-01 -1.10282360e-01 
 3.35500000e+10	 9.93650358e-01 -1.12512070e-01 
 3.42190000e+10	 9.93395449e-01 -1.14740932e-01 
 3.48880000e+10	 9.93135575e-01 -1.16968928e-01 
 3.55570000e+10	 9.92870738e-01 -1.19196043e-01 
 3.62260000e+10	 9.92600944e-01 -1.21422260e-01 
 3.68950000e+10	 9.92326197e-01 -1.23647562e-01 
 3.75640000e+10	 9.92046499e-01 -1.25871932e-01 
 3.82330000e+10	 9.91761856e-01 -1.28095356e-01 
 3.89020000e+10	 9.91472272e-01 -1.30317815e-01 
 3.95710000e+10	 9.91177752e-01 -1.32539294e-01 
 4.02400000e+10	 9.90878299e-01 -1.34759776e-01 
 4.09090000e+10	 9.90573918e-01 -1.36979245e-01 
 4.15780000e+10	 9.90264613e-01 -1.39197685e-01 
 4.22470000e+10	 9.89950390e-01 -1.41415079e-01 
 4.29160000e+10	 9.89631253e-01 -1.43631411e-01 
 4.35850000e+10	 9.89307207e-01 -1.45846665e-01 
 4.42540000e+10	 9.88978257e-01 -1.48060824e-01 
 4.49230000e+10	 9.88644407e-01 -1.50273873e-01 
 4.55920000e+10	 9.88305662e-01 -1.52485795e-01 
 4.62610000e+10	 9.87962029e-01 -1.54696575e-01 
 4.69300000e+10	 9.87613510e-01 -1.56906195e-01 
 4.75990000e+10	 9.87260113e-01 -1.59114640e-01 
 4.82680000e+10	 9.86901842e-01 -1.61321894e-01 
 4.89370000e+10	 9.86538703e-01 -1.63527941e-01 
 4.96060000e+10	 9.86170701e-01 -1.65732765e-01 
 5.02750000e+10	 9.85797841e-01 -1.67936350e-01 
 5.09440000e+10	 9.85420128e-01 -1.70138680e-01 
 5.16130000e+10	 9.85037570e-01 -1.72339739e-01 
 5.22820000e+10	 9.84650171e-01 -1.74539511e-01 
 5.29510000e+10	 9.84257937e-01 -1.76737981e-01 
 5.36200000e+10	 9.83860874e-01 -1.78935132e-01 
 5.42890000e+10	 9.83458987e-01 -1.81130949e-01 
 5.49580000e+10	 9.83052283e-01 -1.83325417e-01 
 5.56270000e+10	 9.82640768e-01 -1.85518518e-01 
 5.62960000e+10	 9.82224448e-01 -1.87710239e-01 
 5.69650000e+10	 9.81803329e-01 -1.89900563e-01 
 5.76340000e+10	 9.81377417e-01 -1.92089474e-01 
 5.83030000e+10	 9.80946718e-01 -1.94276957e-01 
 5.89720000e+10	 9.80511240e-01 -1.96462997e-01 
 5.96410000e+10	 9.80070987e-01 -1.98647578e-01 
 6.03100000e+10	 9.79625968e-01 -2.00830684e-01 
 6.09790000e+10	 9.79176187e-01 -2.03012300e-01 
 6.16480000e+10	 9.78721653e-01 -2.05192411e-01 
 6.23170000e+10	 9.78262372e-01 -2.07371001e-01 
 6.29860000e+10	 9.77798350e-01 -2.09548056e-01 
 6.36550000e+10	 9.77329594e-01 -2.11723559e-01 
 6.43240000e+10	 9.76856111e-01 -2.13897495e-01 
 6.49930000e+10	 9.76377908e-01 -2.16069850e-01 
 6.56620000e+10	 9.75894993e-01 -2.18240608e-01 
 6.63310000e+10	 9.75407371e-01 -2.20409755e-01 
 6.70000000e+10	 9.74915051e-01 -2.22577274e-01 
