! Touchstone Ver. 1.0
! Number of ports is 2
# Hz  S RI  R  	50
! SCATTERING PARAMETERS  :
 1.00000000e+08	 9.99999989e-01 -1.07094490e-04  1.14692299e-08  1.07094490e-04  1.14692299e-08  1.07094490e-04  9.99999989e-01 -1.07094490e-04 
 7.69000000e+08	 9.99999322e-01 -8.23556079e-04  6.78245075e-07  8.23556079e-04  6.78245075e-07  8.23556079e-04  9.99999322e-01 -8.23556079e-04 
 1.43800000e+09	 9.99997628e-01 -1.54001513e-03  2.37165223e-06  1.54001513e-03  2.37165223e-06  1.54001513e-03  9.99997628e-01 -1.54001513e-03 
 2.10700000e+09	 9.99994908e-01 -2.25646944e-03  5.09168026e-06  2.25646944e-03  5.09168026e-06  2.25646944e-03  9.99994908e-01 -2.25646944e-03 
 2.77600000e+09	 9.99991162e-01 -2.97291680e-03  8.83831242e-06  2.97291680e-03  8.83831242e-06  2.97291680e-03  9.99991162e-01 -2.97291680e-03 
 3.44500000e+09	 9.99986388e-01 -3.68935500e-03  1.36115256e-05  3.68935500e-03  1.36115256e-05  3.68935500e-03  9.99986388e-01 -3.68935500e-03 
 4.11400000e+09	 9.99980589e-01 -4.40578185e-03  1.94112905e-05  4.40578185e-03  1.94112905e-05  4.40578185e-03  9.99980589e-01 -4.40578185e-03 
 4.78300000e+09	 9.99973762e-01 -5.12219512e-03  2.62375712e-05  5.12219512e-03  2.62375712e-05  5.12219512e-03  9.99973762e-01 -5.12219512e-03 
 5.45200000e+09	 9.99965910e-01 -5.83859261e-03  3.40903259e-05  5.83859261e-03  3.40903259e-05  5.83859261e-03  9.99965910e-01 -5.83859261e-03 
 6.12100000e+09	 9.99957030e-01 -6.55497213e-03  4.29695060e-05  6.55497213e-03  4.29695060e-05  6.55497213e-03  9.99957030e-01 -6.55497213e-03 
 6.79000000e+09	 9.99947125e-01 -7.27133146e-03  5.28750570e-05  7.27133146e-03  5.28750570e-05  7.27133146e-03  9.99947125e-01 -7.27133146e-03 
 7.45900000e+09	 9.99936193e-01 -7.98766840e-03  6.38069178e-05  7.98766840e-03  6.38069178e-05  7.98766840e-03  9.99936193e-01 -7.98766840e-03 
 8.12800000e+09	 9.99924235e-01 -8.70398074e-03  7.57650210e-05  8.70398074e-03  7.57650210e-05  8.70398074e-03  9.99924235e-01 -8.70398074e-03 
 8.79700000e+09	 9.99911251e-01 -9.42026628e-03  8.87492932e-05  9.42026628e-03  8.87492932e-05  9.42026628e-03  9.99911251e-01 -9.42026628e-03 
 9.46600000e+09	 9.99897240e-01 -1.01365228e-02  1.02759654e-04  1.01365228e-02  1.02759654e-04  1.01365228e-02  9.99897240e-01 -1.01365228e-02 
 1.01350000e+10	 9.99882204e-01 -1.08527481e-02  1.17796018e-04  1.08527481e-02  1.17796018e-04  1.08527481e-02  9.99882204e-01 -1.08527481e-02 
 1.08040000e+10	 9.99866142e-01 -1.15689400e-02  1.33858291e-04  1.15689400e-02  1.33858291e-04  1.15689400e-02  9.99866142e-01 -1.15689400e-02 
 1.14730000e+10	 9.99849054e-01 -1.22850963e-02  1.50946376e-04  1.22850963e-02  1.50946376e-04  1.22850963e-02  9.99849054e-01 -1.22850963e-02 
 1.21420000e+10	 9.99830940e-01 -1.30012148e-02  1.69060167e-04  1.30012148e-02  1.69060167e-04  1.30012148e-02  9.99830940e-01 -1.30012148e-02 
 1.28110000e+10	 9.99811800e-01 -1.37172932e-02  1.88199552e-04  1.37172932e-02  1.88199552e-04  1.37172932e-02  9.99811800e-01 -1.37172932e-02 
 1.34800000e+10	 9.99791636e-01 -1.44333294e-02  2.08364413e-04  1.44333294e-02  2.08364413e-04  1.44333294e-02  9.99791636e-01 -1.44333294e-02 
 1.41490000e+10	 9.99770445e-01 -1.51493212e-02  2.29554627e-04  1.51493212e-02  2.29554627e-04  1.51493212e-02  9.99770445e-01 -1.51493212e-02 
 1.48180000e+10	 9.99748230e-01 -1.58652663e-02  2.51770063e-04  1.58652663e-02  2.51770063e-04  1.58652663e-02  9.99748230e-01 -1.58652663e-02 
 1.54870000e+10	 9.99724989e-01 -1.65811626e-02  2.75010584e-04  1.65811626e-02  2.75010584e-04  1.65811626e-02  9.99724989e-01 -1.65811626e-02 
 1.61560000e+10	 9.99700724e-01 -1.72970079e-02  2.99276047e-04  1.72970079e-02  2.99276047e-04  1.72970079e-02  9.99700724e-01 -1.72970079e-02 
 1.68250000e+10	 9.99675434e-01 -1.80127999e-02  3.24566304e-04  1.80127999e-02  3.24566304e-04  1.80127999e-02  9.99675434e-01 -1.80127999e-02 
 1.74940000e+10	 9.99649119e-01 -1.87285365e-02  3.50881197e-04  1.87285365e-02  3.50881197e-04  1.87285365e-02  9.99649119e-01 -1.87285365e-02 
 1.81630000e+10	 9.99621779e-01 -1.94442155e-02  3.78220565e-04  1.94442155e-02  3.78220565e-04  1.94442155e-02  9.99621779e-01 -1.94442155e-02 
 1.88320000e+10	 9.99593416e-01 -2.01598346e-02  4.06584241e-04  2.01598346e-02  4.06584241e-04  2.01598346e-02  9.99593416e-01 -2.01598346e-02 
 1.95010000e+10	 9.99564028e-01 -2.08753917e-02  4.35972049e-04  2.08753917e-02  4.35972049e-04  2.08753917e-02  9.99564028e-01 -2.08753917e-02 
 2.01700000e+10	 9.99533616e-01 -2.15908845e-02  4.66383809e-04  2.15908845e-02  4.66383809e-04  2.15908845e-02  9.99533616e-01 -2.15908845e-02 
 2.08390000e+10	 9.99502181e-01 -2.23063110e-02  4.97819334e-04  2.23063110e-02  4.97819334e-04  2.23063110e-02  9.99502181e-01 -2.23063110e-02 
 2.15080000e+10	 9.99469722e-01 -2.30216688e-02  5.30278430e-04  2.30216688e-02  5.30278430e-04  2.30216688e-02  9.99469722e-01 -2.30216688e-02 
 2.21770000e+10	 9.99436239e-01 -2.37369558e-02  5.63760897e-04  2.37369558e-02  5.63760897e-04  2.37369558e-02  9.99436239e-01 -2.37369558e-02 
 2.28460000e+10	 9.99401733e-01 -2.44521698e-02  5.98266530e-04  2.44521698e-02  5.98266530e-04  2.44521698e-02  9.99401733e-01 -2.44521698e-02 
 2.35150000e+10	 9.99366205e-01 -2.51673086e-02  6.33795117e-04  2.51673086e-02  6.33795117e-04  2.51673086e-02  9.99366205e-01 -2.51673086e-02 
 2.41840000e+10	 9.99329654e-01 -2.58823700e-02  6.70346439e-04  2.58823700e-02  6.70346439e-04  2.58823700e-02  9.99329654e-01 -2.58823700e-02 
 2.48530000e+10	 9.99292080e-01 -2.65973518e-02  7.07920272e-04  2.65973518e-02  7.07920272e-04  2.65973518e-02  9.99292080e-01 -2.65973518e-02 
 2.55220000e+10	 9.99253484e-01 -2.73122518e-02  7.46516384e-04  2.73122518e-02  7.46516384e-04  2.73122518e-02  9.99253484e-01 -2.73122518e-02 
 2.61910000e+10	 9.99213865e-01 -2.80270678e-02  7.86134538e-04  2.80270678e-02  7.86134538e-04  2.80270678e-02  9.99213865e-01 -2.80270678e-02 
 2.68600000e+10	 9.99173226e-01 -2.87417977e-02  8.26774491e-04  2.87417977e-02  8.26774491e-04  2.87417977e-02  9.99173226e-01 -2.87417977e-02 
 2.75290000e+10	 9.99131564e-01 -2.94564392e-02  8.68435993e-04  2.94564392e-02  8.68435993e-04  2.94564392e-02  9.99131564e-01 -2.94564392e-02 
 2.81980000e+10	 9.99088881e-01 -3.01709902e-02  9.11118788e-04  3.01709902e-02  9.11118788e-04  3.01709902e-02  9.99088881e-01 -3.01709902e-02 
 2.88670000e+10	 9.99045177e-01 -3.08854485e-02  9.54822613e-04  3.08854485e-02  9.54822613e-04  3.08854485e-02  9.99045177e-01 -3.08854485e-02 
 2.95360000e+10	 9.99000453e-01 -3.15998118e-02  9.99547202e-04  3.15998118e-02  9.99547202e-04  3.15998118e-02  9.99000453e-01 -3.15998118e-02 
 3.02050000e+10	 9.98954708e-01 -3.23140781e-02  1.04529228e-03  3.23140781e-02  1.04529228e-03  3.23140781e-02  9.98954708e-01 -3.23140781e-02 
 3.08740000e+10	 9.98907942e-01 -3.30282450e-02  1.09205756e-03  3.30282450e-02  1.09205756e-03  3.30282450e-02  9.98907942e-01 -3.30282450e-02 
 3.15430000e+10	 9.98860157e-01 -3.37423105e-02  1.13984276e-03  3.37423105e-02  1.13984276e-03  3.37423105e-02  9.98860157e-01 -3.37423105e-02 
 3.22120000e+10	 9.98811352e-01 -3.44562724e-02  1.18864759e-03  3.44562724e-02  1.18864759e-03  3.44562724e-02  9.98811352e-01 -3.44562724e-02 
 3.28810000e+10	 9.98761528e-01 -3.51701284e-02  1.23847175e-03  3.51701284e-02  1.23847175e-03  3.51701284e-02  9.98761528e-01 -3.51701284e-02 
 3.35500000e+10	 9.98710685e-01 -3.58838765e-02  1.28931492e-03  3.58838765e-02  1.28931492e-03  3.58838765e-02  9.98710685e-01 -3.58838765e-02 
 3.42190000e+10	 9.98658823e-01 -3.65975143e-02  1.34117681e-03  3.65975143e-02  1.34117681e-03  3.65975143e-02  9.98658823e-01 -3.65975143e-02 
 3.48880000e+10	 9.98605943e-01 -3.73110398e-02  1.39405708e-03  3.73110398e-02  1.39405708e-03  3.73110398e-02  9.98605943e-01 -3.73110398e-02 
 3.55570000e+10	 9.98552045e-01 -3.80244507e-02  1.44795543e-03  3.80244507e-02  1.44795543e-03  3.80244507e-02  9.98552045e-01 -3.80244507e-02 
 3.62260000e+10	 9.98497128e-01 -3.87377449e-02  1.50287150e-03  3.87377449e-02  1.50287150e-03  3.87377449e-02  9.98497128e-01 -3.87377449e-02 
 3.68950000e+10	 9.98441195e-01 -3.94509202e-02  1.55880498e-03  3.94509202e-02  1.55880498e-03  3.94509202e-02  9.98441195e-01 -3.94509202e-02 
 3.75640000e+10	 9.98384244e-01 -4.01639745e-02  1.61575551e-03  4.01639745e-02  1.61575551e-03  4.01639745e-02  9.98384244e-01 -4.01639745e-02 
 3.82330000e+10	 9.98326277e-01 -4.08769055e-02  1.67372275e-03  4.08769055e-02  1.67372275e-03  4.08769055e-02  9.98326277e-01 -4.08769055e-02 
 3.89020000e+10	 9.98267294e-01 -4.15897111e-02  1.73270634e-03  4.15897111e-02  1.73270634e-03  4.15897111e-02  9.98267294e-01 -4.15897111e-02 
 3.95710000e+10	 9.98207294e-01 -4.23023892e-02  1.79270592e-03  4.23023892e-02  1.79270592e-03  4.23023892e-02  9.98207294e-01 -4.23023892e-02 
 4.02400000e+10	 9.98146279e-01 -4.30149375e-02  1.85372113e-03  4.30149375e-02  1.85372113e-03  4.30149375e-02  9.98146279e-01 -4.30149375e-02 
 4.09090000e+10	 9.98084248e-01 -4.37273539e-02  1.91575158e-03  4.37273539e-02  1.91575158e-03  4.37273539e-02  9.98084248e-01 -4.37273539e-02 
 4.15780000e+10	 9.98021203e-01 -4.44396362e-02  1.97879690e-03  4.44396362e-02  1.97879690e-03  4.44396362e-02  9.98021203e-01 -4.44396362e-02 
 4.22470000e+10	 9.97957143e-01 -4.51517823e-02  2.04285671e-03  4.51517823e-02  2.04285671e-03  4.51517823e-02  9.97957143e-01 -4.51517823e-02 
 4.29160000e+10	 9.97892069e-01 -4.58637899e-02  2.10793060e-03  4.58637899e-02  2.10793060e-03  4.58637899e-02  9.97892069e-01 -4.58637899e-02 
 4.35850000e+10	 9.97825982e-01 -4.65756571e-02  2.17401819e-03  4.65756571e-02  2.17401819e-03  4.65756571e-02  9.97825982e-01 -4.65756571e-02 
 4.42540000e+10	 9.97758881e-01 -4.72873815e-02  2.24111906e-03  4.72873815e-02  2.24111906e-03  4.72873815e-02  9.97758881e-01 -4.72873815e-02 
 4.49230000e+10	 9.97690767e-01 -4.79989610e-02  2.30923281e-03  4.79989610e-02  2.30923281e-03  4.79989610e-02  9.97690767e-01 -4.79989610e-02 
 4.55920000e+10	 9.97621641e-01 -4.87103934e-02  2.37835902e-03  4.87103934e-02  2.37835902e-03  4.87103934e-02  9.97621641e-01 -4.87103934e-02 
 4.62610000e+10	 9.97551503e-01 -4.94216767e-02  2.44849727e-03  4.94216767e-02  2.44849727e-03  4.94216767e-02  9.97551503e-01 -4.94216767e-02 
 4.69300000e+10	 9.97480353e-01 -5.01328087e-02  2.51964713e-03  5.01328087e-02  2.51964713e-03  5.01328087e-02  9.97480353e-01 -5.01328087e-02 
 4.75990000e+10	 9.97408192e-01 -5.08437871e-02  2.59180816e-03  5.08437871e-02  2.59180816e-03  5.08437871e-02  9.97408192e-01 -5.08437871e-02 
 4.82680000e+10	 9.97335020e-01 -5.15546099e-02  2.66497992e-03  5.15546099e-02  2.66497992e-03  5.15546099e-02  9.97335020e-01 -5.15546099e-02 
 4.89370000e+10	 9.97260838e-01 -5.22652749e-02  2.73916197e-03  5.22652749e-02  2.73916197e-03  5.22652749e-02  9.97260838e-01 -5.22652749e-02 
 4.96060000e+10	 9.97185646e-01 -5.29757799e-02  2.81435385e-03  5.29757799e-02  2.81435385e-03  5.29757799e-02  9.97185646e-01 -5.29757799e-02 
 5.02750000e+10	 9.97109445e-01 -5.36861229e-02  2.89055510e-03  5.36861229e-02  2.89055510e-03  5.36861229e-02  9.97109445e-01 -5.36861229e-02 
 5.09440000e+10	 9.97032235e-01 -5.43963016e-02  2.96776526e-03  5.43963016e-02  2.96776526e-03  5.43963016e-02  9.97032235e-01 -5.43963016e-02 
 5.16130000e+10	 9.96954016e-01 -5.51063140e-02  3.04598386e-03  5.51063140e-02  3.04598386e-03  5.51063140e-02  9.96954016e-01 -5.51063140e-02 
 5.22820000e+10	 9.96874790e-01 -5.58161578e-02  3.12521041e-03  5.58161578e-02  3.12521041e-03  5.58161578e-02  9.96874790e-01 -5.58161578e-02 
 5.29510000e+10	 9.96794556e-01 -5.65258310e-02  3.20544444e-03  5.65258310e-02  3.20544444e-03  5.65258310e-02  9.96794556e-01 -5.65258310e-02 
 5.36200000e+10	 9.96713315e-01 -5.72353313e-02  3.28668546e-03  5.72353313e-02  3.28668546e-03  5.72353313e-02  9.96713315e-01 -5.72353313e-02 
 5.42890000e+10	 9.96631067e-01 -5.79446568e-02  3.36893296e-03  5.79446568e-02  3.36893296e-03  5.79446568e-02  9.96631067e-01 -5.79446568e-02 
 5.49580000e+10	 9.96547814e-01 -5.86538052e-02  3.45218645e-03  5.86538052e-02  3.45218645e-03  5.86538052e-02  9.96547814e-01 -5.86538052e-02 
 5.56270000e+10	 9.96463555e-01 -5.93627744e-02  3.53644543e-03  5.93627744e-02  3.53644543e-03  5.93627744e-02  9.96463555e-01 -5.93627744e-02 
 5.62960000e+10	 9.96378291e-01 -6.00715622e-02  3.62170937e-03  6.00715622e-02  3.62170937e-03  6.00715622e-02  9.96378291e-01 -6.00715622e-02 
 5.69650000e+10	 9.96292022e-01 -6.07801666e-02  3.70797776e-03  6.07801666e-02  3.70797776e-03  6.07801666e-02  9.96292022e-01 -6.07801666e-02 
 5.76340000e+10	 9.96204750e-01 -6.14885855e-02  3.79525006e-03  6.14885855e-02  3.79525006e-03  6.14885855e-02  9.96204750e-01 -6.14885855e-02 
 5.83030000e+10	 9.96116474e-01 -6.21968166e-02  3.88352577e-03  6.21968166e-02  3.88352577e-03  6.21968166e-02  9.96116474e-01 -6.21968166e-02 
 5.89720000e+10	 9.96027196e-01 -6.29048579e-02  3.97280432e-03  6.29048579e-02  3.97280432e-03  6.29048579e-02  9.96027196e-01 -6.29048579e-02 
 5.96410000e+10	 9.95936915e-01 -6.36127072e-02  4.06308518e-03  6.36127072e-02  4.06308518e-03  6.36127072e-02  9.95936915e-01 -6.36127072e-02 
 6.03100000e+10	 9.95845632e-01 -6.43203625e-02  4.15436780e-03  6.43203625e-02  4.15436780e-03  6.43203625e-02  9.95845632e-01 -6.43203625e-02 
 6.09790000e+10	 9.95753348e-01 -6.50278216e-02  4.24665163e-03  6.50278216e-02  4.24665163e-03  6.50278216e-02  9.95753348e-01 -6.50278216e-02 
 6.16480000e+10	 9.95660064e-01 -6.57350824e-02  4.33993610e-03  6.57350824e-02  4.33993610e-03  6.57350824e-02  9.95660064e-01 -6.57350824e-02 
 6.23170000e+10	 9.95565779e-01 -6.64421427e-02  4.43422065e-03  6.64421427e-02  4.43422065e-03  6.64421427e-02  9.95565779e-01 -6.64421427e-02 
 6.29860000e+10	 9.95470495e-01 -6.71490006e-02  4.52950469e-03  6.71490006e-02  4.52950469e-03  6.71490006e-02  9.95470495e-01 -6.71490006e-02 
 6.36550000e+10	 9.95374212e-01 -6.78556538e-02  4.62578767e-03  6.78556538e-02  4.62578767e-03  6.78556538e-02  9.95374212e-01 -6.78556538e-02 
 6.43240000e+10	 9.95276931e-01 -6.85621003e-02  4.72306898e-03  6.85621003e-02  4.72306898e-03  6.85621003e-02  9.95276931e-01 -6.85621003e-02 
 6.49930000e+10	 9.95178652e-01 -6.92683379e-02  4.82134804e-03  6.92683379e-02  4.82134804e-03  6.92683379e-02  9.95178652e-01 -6.92683379e-02 
 6.56620000e+10	 9.95079376e-01 -6.99743646e-02  4.92062425e-03  6.99743646e-02  4.92062425e-03  6.99743646e-02  9.95079376e-01 -6.99743646e-02 
 6.63310000e+10	 9.94979103e-01 -7.06801783e-02  5.02089701e-03  7.06801783e-02  5.02089701e-03  7.06801783e-02  9.94979103e-01 -7.06801783e-02 
 6.70000000e+10	 9.94877834e-01 -7.13857768e-02  5.12216571e-03  7.13857768e-02  5.12216571e-03  7.13857768e-02  9.94877834e-01 -7.13857768e-02 
