! Touchstone Ver. 1.0
! Number of ports is 1
# Hz  S RI  R  	50
! SCATTERING PARAMETERS  :
 1.00000000e+08	 9.99998092e-01 -6.08298108e-04 
 7.69000000e+08	 9.99975723e-01 -4.67774271e-03 
 1.43800000e+09	 9.99936795e-01 -8.74701463e-03 
 2.10700000e+09	 9.99881308e-01 -1.28160461e-02 
 2.77600000e+09	 9.99809265e-01 -1.68847693e-02 
 3.44500000e+09	 9.99720665e-01 -2.09531163e-02 
 4.11400000e+09	 9.99615512e-01 -2.50210194e-02 
 4.78300000e+09	 9.99493807e-01 -2.90884107e-02 
 5.45200000e+09	 9.99355553e-01 -3.31552222e-02 
 6.12100000e+09	 9.99200751e-01 -3.72213863e-02 
 6.79000000e+09	 9.99029405e-01 -4.12868350e-02 
 7.45900000e+09	 9.98841519e-01 -4.53515006e-02 
 8.12800000e+09	 9.98637095e-01 -4.94153153e-02 
 8.79700000e+09	 9.98416137e-01 -5.34782113e-02 
 9.46600000e+09	 9.98178649e-01 -5.75401209e-02 
 1.01350000e+10	 9.97924637e-01 -6.16009763e-02 
 1.08040000e+10	 9.97654107e-01 -6.56607101e-02 
 1.14730000e+10	 9.97367063e-01 -6.97192543e-02 
 1.21420000e+10	 9.97063510e-01 -7.37765414e-02 
 1.28110000e+10	 9.96743452e-01 -7.78325037e-02 
 1.34800000e+10	 9.96406897e-01 -8.18870736e-02 
 1.41490000e+10	 9.96053849e-01 -8.59401834e-02 
 1.48180000e+10	 9.95684315e-01 -8.99917656e-02 
 1.54870000e+10	 9.95298302e-01 -9.40417528e-02 
 1.61560000e+10	 9.94895817e-01 -9.80900773e-02 
 1.68250000e+10	 9.94476867e-01 -1.02136672e-01 
 1.74940000e+10	 9.94041460e-01 -1.06181468e-01 
 1.81630000e+10	 9.93589602e-01 -1.10224400e-01 
 1.88320000e+10	 9.93121304e-01 -1.14265400e-01 
 1.95010000e+10	 9.92636571e-01 -1.18304400e-01 
 2.01700000e+10	 9.92135415e-01 -1.22341332e-01 
 2.08390000e+10	 9.91617842e-01 -1.26376131e-01 
 2.15080000e+10	 9.91083863e-01 -1.30408728e-01 
 2.21770000e+10	 9.90533486e-01 -1.34439056e-01 
 2.28460000e+10	 9.89966722e-01 -1.38467049e-01 
 2.35150000e+10	 9.89383581e-01 -1.42492639e-01 
 2.41840000e+10	 9.88784072e-01 -1.46515758e-01 
 2.48530000e+10	 9.88168207e-01 -1.50536341e-01 
 2.55220000e+10	 9.87535996e-01 -1.54554319e-01 
 2.61910000e+10	 9.86887450e-01 -1.58569627e-01 
 2.68600000e+10	 9.86222582e-01 -1.62582197e-01 
 2.75290000e+10	 9.85541401e-01 -1.66591962e-01 
 2.81980000e+10	 9.84843921e-01 -1.70598856e-01 
 2.88670000e+10	 9.84130154e-01 -1.74602811e-01 
 2.95360000e+10	 9.83400112e-01 -1.78603762e-01 
 3.02050000e+10	 9.82653807e-01 -1.82601641e-01 
 3.08740000e+10	 9.81891254e-01 -1.86596383e-01 
 3.15430000e+10	 9.81112465e-01 -1.90587920e-01 
 3.22120000e+10	 9.80317454e-01 -1.94576185e-01 
 3.28810000e+10	 9.79506235e-01 -1.98561114e-01 
 3.35500000e+10	 9.78678822e-01 -2.02542639e-01 
 3.42190000e+10	 9.77835229e-01 -2.06520694e-01 
 3.48880000e+10	 9.76975472e-01 -2.10495212e-01 
 3.55570000e+10	 9.76099564e-01 -2.14466129e-01 
 3.62260000e+10	 9.75207522e-01 -2.18433377e-01 
 3.68950000e+10	 9.74299362e-01 -2.22396890e-01 
 3.75640000e+10	 9.73375097e-01 -2.26356603e-01 
 3.82330000e+10	 9.72434746e-01 -2.30312450e-01 
 3.89020000e+10	 9.71478324e-01 -2.34264365e-01 
 3.95710000e+10	 9.70505848e-01 -2.38212282e-01 
 4.02400000e+10	 9.69517334e-01 -2.42156136e-01 
 4.09090000e+10	 9.68512801e-01 -2.46095861e-01 
 4.15780000e+10	 9.67492265e-01 -2.50031391e-01 
 4.22470000e+10	 9.66455744e-01 -2.53962661e-01 
 4.29160000e+10	 9.65403256e-01 -2.57889605e-01 
 4.35850000e+10	 9.64334820e-01 -2.61812159e-01 
 4.42540000e+10	 9.63250454e-01 -2.65730257e-01 
 4.49230000e+10	 9.62150176e-01 -2.69643834e-01 
 4.55920000e+10	 9.61034006e-01 -2.73552824e-01 
 4.62610000e+10	 9.59901964e-01 -2.77457164e-01 
 4.69300000e+10	 9.58754068e-01 -2.81356788e-01 
 4.75990000e+10	 9.57590339e-01 -2.85251631e-01 
 4.82680000e+10	 9.56410796e-01 -2.89141628e-01 
 4.89370000e+10	 9.55215461e-01 -2.93026715e-01 
 4.96060000e+10	 9.54004354e-01 -2.96906828e-01 
 5.02750000e+10	 9.52777496e-01 -3.00781901e-01 
 5.09440000e+10	 9.51534908e-01 -3.04651871e-01 
 5.16130000e+10	 9.50276611e-01 -3.08516673e-01 
 5.22820000e+10	 9.49002628e-01 -3.12376243e-01 
 5.29510000e+10	 9.47712981e-01 -3.16230517e-01 
 5.36200000e+10	 9.46407691e-01 -3.20079431e-01 
 5.42890000e+10	 9.45086781e-01 -3.23922921e-01 
 5.49580000e+10	 9.43750275e-01 -3.27760923e-01 
 5.56270000e+10	 9.42398194e-01 -3.31593374e-01 
 5.62960000e+10	 9.41030563e-01 -3.35420210e-01 
 5.69650000e+10	 9.39647406e-01 -3.39241366e-01 
 5.76340000e+10	 9.38248745e-01 -3.43056781e-01 
 5.83030000e+10	 9.36834605e-01 -3.46866391e-01 
 5.89720000e+10	 9.35405011e-01 -3.50670132e-01 
 5.96410000e+10	 9.33959988e-01 -3.54467941e-01 
 6.03100000e+10	 9.32499559e-01 -3.58259756e-01 
 6.09790000e+10	 9.31023751e-01 -3.62045513e-01 
 6.16480000e+10	 9.29532588e-01 -3.65825150e-01 
 6.23170000e+10	 9.28026097e-01 -3.69598604e-01 
 6.29860000e+10	 9.26504303e-01 -3.73365812e-01 
 6.36550000e+10	 9.24967233e-01 -3.77126713e-01 
 6.43240000e+10	 9.23414913e-01 -3.80881243e-01 
 6.49930000e+10	 9.21847370e-01 -3.84629340e-01 
 6.56620000e+10	 9.20264631e-01 -3.88370943e-01 
 6.63310000e+10	 9.18666723e-01 -3.92105989e-01 
 6.70000000e+10	 9.17053674e-01 -3.95834417e-01 
