! Touchstone Ver. 1.0
! Number of ports is 2
# Hz  S RI  R  	50
! SCATTERING PARAMETERS  :
 1.00000000e+08	 1.24878774e-10  1.11749151e-05  1.00000000e+00 -1.11749151e-05  1.00000000e+00 -1.11749151e-05  1.24878774e-10  1.11749151e-05 
 7.69000000e+08	 7.38483963e-09  8.59350902e-05  9.99999993e-01 -8.59350902e-05  9.99999993e-01 -8.59350902e-05  7.38483985e-09  8.59350902e-05 
 1.43800000e+09	 2.58229591e-08  1.60695235e-04  9.99999974e-01 -1.60695235e-04  9.99999974e-01 -1.60695235e-04  2.58229593e-08  1.60695235e-04 
 2.10700000e+09	 5.54392123e-08  2.35455323e-04  9.99999945e-01 -2.35455323e-04  9.99999945e-01 -2.35455323e-04  5.54392123e-08  2.35455323e-04 
 2.77600000e+09	 9.62335593e-08  3.10215328e-04  9.99999904e-01 -3.10215328e-04  9.99999904e-01 -3.10215328e-04  9.62335593e-08  3.10215328e-04 
 3.44500000e+09	 1.48205945e-07  3.84975224e-04  9.99999852e-01 -3.84975224e-04  9.99999852e-01 -3.84975224e-04  1.48205945e-07  3.84975224e-04 
 4.11400000e+09	 2.11356300e-07  4.59734983e-04  9.99999789e-01 -4.59734983e-04  9.99999789e-01 -4.59734983e-04  2.11356300e-07  4.59734983e-04 
 4.78300000e+09	 2.85684539e-07  5.34494581e-04  9.99999714e-01 -5.34494581e-04  9.99999714e-01 -5.34494581e-04  2.85684539e-07  5.34494581e-04 
 5.45200000e+09	 3.71190562e-07  6.09253990e-04  9.99999629e-01 -6.09253990e-04  9.99999629e-01 -6.09253990e-04  3.71190561e-07  6.09253990e-04 
 6.12100000e+09	 4.67874254e-07  6.84013183e-04  9.99999532e-01 -6.84013183e-04  9.99999532e-01 -6.84013183e-04  4.67874254e-07  6.84013183e-04 
 6.79000000e+09	 5.75735485e-07  7.58772135e-04  9.99999424e-01 -7.58772135e-04  9.99999424e-01 -7.58772135e-04  5.75735485e-07  7.58772135e-04 
 7.45900000e+09	 6.94774110e-07  8.33530820e-04  9.99999305e-01 -8.33530820e-04  9.99999305e-01 -8.33530820e-04  6.94774110e-07  8.33530820e-04 
 8.12800000e+09	 8.24989969e-07  9.08289210e-04  9.99999175e-01 -9.08289210e-04  9.99999175e-01 -9.08289210e-04  8.24989970e-07  9.08289210e-04 
 8.79700000e+09	 9.66382888e-07  9.83047280e-04  9.99999034e-01 -9.83047280e-04  9.99999034e-01 -9.83047280e-04  9.66382888e-07  9.83047280e-04 
 9.46600000e+09	 1.11895267e-06  1.05780500e-03  9.99998881e-01 -1.05780500e-03  9.99998881e-01 -1.05780500e-03  1.11895267e-06  1.05780500e-03 
 1.01350000e+10	 1.28269913e-06  1.13256235e-03  9.99998717e-01 -1.13256235e-03  9.99998717e-01 -1.13256235e-03  1.28269913e-06  1.13256235e-03 
 1.08040000e+10	 1.45762202e-06  1.20731930e-03  9.99998542e-01 -1.20731930e-03  9.99998542e-01 -1.20731930e-03  1.45762202e-06  1.20731930e-03 
 1.14730000e+10	 1.64372112e-06  1.28207582e-03  9.99998356e-01 -1.28207582e-03  9.99998356e-01 -1.28207582e-03  1.64372112e-06  1.28207582e-03 
 1.21420000e+10	 1.84099618e-06  1.35683190e-03  9.99998159e-01 -1.35683190e-03  9.99998159e-01 -1.35683190e-03  1.84099618e-06  1.35683190e-03 
 1.28110000e+10	 2.04944693e-06  1.43158749e-03  9.99997951e-01 -1.43158749e-03  9.99997951e-01 -1.43158749e-03  2.04944693e-06  1.43158749e-03 
 1.34800000e+10	 2.26907310e-06  1.50634257e-03  9.99997731e-01 -1.50634257e-03  9.99997731e-01 -1.50634257e-03  2.26907310e-06  1.50634257e-03 
 1.41490000e+10	 2.49987438e-06  1.58109713e-03  9.99997500e-01 -1.58109713e-03  9.99997500e-01 -1.58109713e-03  2.49987438e-06  1.58109713e-03 
 1.48180000e+10	 2.74185047e-06  1.65585113e-03  9.99997258e-01 -1.65585113e-03  9.99997258e-01 -1.65585113e-03  2.74185047e-06  1.65585113e-03 
 1.54870000e+10	 2.99500104e-06  1.73060454e-03  9.99997005e-01 -1.73060454e-03  9.99997005e-01 -1.73060454e-03  2.99500104e-06  1.73060454e-03 
 1.61560000e+10	 3.25932575e-06  1.80535734e-03  9.99996741e-01 -1.80535734e-03  9.99996741e-01 -1.80535734e-03  3.25932575e-06  1.80535734e-03 
 1.68250000e+10	 3.53482425e-06  1.88010951e-03  9.99996465e-01 -1.88010951e-03  9.99996465e-01 -1.88010951e-03  3.53482425e-06  1.88010951e-03 
 1.74940000e+10	 3.82149616e-06  1.95486101e-03  9.99996179e-01 -1.95486101e-03  9.99996179e-01 -1.95486101e-03  3.82149616e-06  1.95486101e-03 
 1.81630000e+10	 4.11934110e-06  2.02961182e-03  9.99995881e-01 -2.02961182e-03  9.99995881e-01 -2.02961182e-03  4.11934110e-06  2.02961182e-03 
 1.88320000e+10	 4.42835867e-06  2.10436191e-03  9.99995572e-01 -2.10436191e-03  9.99995572e-01 -2.10436191e-03  4.42835867e-06  2.10436191e-03 
 1.95010000e+10	 4.74854845e-06  2.17911126e-03  9.99995251e-01 -2.17911126e-03  9.99995251e-01 -2.17911126e-03  4.74854845e-06  2.17911126e-03 
 2.01700000e+10	 5.07991002e-06  2.25385985e-03  9.99994920e-01 -2.25385985e-03  9.99994920e-01 -2.25385985e-03  5.07991002e-06  2.25385985e-03 
 2.08390000e+10	 5.42244292e-06  2.32860764e-03  9.99994578e-01 -2.32860764e-03  9.99994578e-01 -2.32860764e-03  5.42244292e-06  2.32860764e-03 
 2.15080000e+10	 5.77614670e-06  2.40335460e-03  9.99994224e-01 -2.40335460e-03  9.99994224e-01 -2.40335460e-03  5.77614670e-06  2.40335460e-03 
 2.21770000e+10	 6.14102088e-06  2.47810072e-03  9.99993859e-01 -2.47810072e-03  9.99993859e-01 -2.47810072e-03  6.14102088e-06  2.47810072e-03 
 2.28460000e+10	 6.51706498e-06  2.55284596e-03  9.99993483e-01 -2.55284596e-03  9.99993483e-01 -2.55284596e-03  6.51706498e-06  2.55284596e-03 
 2.35150000e+10	 6.90427847e-06  2.62759030e-03  9.99993096e-01 -2.62759030e-03  9.99993096e-01 -2.62759030e-03  6.90427848e-06  2.62759030e-03 
 2.41840000e+10	 7.30266086e-06  2.70233372e-03  9.99992697e-01 -2.70233372e-03  9.99992697e-01 -2.70233372e-03  7.30266086e-06  2.70233372e-03 
 2.48530000e+10	 7.71221159e-06  2.77707618e-03  9.99992288e-01 -2.77707618e-03  9.99992288e-01 -2.77707618e-03  7.71221159e-06  2.77707618e-03 
 2.55220000e+10	 8.13293012e-06  2.85181766e-03  9.99991867e-01 -2.85181766e-03  9.99991867e-01 -2.85181766e-03  8.13293012e-06  2.85181766e-03 
 2.61910000e+10	 8.56481588e-06  2.92655814e-03  9.99991435e-01 -2.92655814e-03  9.99991435e-01 -2.92655814e-03  8.56481588e-06  2.92655814e-03 
 2.68600000e+10	 9.00786830e-06  3.00129758e-03  9.99990992e-01 -3.00129758e-03  9.99990992e-01 -3.00129758e-03  9.00786830e-06  3.00129758e-03 
 2.75290000e+10	 9.46208677e-06  3.07603596e-03  9.99990538e-01 -3.07603596e-03  9.99990538e-01 -3.07603596e-03  9.46208677e-06  3.07603596e-03 
 2.81980000e+10	 9.92747068e-06  3.15077326e-03  9.99990073e-01 -3.15077326e-03  9.99990073e-01 -3.15077326e-03  9.92747068e-06  3.15077326e-03 
 2.88670000e+10	 1.04040194e-05  3.22550944e-03  9.99989596e-01 -3.22550944e-03  9.99989596e-01 -3.22550944e-03  1.04040194e-05  3.22550944e-03 
 2.95360000e+10	 1.08917323e-05  3.30024449e-03  9.99989108e-01 -3.30024449e-03  9.99989108e-01 -3.30024449e-03  1.08917323e-05  3.30024449e-03 
 3.02050000e+10	 1.13906088e-05  3.37497838e-03  9.99988609e-01 -3.37497838e-03  9.99988609e-01 -3.37497838e-03  1.13906088e-05  3.37497838e-03 
 3.08740000e+10	 1.19006481e-05  3.44971107e-03  9.99988099e-01 -3.44971107e-03  9.99988099e-01 -3.44971107e-03  1.19006481e-05  3.44971107e-03 
 3.15430000e+10	 1.24218495e-05  3.52444254e-03  9.99987578e-01 -3.52444254e-03  9.99987578e-01 -3.52444254e-03  1.24218495e-05  3.52444254e-03 
 3.22120000e+10	 1.29542125e-05  3.59917277e-03  9.99987046e-01 -3.59917277e-03  9.99987046e-01 -3.59917277e-03  1.29542125e-05  3.59917277e-03 
 3.28810000e+10	 1.34977361e-05  3.67390174e-03  9.99986502e-01 -3.67390174e-03  9.99986502e-01 -3.67390174e-03  1.34977361e-05  3.67390174e-03 
 3.35500000e+10	 1.40524199e-05  3.74862940e-03  9.99985948e-01 -3.74862940e-03  9.99985948e-01 -3.74862940e-03  1.40524199e-05  3.74862940e-03 
 3.42190000e+10	 1.46182628e-05  3.82335574e-03  9.99985382e-01 -3.82335574e-03  9.99985382e-01 -3.82335574e-03  1.46182628e-05  3.82335574e-03 
 3.48880000e+10	 1.51952643e-05  3.89808074e-03  9.99984805e-01 -3.89808074e-03  9.99984805e-01 -3.89808074e-03  1.51952643e-05  3.89808074e-03 
 3.55570000e+10	 1.57834236e-05  3.97280435e-03  9.99984217e-01 -3.97280435e-03  9.99984217e-01 -3.97280435e-03  1.57834236e-05  3.97280435e-03 
 3.62260000e+10	 1.63827397e-05  4.04752657e-03  9.99983617e-01 -4.04752657e-03  9.99983617e-01 -4.04752657e-03  1.63827397e-05  4.04752657e-03 
 3.68950000e+10	 1.69932121e-05  4.12224736e-03  9.99983007e-01 -4.12224736e-03  9.99983007e-01 -4.12224736e-03  1.69932121e-05  4.12224736e-03 
 3.75640000e+10	 1.76148397e-05  4.19696669e-03  9.99982385e-01 -4.19696669e-03  9.99982385e-01 -4.19696669e-03  1.76148397e-05  4.19696669e-03 
 3.82330000e+10	 1.82476218e-05  4.27168455e-03  9.99981752e-01 -4.27168455e-03  9.99981752e-01 -4.27168455e-03  1.82476218e-05  4.27168455e-03 
 3.89020000e+10	 1.88915576e-05  4.34640089e-03  9.99981108e-01 -4.34640089e-03  9.99981108e-01 -4.34640089e-03  1.88915576e-05  4.34640089e-03 
 3.95710000e+10	 1.95466462e-05  4.42111571e-03  9.99980453e-01 -4.42111571e-03  9.99980453e-01 -4.42111571e-03  1.95466462e-05  4.42111571e-03 
 4.02400000e+10	 2.02128866e-05  4.49582896e-03  9.99979787e-01 -4.49582896e-03  9.99979787e-01 -4.49582896e-03  2.02128866e-05  4.49582896e-03 
 4.09090000e+10	 2.08902780e-05  4.57054063e-03  9.99979110e-01 -4.57054063e-03  9.99979110e-01 -4.57054063e-03  2.08902780e-05  4.57054063e-03 
 4.15780000e+10	 2.15788195e-05  4.64525068e-03  9.99978421e-01 -4.64525068e-03  9.99978421e-01 -4.64525068e-03  2.15788195e-05  4.64525068e-03 
 4.22470000e+10	 2.22785102e-05  4.71995910e-03  9.99977721e-01 -4.71995910e-03  9.99977721e-01 -4.71995910e-03  2.22785102e-05  4.71995910e-03 
 4.29160000e+10	 2.29893491e-05  4.79466585e-03  9.99977011e-01 -4.79466585e-03  9.99977011e-01 -4.79466585e-03  2.29893491e-05  4.79466585e-03 
 4.35850000e+10	 2.37113353e-05  4.86937091e-03  9.99976289e-01 -4.86937091e-03  9.99976289e-01 -4.86937091e-03  2.37113353e-05  4.86937091e-03 
 4.42540000e+10	 2.44444677e-05  4.94407425e-03  9.99975556e-01 -4.94407425e-03  9.99975556e-01 -4.94407425e-03  2.44444677e-05  4.94407425e-03 
 4.49230000e+10	 2.51887455e-05  5.01877585e-03  9.99974811e-01 -5.01877585e-03  9.99974811e-01 -5.01877585e-03  2.51887455e-05  5.01877585e-03 
 4.55920000e+10	 2.59441676e-05  5.09347568e-03  9.99974056e-01 -5.09347568e-03  9.99974056e-01 -5.09347568e-03  2.59441676e-05  5.09347568e-03 
 4.62610000e+10	 2.67107330e-05  5.16817371e-03  9.99973289e-01 -5.16817371e-03  9.99973289e-01 -5.16817371e-03  2.67107330e-05  5.16817371e-03 
 4.69300000e+10	 2.74884406e-05  5.24286992e-03  9.99972512e-01 -5.24286992e-03  9.99972512e-01 -5.24286992e-03  2.74884406e-05  5.24286992e-03 
 4.75990000e+10	 2.82772895e-05  5.31756428e-03  9.99971723e-01 -5.31756428e-03  9.99971723e-01 -5.31756428e-03  2.82772895e-05  5.31756428e-03 
 4.82680000e+10	 2.90772785e-05  5.39225676e-03  9.99970923e-01 -5.39225676e-03  9.99970923e-01 -5.39225676e-03  2.90772785e-05  5.39225676e-03 
 4.89370000e+10	 2.98884066e-05  5.46694735e-03  9.99970112e-01 -5.46694735e-03  9.99970112e-01 -5.46694735e-03  2.98884066e-05  5.46694735e-03 
 4.96060000e+10	 3.07106727e-05  5.54163600e-03  9.99969289e-01 -5.54163600e-03  9.99969289e-01 -5.54163600e-03  3.07106727e-05  5.54163600e-03 
 5.02750000e+10	 3.15440757e-05  5.61632270e-03  9.99968456e-01 -5.61632270e-03  9.99968456e-01 -5.61632270e-03  3.15440757e-05  5.61632270e-03 
 5.09440000e+10	 3.23886145e-05  5.69100742e-03  9.99967611e-01 -5.69100742e-03  9.99967611e-01 -5.69100742e-03  3.23886145e-05  5.69100742e-03 
 5.16130000e+10	 3.32442879e-05  5.76569013e-03  9.99966756e-01 -5.76569013e-03  9.99966756e-01 -5.76569013e-03  3.32442879e-05  5.76569013e-03 
 5.22820000e+10	 3.41110948e-05  5.84037081e-03  9.99965889e-01 -5.84037081e-03  9.99965889e-01 -5.84037081e-03  3.41110948e-05  5.84037081e-03 
 5.29510000e+10	 3.49890340e-05  5.91504943e-03  9.99965011e-01 -5.91504943e-03  9.99965011e-01 -5.91504943e-03  3.49890340e-05  5.91504943e-03 
 5.36200000e+10	 3.58781044e-05  5.98972597e-03  9.99964122e-01 -5.98972597e-03  9.99964122e-01 -5.98972597e-03  3.58781044e-05  5.98972597e-03 
 5.42890000e+10	 3.67783047e-05  6.06440039e-03  9.99963222e-01 -6.06440039e-03  9.99963222e-01 -6.06440039e-03  3.67783047e-05  6.06440039e-03 
 5.49580000e+10	 3.76896338e-05  6.13907267e-03  9.99962310e-01 -6.13907267e-03  9.99962310e-01 -6.13907267e-03  3.76896338e-05  6.13907267e-03 
 5.56270000e+10	 3.86120903e-05  6.21374279e-03  9.99961388e-01 -6.21374279e-03  9.99961388e-01 -6.21374279e-03  3.86120903e-05  6.21374279e-03 
 5.62960000e+10	 3.95456732e-05  6.28841072e-03  9.99960454e-01 -6.28841072e-03  9.99960454e-01 -6.28841072e-03  3.95456732e-05  6.28841072e-03 
 5.69650000e+10	 4.04903811e-05  6.36307643e-03  9.99959510e-01 -6.36307643e-03  9.99959510e-01 -6.36307643e-03  4.04903811e-05  6.36307643e-03 
 5.76340000e+10	 4.14462127e-05  6.43773989e-03  9.99958554e-01 -6.43773989e-03  9.99958554e-01 -6.43773989e-03  4.14462127e-05  6.43773989e-03 
 5.83030000e+10	 4.24131669e-05  6.51240109e-03  9.99957587e-01 -6.51240109e-03  9.99957587e-01 -6.51240109e-03  4.24131669e-05  6.51240109e-03 
 5.89720000e+10	 4.33912422e-05  6.58705999e-03  9.99956609e-01 -6.58705999e-03  9.99956609e-01 -6.58705999e-03  4.33912422e-05  6.58705999e-03 
 5.96410000e+10	 4.43804373e-05  6.66171657e-03  9.99955620e-01 -6.66171657e-03  9.99955620e-01 -6.66171657e-03  4.43804373e-05  6.66171657e-03 
 6.03100000e+10	 4.53807510e-05  6.73637080e-03  9.99954619e-01 -6.73637080e-03  9.99954619e-01 -6.73637080e-03  4.53807510e-05  6.73637080e-03 
 6.09790000e+10	 4.63921819e-05  6.81102266e-03  9.99953608e-01 -6.81102266e-03  9.99953608e-01 -6.81102266e-03  4.63921819e-05  6.81102266e-03 
 6.16480000e+10	 4.74147286e-05  6.88567211e-03  9.99952585e-01 -6.88567211e-03  9.99952585e-01 -6.88567211e-03  4.74147286e-05  6.88567211e-03 
 6.23170000e+10	 4.84483898e-05  6.96031914e-03  9.99951552e-01 -6.96031914e-03  9.99951552e-01 -6.96031914e-03  4.84483898e-05  6.96031914e-03 
 6.29860000e+10	 4.94931641e-05  7.03496372e-03  9.99950507e-01 -7.03496372e-03  9.99950507e-01 -7.03496372e-03  4.94931641e-05  7.03496372e-03 
 6.36550000e+10	 5.05490500e-05  7.10960581e-03  9.99949451e-01 -7.10960581e-03  9.99949451e-01 -7.10960581e-03  5.05490500e-05  7.10960581e-03 
 6.43240000e+10	 5.16160462e-05  7.18424540e-03  9.99948384e-01 -7.18424540e-03  9.99948384e-01 -7.18424540e-03  5.16160462e-05  7.18424540e-03 
 6.49930000e+10	 5.26941512e-05  7.25888245e-03  9.99947306e-01 -7.25888245e-03  9.99947306e-01 -7.25888245e-03  5.26941512e-05  7.25888245e-03 
 6.56620000e+10	 5.37833635e-05  7.33351695e-03  9.99946217e-01 -7.33351695e-03  9.99946217e-01 -7.33351695e-03  5.37833635e-05  7.33351695e-03 
 6.63310000e+10	 5.48836818e-05  7.40814887e-03  9.99945116e-01 -7.40814887e-03  9.99945116e-01 -7.40814887e-03  5.48836818e-05  7.40814887e-03 
 6.70000000e+10	 5.59951046e-05  7.48277817e-03  9.99944005e-01 -7.48277817e-03  9.99944005e-01 -7.48277817e-03  5.59951046e-05  7.48277817e-03 
