! Touchstone Ver. 1.0
! Number of ports is 2
# Hz  S RI  R  	50
! SCATTERING PARAMETERS  :
 1.00000000e+08	 5.88759448e-04 -7.09240362e-04  9.99392095e-01 -3.14870980e-03  9.99392095e-01 -3.14870979e-03  5.90158345e-04 -7.10291710e-04 
 7.69000000e+08	 3.99163503e-04 -5.45009758e-03  9.99030930e-01 -2.42091977e-02  9.99030930e-01 -2.42091977e-02  4.82639013e-04 -5.46031468e-03 
 1.43800000e+09	-3.57721161e-05 -1.01753777e-02  9.98186890e-01 -4.52532017e-02  9.98186890e-01 -4.52532017e-02  2.54866854e-04 -1.02048165e-02 
 2.10700000e+09	-7.23339906e-04 -1.48728267e-02  9.96869029e-01 -6.62688293e-02  9.96869029e-01 -6.62688293e-02 -1.01255316e-04 -1.49398610e-02 
 2.77600000e+09	-1.67014226e-03 -1.95300128e-02  9.95086631e-01 -8.72447599e-02  9.95086631e-01 -8.72447599e-02 -5.93524632e-04 -1.96606969e-02 
 3.44500000e+09	-2.87412451e-03 -2.41346670e-02  9.92841247e-01 -1.08169572e-01  9.92841247e-01 -1.08169572e-01 -1.22149337e-03 -2.43628230e-02 
 4.11400000e+09	-4.33249249e-03 -2.86746457e-02  9.90134596e-01 -1.29031902e-01  9.90134596e-01 -1.29031902e-01 -1.98437718e-03 -2.90417730e-02 
 4.78300000e+09	-6.04188990e-03 -3.31379558e-02  9.86968739e-01 -1.49820458e-01  9.86968739e-01 -1.49820458e-01 -2.88122670e-03 -3.36931176e-02 
 5.45200000e+09	-7.99505507e-03 -3.75128621e-02  9.83342757e-01 -1.70523586e-01  9.83342757e-01 -1.70523586e-01 -3.90772126e-03 -3.83132761e-02 
 6.12100000e+09	-1.01895052e-02 -4.17877307e-02  9.79261345e-01 -1.91130319e-01  9.79261345e-01 -1.91130319e-01 -5.06455807e-03 -4.28976565e-02 
 6.79000000e+09	-1.26215180e-02 -4.59511562e-02  9.74728813e-01 -2.11629803e-01  9.74728813e-01 -2.11629803e-01 -6.35154798e-03 -4.74417198e-02 
 7.45900000e+09	-1.52856828e-02 -4.99920108e-02  9.69748629e-01 -2.32011182e-01  9.69748629e-01 -2.32011182e-01 -7.76721282e-03 -5.19412254e-02 
 8.12800000e+09	-1.81759857e-02 -5.38994475e-02  9.64324478e-01 -2.52263721e-01  9.64324478e-01 -2.52263721e-01 -9.30982794e-03 -5.63920228e-02 
 8.79700000e+09	-2.12859219e-02 -5.76629219e-02  9.58460350e-01 -2.72376833e-01  9.58460350e-01 -2.72376833e-01 -1.09775201e-02 -6.07900370e-02 
 9.46600000e+09	-2.46085120e-02 -6.12722140e-02  9.52160536e-01 -2.92340091e-01  9.52160536e-01 -2.92340091e-01 -1.27682712e-02 -6.51312742e-02 
 1.01350000e+10	-2.81432172e-02 -6.47162519e-02  9.45436469e-01 -3.12145009e-01  9.45436469e-01 -3.12145009e-01 -1.46863773e-02 -6.94096374e-02 
 1.08040000e+10	-3.18890288e-02 -6.79840241e-02  9.38299808e-01 -3.31783747e-01  9.38299808e-01 -3.31783747e-01 -1.67357471e-02 -7.36186213e-02 
 1.14730000e+10	-3.58260742e-02 -7.10682206e-02  9.30744158e-01 -3.51243745e-01  9.30744158e-01 -3.51243745e-01 -1.89029567e-02 -7.77578735e-02 
 1.21420000e+10	-3.99433849e-02 -7.39604914e-02  9.22772648e-01 -3.70514774e-01  9.22772648e-01 -3.70514774e-01 -2.11832776e-02 -8.18244821e-02 
 1.28110000e+10	-4.42318794e-02 -7.66525411e-02  9.14390917e-01 -3.89587354e-01  9.14390917e-01 -3.89587354e-01 -2.35739998e-02 -8.58149692e-02 
 1.34800000e+10	-4.86821189e-02 -7.91365122e-02  9.05604844e-01 -4.08452221e-01  9.05604844e-01 -4.08452221e-01 -2.60722978e-02 -8.97259703e-02 
 1.41490000e+10	-5.32843293e-02 -8.14050000e-02  8.96420543e-01 -4.27100330e-01  8.96420543e-01 -4.27100330e-01 -2.86752361e-02 -9.35542381e-02 
 1.48180000e+10	-5.80284239e-02 -8.34510658e-02  8.86844350e-01 -4.45522867e-01  8.86844350e-01 -4.45522867e-01 -3.13797747e-02 -9.72966466e-02 
 1.54870000e+10	-6.29040271e-02 -8.52682499e-02  8.76882812e-01 -4.63711253e-01  8.76882812e-01 -4.63711253e-01 -3.41827750e-02 -1.00950194e-01 
 1.61560000e+10	-6.79004980e-02 -8.68505825e-02  8.66542679e-01 -4.81657148e-01  8.66542679e-01 -4.81657148e-01 -3.70810050e-02 -1.04512007e-01 
 1.68250000e+10	-7.30069545e-02 -8.81925931e-02  8.55830890e-01 -4.99352457e-01  8.55830890e-01 -4.99352457e-01 -4.00711458e-02 -1.07979342e-01 
 1.74940000e+10	-7.82122979e-02 -8.92893201e-02  8.44754561e-01 -5.16789339e-01  8.44754561e-01 -5.16789339e-01 -4.31497971e-02 -1.11349588e-01 
 1.81630000e+10	-8.35052372e-02 -9.01363171e-02  8.33320978e-01 -5.33960201e-01  8.33320978e-01 -5.33960201e-01 -4.63134834e-02 -1.14620271e-01 
 1.88320000e+10	-8.88743144e-02 -9.07296595e-02  8.21537581e-01 -5.50857712e-01  8.21537581e-01 -5.50857712e-01 -4.95586599e-02 -1.17789053e-01 
 1.95010000e+10	-9.43079287e-02 -9.10659494e-02  8.09411954e-01 -5.67474796e-01  8.09411954e-01 -5.67474796e-01 -5.28817185e-02 -1.20853735e-01 
 2.01700000e+10	-9.97943621e-02 -9.11423186e-02  7.96951818e-01 -5.83804643e-01  7.96951818e-01 -5.83804643e-01 -5.62789939e-02 -1.23812259e-01 
 2.08390000e+10	-1.05321804e-01 -9.09564314e-02  7.84165012e-01 -5.99840703e-01  7.84165012e-01 -5.99840703e-01 -5.97467699e-02 -1.26662708e-01 
 2.15080000e+10	-1.10878375e-01 -9.05064855e-02  7.71059489e-01 -6.15576690e-01  7.71059489e-01 -6.15576690e-01 -6.32812846e-02 -1.29403305e-01 
 2.21770000e+10	-1.16452152e-01 -8.97912120e-02  7.57643301e-01 -6.31006583e-01  7.57643301e-01 -6.31006583e-01 -6.68787375e-02 -1.32032419e-01 
 2.28460000e+10	-1.22031195e-01 -8.88098739e-02  7.43924589e-01 -6.46124626e-01  7.43924589e-01 -6.46124626e-01 -7.05352942e-02 -1.34548558e-01 
 2.35150000e+10	-1.27603565e-01 -8.75622641e-02  7.29911573e-01 -6.60925325e-01  7.29911573e-01 -6.60925325e-01 -7.42470931e-02 -1.36950376e-01 
 2.41840000e+10	-1.33157354e-01 -8.60487018e-02  7.15612540e-01 -6.75403448e-01  7.15612540e-01 -6.75403448e-01 -7.80102508e-02 -1.39236668e-01 
 2.48530000e+10	-1.38680704e-01 -8.42700276e-02  7.01035838e-01 -6.89554025e-01  7.01035838e-01 -6.89554025e-01 -8.18208678e-02 -1.41406370e-01 
 2.55220000e+10	-1.44161831e-01 -8.22275987e-02  6.86189859e-01 -7.03372342e-01  6.86189859e-01 -7.03372342e-01 -8.56750339e-02 -1.43458560e-01 
 2.61910000e+10	-1.49589048e-01 -7.99232816e-02  6.71083036e-01 -7.16853944e-01  6.71083036e-01 -7.16853944e-01 -8.95688337e-02 -1.45392454e-01 
 2.68600000e+10	-1.54950785e-01 -7.73594451e-02  6.55723829e-01 -7.29994625e-01  6.55723829e-01 -7.29994625e-01 -9.34983521e-02 -1.47207410e-01 
 2.75290000e+10	-1.60235613e-01 -7.45389518e-02  6.40120720e-01 -7.42790433e-01  6.40120720e-01 -7.42790433e-01 -9.74596792e-02 -1.48902921e-01 
 2.81980000e+10	-1.65432261e-01 -7.14651488e-02  6.24282201e-01 -7.55237658e-01  6.24282201e-01 -7.55237658e-01 -1.01448915e-01 -1.50478615e-01 
 2.88670000e+10	-1.70529636e-01 -6.81418580e-02  6.08216765e-01 -7.67332833e-01  6.08216765e-01 -7.67332833e-01 -1.05462176e-01 -1.51934256e-01 
 2.95360000e+10	-1.75516848e-01 -6.45733647e-02  5.91932902e-01 -7.79072730e-01  5.91932902e-01 -7.79072730e-01 -1.09495596e-01 -1.53269737e-01 
 3.02050000e+10	-1.80383219e-01 -6.07644068e-02  5.75439088e-01 -7.90454352e-01  5.75439088e-01 -7.90454352e-01 -1.13545337e-01 -1.54485082e-01 
 3.08740000e+10	-1.85118308e-01 -5.67201620e-02  5.58743779e-01 -8.01474928e-01  5.58743779e-01 -8.01474928e-01 -1.17607585e-01 -1.55580444e-01 
 3.15430000e+10	-1.89711928e-01 -5.24462357e-02  5.41855402e-01 -8.12131914e-01  5.41855402e-01 -8.12131914e-01 -1.21678563e-01 -1.56556097e-01 
 3.22120000e+10	-1.94154156e-01 -4.79486469e-02  5.24782353e-01 -8.22422981e-01  5.24782353e-01 -8.22422981e-01 -1.25754530e-01 -1.57412439e-01 
 3.28810000e+10	-1.98435355e-01 -4.32338148e-02  5.07532985e-01 -8.32346010e-01  5.07532985e-01 -8.32346010e-01 -1.29831784e-01 -1.58149989e-01 
 3.35500000e+10	-2.02546187e-01 -3.83085441e-02  4.90115608e-01 -8.41899090e-01  4.90115608e-01 -8.41899090e-01 -1.33906670e-01 -1.58769381e-01 
 3.42190000e+10	-2.06477625e-01 -3.31800105e-02  4.72538479e-01 -8.51080511e-01  4.72538479e-01 -8.51080511e-01 -1.37975580e-01 -1.59271362e-01 
 3.48880000e+10	-2.10220968e-01 -2.78557453e-02  4.54809799e-01 -8.59888754e-01  4.54809799e-01 -8.59888754e-01 -1.42034958e-01 -1.59656791e-01 
 3.55570000e+10	-2.13767854e-01 -2.23436196e-02  4.36937709e-01 -8.68322491e-01  4.36937709e-01 -8.68322491e-01 -1.46081301e-01 -1.59926636e-01 
 3.62260000e+10	-2.17110269e-01 -1.66518289e-02  4.18930286e-01 -8.76380574e-01  4.18930286e-01 -8.76380574e-01 -1.50111165e-01 -1.60081968e-01 
 3.68950000e+10	-2.20240560e-01 -1.07888765e-02  4.00795537e-01 -8.84062032e-01  4.00795537e-01 -8.84062032e-01 -1.54121167e-01 -1.60123958e-01 
 3.75640000e+10	-2.23151446e-01 -4.76355729e-03  3.82541397e-01 -8.91366061e-01  3.82541397e-01 -8.91366061e-01 -1.58107985e-01 -1.60053879e-01 
 3.82330000e+10	-2.25836025e-01  1.41505901e-03  3.64175727e-01 -8.98292024e-01  3.64175727e-01 -8.98292024e-01 -1.62068364e-01 -1.59873096e-01 
 3.89020000e+10	-2.28287784e-01  7.73764444e-03  3.45706310e-01 -9.04839437e-01  3.45706310e-01 -9.04839437e-01 -1.65999116e-01 -1.59583067e-01 
 3.95710000e+10	-2.30500606e-01  1.41946298e-02  3.27140848e-01 -9.11007970e-01  3.27140848e-01 -9.11007970e-01 -1.69897124e-01 -1.59185340e-01 
 4.02400000e+10	-2.32468778e-01  2.07762218e-02  3.08486962e-01 -9.16797435e-01  3.08486962e-01 -9.16797435e-01 -1.73759342e-01 -1.58681544e-01 
 4.09090000e+10	-2.34186997e-01  2.74724197e-02  2.89752190e-01 -9.22207786e-01  2.89752190e-01 -9.22207786e-01 -1.77582798e-01 -1.58073394e-01 
 4.15780000e+10	-2.35650374e-01  3.42730332e-02  2.70943985e-01 -9.27239105e-01  2.70943985e-01 -9.27239105e-01 -1.81364594e-01 -1.57362682e-01 
 4.22470000e+10	-2.36854444e-01  4.11676986e-02  2.52069712e-01 -9.31891604e-01  2.52069712e-01 -9.31891604e-01 -1.85101912e-01 -1.56551275e-01 
 4.29160000e+10	-2.37795164e-01  4.81458969e-02  2.33136653e-01 -9.36165615e-01  2.33136653e-01 -9.36165615e-01 -1.88792010e-01 -1.55641114e-01 
 4.35850000e+10	-2.38468921e-01  5.51969702e-02  2.14152002e-01 -9.40061585e-01  2.14152002e-01 -9.40061585e-01 -1.92432226e-01 -1.54634205e-01 
 4.42540000e+10	-2.38872534e-01  6.23101390e-02  1.95122864e-01 -9.43580072e-01  1.95122864e-01 -9.43580072e-01 -1.96019981e-01 -1.53532625e-01 
 4.49230000e+10	-2.39003254e-01  6.94745191e-02  1.76056262e-01 -9.46721737e-01  1.76056262e-01 -9.46721737e-01 -1.99552774e-01 -1.52338508e-01 
 4.55920000e+10	-2.38858770e-01  7.66791387e-02  1.56959128e-01 -9.49487339e-01  1.56959128e-01 -9.49487339e-01 -2.03028189e-01 -1.51054052e-01 
 4.62610000e+10	-2.38437207e-01  8.39129546e-02  1.37838313e-01 -9.51877735e-01  1.37838313e-01 -9.51877735e-01 -2.06443893e-01 -1.49681508e-01 
 4.69300000e+10	-2.37737127e-01  9.11648696e-02  1.18700580e-01 -9.53893867e-01  1.18700580e-01 -9.53893867e-01 -2.09797639e-01 -1.48223182e-01 
 4.75990000e+10	-2.36757531e-01  9.84237483e-02  9.95526118e-02 -9.55536765e-01  9.95526118e-02 -9.55536765e-01 -2.13087261e-01 -1.46681428e-01 
 4.82680000e+10	-2.35497855e-01  1.05678434e-01  8.04010077e-02 -9.56807538e-01  8.04010077e-02 -9.56807538e-01 -2.16310681e-01 -1.45058651e-01 
 4.89370000e+10	-2.33957973e-01  1.12917764e-01  6.12522873e-02 -9.57707370e-01  6.12522873e-02 -9.57707370e-01 -2.19465905e-01 -1.43357296e-01 
 4.96060000e+10	-2.32138191e-01  1.20130586e-01  4.21128917e-02 -9.58237519e-01  4.21128917e-02 -9.58237519e-01 -2.22551027e-01 -1.41579853e-01 
 5.02750000e+10	-2.30039250e-01  1.27305775e-01  2.29891855e-02 -9.58399309e-01  2.29891855e-02 -9.58399309e-01 -2.25564225e-01 -1.39728849e-01 
 5.09440000e+10	-2.27662318e-01  1.34432248e-01  3.88745913e-03 -9.58194130e-01  3.88745913e-03 -9.58194130e-01 -2.28503764e-01 -1.37806846e-01 
 5.16130000e+10	-2.25008993e-01  1.41498978e-01 -1.51860694e-02 -9.57623433e-01 -1.51860694e-02 -9.57623433e-01 -2.31367996e-01 -1.35816440e-01 
 5.22820000e+10	-2.22081293e-01  1.48495011e-01 -3.42252519e-02 -9.56688726e-01 -3.42252519e-02 -9.56688726e-01 -2.34155358e-01 -1.33760258e-01 
 5.29510000e+10	-2.18881657e-01  1.55409481e-01 -5.32240073e-02 -9.55391573e-01 -5.32240073e-02 -9.55391573e-01 -2.36864375e-01 -1.31640956e-01 
 5.36200000e+10	-2.15412938e-01  1.62231625e-01 -7.21763197e-02 -9.53733591e-01 -7.21763197e-02 -9.53733591e-01 -2.39493655e-01 -1.29461211e-01 
 5.42890000e+10	-2.11678401e-01  1.68950794e-01 -9.10762349e-02 -9.51716446e-01 -9.10762349e-02 -9.51716446e-01 -2.42041897e-01 -1.27223728e-01 
 5.49580000e+10	-2.07681714e-01  1.75556472e-01 -1.09917859e-01 -9.49341853e-01 -1.09917859e-01 -9.49341853e-01 -2.44507881e-01 -1.24931230e-01 
 5.56270000e+10	-2.03426945e-01  1.82038290e-01 -1.28695353e-01 -9.46611570e-01 -1.28695353e-01 -9.46611570e-01 -2.46890475e-01 -1.22586457e-01 
 5.62960000e+10	-1.98918556e-01  1.88386033e-01 -1.47402933e-01 -9.43527404e-01 -1.47402933e-01 -9.43527404e-01 -2.49188633e-01 -1.20192168e-01 
 5.69650000e+10	-1.94161394e-01  1.94589663e-01 -1.66034867e-01 -9.40091199e-01 -1.66034867e-01 -9.40091199e-01 -2.51401391e-01 -1.17751132e-01 
 5.76340000e+10	-1.89160690e-01  2.00639326e-01 -1.84585470e-01 -9.36304846e-01 -1.84585470e-01 -9.36304846e-01 -2.53527873e-01 -1.15266131e-01 
 5.83030000e+10	-1.83922044e-01  2.06525366e-01 -2.03049101e-01 -9.32170272e-01 -2.03049101e-01 -9.32170272e-01 -2.55567284e-01 -1.12739956e-01 
 5.89720000e+10	-1.78451426e-01  2.12238342e-01 -2.21420164e-01 -9.27689447e-01 -2.21420164e-01 -9.27689447e-01 -2.57518915e-01 -1.10175405e-01 
 5.96410000e+10	-1.72755160e-01  2.17769033e-01 -2.39693100e-01 -9.22864376e-01 -2.39693100e-01 -9.22864376e-01 -2.59382140e-01 -1.07575279e-01 
 6.03100000e+10	-1.66839923e-01  2.23108460e-01 -2.57862388e-01 -9.17697107e-01 -2.57862388e-01 -9.17697107e-01 -2.61156414e-01 -1.04942385e-01 
 6.09790000e+10	-1.60712731e-01  2.28247887e-01 -2.75922540e-01 -9.12189724e-01 -2.75922540e-01 -9.12189724e-01 -2.62841277e-01 -1.02279528e-01 
 6.16480000e+10	-1.54380934e-01  2.33178844e-01 -2.93868100e-01 -9.06344351e-01 -2.93868100e-01 -9.06344351e-01 -2.64436349e-01 -9.95895115e-02 
 6.23170000e+10	-1.47852205e-01  2.37893130e-01 -3.11693640e-01 -9.00163151e-01 -3.11693640e-01 -9.00163151e-01 -2.65941332e-01 -9.68751377e-02 
 6.29860000e+10	-1.41134531e-01  2.42382828e-01 -3.29393757e-01 -8.93648325e-01 -3.29393757e-01 -8.93648325e-01 -2.67356009e-01 -9.41392023e-02 
 6.36550000e+10	-1.34236203e-01  2.46640318e-01 -3.46963072e-01 -8.86802116e-01 -3.46963072e-01 -8.86802116e-01 -2.68680241e-01 -9.13844940e-02 
 6.43240000e+10	-1.27165805e-01  2.50658282e-01 -3.64396227e-01 -8.79626808e-01 -3.64396227e-01 -8.79626808e-01 -2.69913972e-01 -8.86137926e-02 
 6.49930000e+10	-1.19932205e-01  2.54429719e-01 -3.81687880e-01 -8.72124727e-01 -3.81687880e-01 -8.72124727e-01 -2.71057223e-01 -8.58298671e-02 
 6.56620000e+10	-1.12544546e-01  2.57947957e-01 -3.98832708e-01 -8.64298244e-01 -3.98832708e-01 -8.64298244e-01 -2.72110093e-01 -8.30354737e-02 
 6.63310000e+10	-1.05012229e-01  2.61206655e-01 -4.15825400e-01 -8.56149774e-01 -4.15825400e-01 -8.56149774e-01 -2.73072759e-01 -8.02333541e-02 
 6.70000000e+10	-9.73449078e-02  2.64199821e-01 -4.32660658e-01 -8.47681779e-01 -4.32660658e-01 -8.47681779e-01 -2.73945477e-01 -7.74262337e-02 
