! Touchstone Ver. 1.0
! Number of ports is 2
# Hz  S RI  R  	50
! SCATTERING PARAMETERS  :
 1.00000000e+08	 6.24383995e-04 -6.11951604e-04  9.99357323e-01 -3.11856461e-03  9.99357323e-01 -3.11856457e-03  6.25790130e-04 -6.13029991e-04 
 7.69000000e+08	 4.53687296e-04 -4.70233806e-03  9.99007857e-01 -2.39776851e-02  9.99007857e-01 -2.39776851e-02  5.37599526e-04 -4.71273437e-03 
 1.43800000e+09	 6.81215682e-05 -8.77880535e-03  9.98187895e-01 -4.48213896e-02  9.98187895e-01 -4.48213896e-02  3.60290299e-04 -8.80852997e-03 
 2.10700000e+09	-5.40608346e-04 -1.28304059e-02  9.96907279e-01 -6.56385922e-02  9.96907279e-01 -6.56385922e-02  8.47772488e-05 -1.28977730e-02 
 2.77600000e+09	-1.38015864e-03 -1.68459448e-02  9.95176022e-01 -8.64188445e-02  9.95176022e-01 -8.64188445e-02 -2.97766051e-04 -1.69769117e-02 
 3.44500000e+09	-2.44873785e-03 -2.08143939e-02  9.92995494e-01 -1.07151566e-01  9.92995494e-01 -1.07151566e-01 -7.87122219e-04 -2.10426589e-02 
 4.11400000e+09	-3.74385883e-03 -2.47248342e-02  9.90367169e-01 -1.27826220e-01  9.90367169e-01 -1.27826220e-01 -1.38277280e-03 -2.50917509e-02 
 4.78300000e+09	-5.26253271e-03 -2.85664771e-02  9.87292809e-01 -1.48432323e-01  9.87292809e-01 -1.48432323e-01 -2.08408714e-03 -2.91209464e-02 
 5.45200000e+09	-6.99733971e-03 -3.23288407e-02  9.83770570e-01 -1.68958918e-01  9.83770570e-01 -1.68958918e-01 -2.88653943e-03 -3.31279501e-02 
 6.12100000e+09	-8.94662877e-03 -3.60014229e-02  9.79805104e-01 -1.89395829e-01  9.79805104e-01 -1.89395829e-01 -3.79159650e-03 -3.71092855e-02 
 6.79000000e+09	-1.11074385e-02 -3.95739193e-02  9.75400503e-01 -2.09732975e-01  9.75400503e-01 -2.09732975e-01 -4.79976112e-03 -4.10615067e-02 
 7.45900000e+09	-1.34749677e-02 -4.30362909e-02  9.70559773e-01 -2.29960208e-01  9.70559773e-01 -2.29960208e-01 -5.91009301e-03 -4.49814749e-02 
 8.12800000e+09	-1.60438454e-02 -4.63787455e-02  9.65286077e-01 -2.50067475e-01  9.65286077e-01 -2.50067475e-01 -7.12143552e-03 -4.88661177e-02 
 8.79700000e+09	-1.88082580e-02 -4.95917543e-02  9.59582846e-01 -2.70044832e-01  9.59582846e-01 -2.70044832e-01 -8.43252881e-03 -5.27124093e-02 
 9.46600000e+09	-2.17619630e-02 -5.26660718e-02  9.53453770e-01 -2.89882460e-01  9.53453770e-01 -2.89882460e-01 -9.84201201e-03 -5.65173743e-02 
 1.01350000e+10	-2.49055165e-02 -5.55914323e-02  9.46909958e-01 -3.09572570e-01  9.46909958e-01 -3.09572570e-01 -1.13551878e-02 -6.02757587e-02 
 1.08040000e+10	-2.82390350e-02 -5.83575536e-02  9.39962690e-01 -3.29108008e-01  9.39962690e-01 -3.29108008e-01 -1.29769979e-02 -6.39818294e-02 
 1.14730000e+10	-3.17429651e-02 -6.09581510e-02  9.32604361e-01 -3.48476505e-01  9.32604361e-01 -3.48476505e-01 -1.46942704e-02 -6.76363653e-02 
 1.21420000e+10	-3.54071205e-02 -6.33857014e-02  9.24837279e-01 -3.67668234e-01  9.24837279e-01 -3.67668234e-01 -1.65029862e-02 -7.12373751e-02 
 1.28110000e+10	-3.92233367e-02 -6.56326473e-02  9.16666334e-01 -3.86674111e-01  9.16666334e-01 -3.86674111e-01 -1.84012806e-02 -7.47822185e-02 
 1.34800000e+10	-4.31831181e-02 -6.76918178e-02  9.08096643e-01 -4.05485221e-01  9.08096643e-01 -4.05485221e-01 -2.03872053e-02 -7.82683274e-02 
 1.41490000e+10	-4.72776576e-02 -6.95564418e-02  8.99133535e-01 -4.24092822e-01  8.99133535e-01 -4.24092822e-01 -2.24587317e-02 -8.16932093e-02 
 1.48180000e+10	-5.14978556e-02 -7.12201617e-02  8.89782550e-01 -4.42488353e-01  8.89782550e-01 -4.42488353e-01 -2.46137545e-02 -8.50544496e-02 
 1.54870000e+10	-5.58343399e-02 -7.26770450e-02  8.80049428e-01 -4.60663440e-01  8.80049428e-01 -4.60663440e-01 -2.68500945e-02 -8.83497142e-02 
 1.61560000e+10	-6.02774864e-02 -7.39215953e-02  8.69940100e-01 -4.78609900e-01  8.69940100e-01 -4.78609900e-01 -2.91655025e-02 -9.15767521e-02 
 1.68250000e+10	-6.48174401e-02 -7.49487625e-02  8.59460683e-01 -4.96319744e-01  8.59460683e-01 -4.96319744e-01 -3.15576628e-02 -9.47333969e-02 
 1.74940000e+10	-6.94441358e-02 -7.57539513e-02  8.48617470e-01 -5.13785186e-01  8.48617470e-01 -5.13785186e-01 -3.40241963e-02 -9.78175695e-02 
 1.81630000e+10	-7.41473200e-02 -7.63330292e-02  8.37416923e-01 -5.30998645e-01  8.37416923e-01 -5.30998645e-01 -3.65626651e-02 -1.00827280e-01 
 1.88320000e+10	-7.89165724e-02 -7.66823332e-02  8.25865663e-01 -5.47952744e-01  8.25865663e-01 -5.47952744e-01 -3.91705752e-02 -1.03760627e-01 
 1.95010000e+10	-8.37413281e-02 -7.67986759e-02  8.13970462e-01 -5.64640323e-01  8.13970462e-01 -5.64640323e-01 -4.18453809e-02 -1.06615805e-01 
 2.01700000e+10	-8.86108992e-02 -7.66793493e-02  8.01738237e-01 -5.81054431e-01  8.01738237e-01 -5.81054431e-01 -4.45844882e-02 -1.09391097e-01 
 2.08390000e+10	-9.35144972e-02 -7.63221293e-02  7.89176039e-01 -5.97188338e-01  7.89176039e-01 -5.97188338e-01 -4.73852588e-02 -1.12084884e-01 
 2.15080000e+10	-9.84412548e-02 -7.57252776e-02  7.76291044e-01 -6.13035529e-01  7.76291044e-01 -6.13035529e-01 -5.02450137e-02 -1.14695641e-01 
 2.21770000e+10	-1.03380248e-01 -7.48875433e-02  7.63090547e-01 -6.28589711e-01  7.63090547e-01 -6.28589711e-01 -5.31610373e-02 -1.17221940e-01 
 2.28460000e+10	-1.08320520e-01 -7.38081636e-02  7.49581952e-01 -6.43844813e-01  7.49581952e-01 -6.43844813e-01 -5.61305805e-02 -1.19662447e-01 
 2.35150000e+10	-1.13251098e-01 -7.24868629e-02  7.35772765e-01 -6.58794984e-01  7.35772765e-01 -6.58794984e-01 -5.91508655e-02 -1.22015930e-01 
 2.41840000e+10	-1.18161020e-01 -7.09238518e-02  7.21670585e-01 -6.73434598e-01  7.21670585e-01 -6.73434598e-01 -6.22190885e-02 -1.24281250e-01 
 2.48530000e+10	-1.23039355e-01 -6.91198238e-02  7.07283095e-01 -6.87758250e-01  7.07283095e-01 -6.87758250e-01 -6.53324240e-02 -1.26457368e-01 
 2.55220000e+10	-1.27875223e-01 -6.70759527e-02  6.92618056e-01 -7.01760760e-01  6.92618056e-01 -7.01760760e-01 -6.84880285e-02 -1.28543343e-01 
 2.61910000e+10	-1.32657815e-01 -6.47938875e-02  6.77683297e-01 -7.15437168e-01  6.77683297e-01 -7.15437168e-01 -7.16830438e-02 -1.30538331e-01 
 2.68600000e+10	-1.37376415e-01 -6.22757475e-02  6.62486710e-01 -7.28782736e-01  6.62486710e-01 -7.28782736e-01 -7.49146008e-02 -1.32441584e-01 
 2.75290000e+10	-1.42020422e-01 -5.95241161e-02  6.47036241e-01 -7.41792948e-01  6.47036241e-01 -7.41792948e-01 -7.81798228e-02 -1.34252453e-01 
 2.81980000e+10	-1.46579365e-01 -5.65420340e-02  6.31339881e-01 -7.54463503e-01  6.31339881e-01 -7.54463503e-01 -8.14758295e-02 -1.35970384e-01 
 2.88670000e+10	-1.51042925e-01 -5.33329908e-02  6.15405663e-01 -7.66790321e-01  6.15405663e-01 -7.66790321e-01 -8.47997398e-02 -1.37594919e-01 
 2.95360000e+10	-1.55400955e-01 -4.99009172e-02  5.99241649e-01 -7.78769532e-01  5.99241649e-01 -7.78769532e-01 -8.81486752e-02 -1.39125695e-01 
 3.02050000e+10	-1.59643493e-01 -4.62501752e-02  5.82855931e-01 -7.90397484e-01  5.82855931e-01 -7.90397484e-01 -9.15197634e-02 -1.40562442e-01 
 3.08740000e+10	-1.63760787e-01 -4.23855482e-02  5.66256618e-01 -8.01670732e-01  5.66256618e-01 -8.01670732e-01 -9.49101413e-02 -1.41904984e-01 
 3.15430000e+10	-1.67743305e-01 -3.83122305e-02  5.49451833e-01 -8.12586039e-01  5.49451833e-01 -8.12586039e-01 -9.83169578e-02 -1.43153235e-01 
 3.22120000e+10	-1.71581755e-01 -3.40358155e-02  5.32449704e-01 -8.23140371e-01  5.32449704e-01 -8.23140371e-01 -1.01737377e-01 -1.44307201e-01 
 3.28810000e+10	-1.75267102e-01 -2.95622845e-02  5.15258364e-01 -8.33330899e-01  5.15258364e-01 -8.33330899e-01 -1.05168582e-01 -1.45366977e-01 
 3.35500000e+10	-1.78790580e-01 -2.48979934e-02  4.97885940e-01 -8.43154988e-01  4.97885940e-01 -8.43154988e-01 -1.08607776e-01 -1.46332744e-01 
 3.42190000e+10	-1.82143707e-01 -2.00496604e-02  4.80340547e-01 -8.52610201e-01  4.80340547e-01 -8.52610201e-01 -1.12052185e-01 -1.47204770e-01 
 3.48880000e+10	-1.85318301e-01 -1.50243520e-02  4.62630290e-01 -8.61694289e-01  4.62630290e-01 -8.61694289e-01 -1.15499064e-01 -1.47983409e-01 
 3.55570000e+10	-1.88306493e-01 -9.82946919e-03  4.44763252e-01 -8.70405194e-01  4.44763252e-01 -8.70405194e-01 -1.18945694e-01 -1.48669094e-01 
 3.62260000e+10	-1.91100735e-01 -4.47273300e-03  4.26747492e-01 -8.78741036e-01  4.26747492e-01 -8.78741036e-01 -1.22389389e-01 -1.49262343e-01 
 3.68950000e+10	-1.93693819e-01  1.03783021e-03  4.08591043e-01 -8.86700121e-01  4.08591043e-01 -8.86700121e-01 -1.25827495e-01 -1.49763752e-01 
 3.75640000e+10	-1.96078883e-01  6.69390398e-03  3.90301903e-01 -8.94280925e-01  3.90301903e-01 -8.94280925e-01 -1.29257396e-01 -1.50173993e-01 
 3.82330000e+10	-1.98249421e-01  1.24868972e-02  3.71888038e-01 -9.01482098e-01  3.71888038e-01 -9.01482098e-01 -1.32676513e-01 -1.50493816e-01 
 3.89020000e+10	-2.00199297e-01  1.84079598e-02  3.53357371e-01 -9.08302457e-01  3.53357371e-01 -9.08302457e-01 -1.36082306e-01 -1.50724042e-01 
 3.95710000e+10	-2.01922750e-01  2.44479990e-02  3.34717785e-01 -9.14740982e-01  3.34717785e-01 -9.14740982e-01 -1.39472279e-01 -1.50865565e-01 
 4.02400000e+10	-2.03414405e-01  3.05976952e-02  3.15977118e-01 -9.20796812e-01  3.15977118e-01 -9.20796812e-01 -1.42843977e-01 -1.50919350e-01 
 4.09090000e+10	-2.04669277e-01  3.68475187e-02  2.97143158e-01 -9.26469241e-01  2.97143158e-01 -9.26469241e-01 -1.46194992e-01 -1.50886426e-01 
 4.15780000e+10	-2.05682783e-01  4.31877462e-02  2.78223644e-01 -9.31757712e-01  2.78223644e-01 -9.31757712e-01 -1.49522965e-01 -1.50767891e-01 
 4.22470000e+10	-2.06450742e-01  4.96084775e-02  2.59226262e-01 -9.36661817e-01  2.59226262e-01 -9.36661817e-01 -1.52825582e-01 -1.50564904e-01 
 4.29160000e+10	-2.06969388e-01  5.60996524e-02  2.40158644e-01 -9.41181287e-01  2.40158644e-01 -9.41181287e-01 -1.56100582e-01 -1.50278686e-01 
 4.35850000e+10	-2.07235367e-01  6.26510677e-02  2.21028364e-01 -9.45315993e-01  2.21028364e-01 -9.45315993e-01 -1.59345755e-01 -1.49910518e-01 
 4.42540000e+10	-2.07245747e-01  6.92523939e-02  2.01842939e-01 -9.49065940e-01  2.01842939e-01 -9.49065940e-01 -1.62558943e-01 -1.49461738e-01 
 4.49230000e+10	-2.06998019e-01  7.58931925e-02  1.82609829e-01 -9.52431262e-01  1.82609829e-01 -9.52431262e-01 -1.65738042e-01 -1.48933737e-01 
 4.55920000e+10	-2.06490099e-01  8.25629330e-02  1.63336429e-01 -9.55412220e-01  1.63336429e-01 -9.55412220e-01 -1.68881005e-01 -1.48327960e-01 
 4.62610000e+10	-2.05720331e-01  8.92510095e-02  1.44030077e-01 -9.58009197e-01  1.44030077e-01 -9.58009197e-01 -1.71985838e-01 -1.47645904e-01 
 4.69300000e+10	-2.04687492e-01  9.59467583e-02  1.24698047e-01 -9.60222692e-01  1.24698047e-01 -9.60222692e-01 -1.75050608e-01 -1.46889112e-01 
 4.75990000e+10	-2.03390785e-01  1.02639474e-01  1.05347552e-01 -9.62053323e-01  1.05347552e-01 -9.62053323e-01 -1.78073436e-01 -1.46059176e-01 
 4.82680000e+10	-2.01829848e-01  1.09318428e-01  8.59857415e-02 -9.63501814e-01  8.59857415e-02 -9.63501814e-01 -1.81052505e-01 -1.45157729e-01 
 4.89370000e+10	-2.00004747e-01  1.15972882e-01  6.66197018e-02 -9.64569002e-01  6.66197018e-02 -9.64569002e-01 -1.83986055e-01 -1.44186449e-01 
 4.96060000e+10	-1.97915979e-01  1.22592108e-01  4.72564570e-02 -9.65255824e-01  4.72564570e-02 -9.65255824e-01 -1.86872389e-01 -1.43147054e-01 
 5.02750000e+10	-1.95564468e-01  1.29165404e-01  2.79029683e-02 -9.65563320e-01  2.79029683e-02 -9.65563320e-01 -1.89709867e-01 -1.42041299e-01 
 5.09440000e+10	-1.92951565e-01  1.35682107e-01  8.56613458e-03 -9.65492627e-01  8.56613458e-03 -9.65492627e-01 -1.92496915e-01 -1.40870974e-01 
 5.16130000e+10	-1.90079044e-01  1.42131614e-01 -1.07472074e-02 -9.65044977e-01 -1.07472074e-02 -9.65044977e-01 -1.95232016e-01 -1.39637905e-01 
 5.22820000e+10	-1.86949098e-01  1.48503396e-01 -3.00302823e-02 -9.64221696e-01 -3.00302823e-02 -9.64221696e-01 -1.97913717e-01 -1.38343949e-01 
 5.29510000e+10	-1.83564339e-01  1.54787013e-01 -4.92763755e-02 -9.63024197e-01 -4.92763755e-02 -9.63024197e-01 -2.00540630e-01 -1.36990994e-01 
 5.36200000e+10	-1.79927788e-01  1.60972129e-01 -6.84788325e-02 -9.61453981e-01 -6.84788325e-02 -9.61453981e-01 -2.03111425e-01 -1.35580954e-01 
 5.42890000e+10	-1.76042876e-01  1.67048530e-01 -8.76310578e-02 -9.59512633e-01 -8.76310578e-02 -9.59512633e-01 -2.05624839e-01 -1.34115770e-01 
 5.49580000e+10	-1.71913435e-01  1.73006138e-01 -1.06726514e-01 -9.57201820e-01 -1.06726514e-01 -9.57201820e-01 -2.08079670e-01 -1.32597408e-01 
 5.56270000e+10	-1.67543691e-01  1.78835022e-01 -1.25758722e-01 -9.54523292e-01 -1.25758722e-01 -9.54523292e-01 -2.10474780e-01 -1.31027855e-01 
 5.62960000e+10	-1.62938264e-01  1.84525422e-01 -1.44721257e-01 -9.51478872e-01 -1.44721257e-01 -9.51478872e-01 -2.12809094e-01 -1.29409119e-01 
 5.69650000e+10	-1.58102154e-01  1.90067751e-01 -1.63607751e-01 -9.48070464e-01 -1.63607751e-01 -9.48070464e-01 -2.15081601e-01 -1.27743227e-01 
 5.76340000e+10	-1.53040738e-01  1.95452620e-01 -1.82411888e-01 -9.44300046e-01 -1.82411888e-01 -9.44300046e-01 -2.17291354e-01 -1.26032221e-01 
 5.83030000e+10	-1.47759762e-01  2.00670846e-01 -2.01127406e-01 -9.40169667e-01 -2.01127406e-01 -9.40169667e-01 -2.19437468e-01 -1.24278160e-01 
 5.89720000e+10	-1.42265332e-01  2.05713466e-01 -2.19748094e-01 -9.35681450e-01 -2.19748094e-01 -9.35681450e-01 -2.21519121e-01 -1.22483114e-01 
 5.96410000e+10	-1.36563904e-01  2.10571751e-01 -2.38267791e-01 -9.30837590e-01 -2.38267791e-01 -9.30837590e-01 -2.23535558e-01 -1.20649166e-01 
 6.03100000e+10	-1.30662278e-01  2.15237220e-01 -2.56680384e-01 -9.25640348e-01 -2.56680384e-01 -9.25640348e-01 -2.25486082e-01 -1.18778409e-01 
 6.09790000e+10	-1.24567589e-01  2.19701651e-01 -2.74979808e-01 -9.20092059e-01 -2.74979808e-01 -9.20092059e-01 -2.27370062e-01 -1.16872941e-01 
 6.16480000e+10	-1.18287292e-01  2.23957092e-01 -2.93160045e-01 -9.14195124e-01 -2.93160045e-01 -9.14195124e-01 -2.29186929e-01 -1.14934870e-01 
 6.23170000e+10	-1.11829158e-01  2.27995877e-01 -3.11215121e-01 -9.07952010e-01 -3.11215121e-01 -9.07952010e-01 -2.30936177e-01 -1.12966307e-01 
 6.29860000e+10	-1.05201262e-01  2.31810633e-01 -3.29139106e-01 -9.01365255e-01 -3.29139106e-01 -9.01365255e-01 -2.32617362e-01 -1.10969365e-01 
 6.36550000e+10	-9.84119670e-02  2.35394295e-01 -3.46926112e-01 -8.94437462e-01 -3.46926112e-01 -8.94437462e-01 -2.34230101e-01 -1.08946160e-01 
 6.43240000e+10	-9.14699210e-02  2.38740112e-01 -3.64570294e-01 -8.87171302e-01 -3.64570294e-01 -8.87171302e-01 -2.35774075e-01 -1.06898807e-01 
 6.49930000e+10	-8.43840388e-02  2.41841664e-01 -3.82065845e-01 -8.79569514e-01 -3.82065845e-01 -8.79569514e-01 -2.37249022e-01 -1.04829420e-01 
 6.56620000e+10	-7.71634931e-02  2.44692865e-01 -3.99406998e-01 -8.71634902e-01 -3.99406998e-01 -8.71634902e-01 -2.38654747e-01 -1.02740108e-01 
 6.63310000e+10	-6.98177014e-02  2.47287980e-01 -4.16588025e-01 -8.63370339e-01 -4.16588025e-01 -8.63370339e-01 -2.39991109e-01 -1.00632976e-01 
 6.70000000e+10	-6.23563134e-02  2.49621627e-01 -4.33603235e-01 -8.54778768e-01 -4.33603235e-01 -8.54778768e-01 -2.41258033e-01 -9.85101241e-02 
