! Touchstone Ver. 1.0
! Number of ports is 2
# Hz  S RI  R  	50
! SCATTERING PARAMETERS  :
 1.00000000e+08	-8.14888979e-04 -2.33943747e-02  9.99225361e-01 -2.93599173e-02  9.99225361e-01 -2.93599173e-02 -6.98819722e-04 -2.33980928e-02 
 2.99701493e+08	-6.87586044e-03 -6.96316997e-02  9.93482743e-01 -8.75551963e-02  9.93482743e-01 -8.75551963e-02 -5.83834361e-03 -6.97260679e-02 
 4.99402985e+08	-1.86592284e-02 -1.14489179e-01  9.82317979e-01 -1.44500659e-01  9.82317979e-01 -1.44500659e-01 -1.58136506e-02 -1.14916115e-01 
 6.99104478e+08	-3.58126853e-02 -1.57143972e-01  9.66050333e-01 -1.99452249e-01  9.66050333e-01 -1.99452249e-01 -3.03346678e-02 -1.58291535e-01 
 8.98805970e+08	-5.78432532e-02 -1.96875370e-01  9.45126378e-01 -2.51758587e-01  9.45126378e-01 -2.51758587e-01 -4.89957336e-02 -1.99259733e-01 
 1.09850746e+09	-8.41499296e-02 -2.33090737e-01  9.20090381e-01 -3.00884495e-01  9.20090381e-01 -3.00884495e-01 -7.13024744e-02 -2.37333550e-01 
 1.29820896e+09	-1.14060447e-01 -2.65340337e-01  8.91550942e-01 -3.46424428e-01  8.91550942e-01 -3.46424428e-01 -9.67020618e-02 -2.72143435e-01 
 1.49791045e+09	-1.46868279e-01 -2.93321079e-01  8.60147427e-01 -3.88105866e-01  8.60147427e-01 -3.88105866e-01 -1.24613669e-01 -3.03440517e-01 
 1.69761194e+09	-1.81866602e-01 -3.16870499e-01  8.26519157e-01 -4.25783838e-01  8.26519157e-01 -4.25783838e-01 -1.54456411e-01 -3.31091625e-01 
 1.89731343e+09	-2.18376832e-01 -3.35953180e-01  7.91279516e-01 -4.59428591e-01  7.91279516e-01 -4.59428591e-01 -1.85672829e-01 -3.55068097e-01 
 2.09701493e+09	-2.55770478e-01 -3.50642154e-01  7.54996133e-01 -4.89108716e-01  7.54996133e-01 -4.89108716e-01 -2.17746859e-01 -3.75430466e-01 
 2.29671642e+09	-2.93483984e-01 -3.61097817e-01  7.18177413e-01 -5.14972011e-01  7.18177413e-01 -5.14972011e-01 -2.50216043e-01 -3.92311098e-01 
 2.49641791e+09	-3.31027058e-01 -3.67546494e-01  6.81264986e-01 -5.37226025e-01  6.81264986e-01 -5.37226025e-01 -2.82678369e-01 -4.05896543e-01 
 2.69611940e+09	-3.67985436e-01 -3.70260257e-01  6.44631190e-01 -5.56119757e-01  6.44631190e-01 -5.56119757e-01 -3.14794542e-01 -4.16410927e-01 
 2.89582090e+09	-4.04019307e-01 -3.69539085e-01  6.08580503e-01 -5.71927455e-01  6.08580503e-01 -5.71927455e-01 -3.46286683e-01 -4.24101263e-01 
 3.09552239e+09	-4.38858638e-01 -3.65695883e-01  5.73353777e-01 -5.84935036e-01  5.73353777e-01 -5.84935036e-01 -3.76934470e-01 -4.29225128e-01 
 3.29522388e+09	-4.72296510e-01 -3.59044545e-01  5.39134275e-01 -5.95429242e-01  5.39134275e-01 -5.95429242e-01 -4.06569664e-01 -4.32040836e-01 
 3.49492537e+09	-5.04181426e-01 -3.49890903e-01  5.06054639e-01 -6.03689435e-01  5.06054639e-01 -6.03689435e-01 -4.35069769e-01 -4.32799988e-01 
 3.69462687e+09	-5.34409304e-01 -3.38526267e-01  4.74204148e-01 -6.09981725e-01  4.74204148e-01 -6.09981725e-01 -4.62351447e-01 -4.31742158e-01 
 3.89432836e+09	-5.62915668e-01 -3.25223157e-01  4.43635787e-01 -6.14555099e-01  4.43635787e-01 -6.14555099e-01 -4.88364095e-01 -4.29091377e-01 
 4.09402985e+09	-5.89668387e-01 -3.10232814e-01  4.14372820e-01 -6.17639150e-01  4.14372820e-01 -6.17639150e-01 -5.13083874e-01 -4.25054081e-01 
 4.29373134e+09	-6.14661141e-01 -2.93784081e-01  3.86414706e-01 -6.19443062e-01  3.86414706e-01 -6.19443062e-01 -5.36508334e-01 -4.19818197e-01 
 4.49343284e+09	-6.37907713e-01 -2.76083328e-01  3.59742258e-01 -6.20155527e-01  3.59742258e-01 -6.20155527e-01 -5.58651723e-01 -4.13553061e-01 
 4.69313433e+09	-6.59437103e-01 -2.57315091e-01  3.34322059e-01 -6.19945319e-01  3.34322059e-01 -6.19945319e-01 -5.79540976e-01 -4.06409953e-01 
 4.89283582e+09	-6.79289436e-01 -2.37643214e-01  3.10110155e-01 -6.18962315e-01  3.10110155e-01 -6.18962315e-01 -5.99212348e-01 -3.98523025e-01 
 5.09253731e+09	-6.97512589e-01 -2.17212288e-01  2.87055099e-01 -6.17338792e-01  2.87055099e-01 -6.17338792e-01 -6.17708651e-01 -3.90010476e-01 
 5.29223881e+09	-7.14159452e-01 -1.96149251e-01  2.65100409e-01 -6.15190858e-01  2.65100409e-01 -6.15190858e-01 -6.35077001e-01 -3.80975867e-01 
 5.49194030e+09	-7.29285746e-01 -1.74565050e-01  2.44186529e-01 -6.12619947e-01  2.44186529e-01 -6.12619947e-01 -6.51367039e-01 -3.71509470e-01 
 5.69164179e+09	-7.42948302e-01 -1.52556279e-01  2.24252366e-01 -6.09714286e-01  2.24252366e-01 -6.09714286e-01 -6.66629512e-01 -3.61689616e-01 
 5.89134328e+09	-7.55203735e-01 -1.30206763e-01  2.05236464e-01 -6.06550311e-01  2.05236464e-01 -6.06550311e-01 -6.80915201e-01 -3.51583979e-01 
 6.09104478e+09	-7.66107433e-01 -1.07589039e-01  1.87077902e-01 -6.03193988e-01  1.87077902e-01 -6.03193988e-01 -6.94274088e-01 -3.41250786e-01 
 6.29074627e+09	-7.75712806e-01 -8.47657344e-02  1.69716940e-01 -5.99702034e-01  1.69716940e-01 -5.99702034e-01 -7.06754754e-01 -3.30739934e-01 
 6.49044776e+09	-7.84070750e-01 -6.17908153e-02  1.53095480e-01 -5.96123029e-01  1.53095480e-01 -5.96123029e-01 -7.18403941e-01 -3.20094005e-01 
 6.69014925e+09	-7.91229264e-01 -3.87107288e-02  1.37157381e-01 -5.92498414e-01  1.37157381e-01 -5.92498414e-01 -7.29266252e-01 -3.09349187e-01 
 6.88985075e+09	-7.97233208e-01 -1.55654213e-02  1.21848645e-01 -5.88863381e-01  1.21848645e-01 -5.88863381e-01 -7.39383957e-01 -2.98536092e-01 
 7.08955224e+09	-8.02124154e-01  7.61074727e-03  1.07117522e-01 -5.85247668e-01  1.07117522e-01 -5.85247668e-01 -7.48796880e-01 -2.87680491e-01 
 7.28925373e+09	-8.05940312e-01  3.07881906e-02  9.29145337e-02 -5.81676247e-01  9.29145337e-02 -5.81676247e-01 -7.57542351e-01 -2.76803958e-01 
 7.48895522e+09	-8.08716522e-01  5.39413724e-02  7.91924521e-02 -5.78169940e-01  7.91924521e-02 -5.78169940e-01 -7.65655204e-01 -2.65924440e-01 
 7.68865672e+09	-8.10484276e-01  7.70481647e-02  6.59062338e-02 -5.74745941e-01  6.59062338e-02 -5.74745941e-01 -7.73167809e-01 -2.55056760e-01 
 7.88835821e+09	-8.11271777e-01  1.00089277e-01  5.30129273e-02 -5.71418283e-01  5.30129273e-02 -5.71418283e-01 -7.80110128e-01 -2.44213057e-01 
 8.08805970e+09	-8.11104021e-01  1.23047749e-01  4.04715605e-02 -5.68198227e-01  4.04715605e-02 -5.68198227e-01 -7.86509793e-01 -2.33403169e-01 
 8.28776119e+09	-8.10002881e-01  1.45908498e-01  2.82430140e-02 -5.65094607e-01  2.82430140e-02 -5.65094607e-01 -7.92392182e-01 -2.22634973e-01 
 8.48746269e+09	-8.07987213e-01  1.68657913e-01  1.62898869e-02 -5.62114114e-01  1.62898869e-02 -5.62114114e-01 -7.97780516e-01 -2.11914678e-01 
 8.68716418e+09	-8.05072953e-01  1.91283487e-01  4.57635693e-03 -5.59261545e-01  4.57635693e-03 -5.59261545e-01 -8.02695947e-01 -2.01247086e-01 
 8.88686567e+09	-8.01273226e-01  2.13773486e-01 -6.93195895e-03 -5.56540003e-01 -6.93195895e-03 -5.56540003e-01 -8.07157653e-01 -1.90635818e-01 
 9.08656716e+09	-7.96598445e-01  2.36116645e-01 -1.82681449e-02 -5.53951069e-01 -1.82681449e-02 -5.53951069e-01 -8.11182925e-01 -1.80083514e-01 
 9.28626866e+09	-7.91056411e-01  2.58301883e-01 -2.94641229e-02 -5.51494939e-01 -2.94641229e-02 -5.51494939e-01 -8.14787253e-01 -1.69592013e-01 
 9.48597015e+09	-7.84652410e-01  2.80318039e-01 -4.05507867e-02 -5.49170530e-01 -4.05507867e-02 -5.49170530e-01 -8.17984411e-01 -1.59162504e-01 
 9.68567164e+09	-7.77389308e-01  3.02153623e-01 -5.15581303e-02 -5.46975563e-01 -5.15581303e-02 -5.46975563e-01 -8.20786528e-01 -1.48795673e-01 
 9.88537313e+09	-7.69267635e-01  3.23796567e-01 -6.25153720e-02 -5.44906624e-01 -6.25153720e-02 -5.44906624e-01 -8.23204162e-01 -1.38491830e-01 
 1.00850746e+10	-7.60285680e-01  3.45233996e-01 -7.34510721e-02 -5.42959196e-01 -7.34510721e-02 -5.42959196e-01 -8.25246364e-01 -1.28251021e-01 
 1.02847761e+10	-7.50439571e-01  3.66451984e-01 -8.43932451e-02 -5.41127677e-01 -8.43932451e-02 -5.41127677e-01 -8.26920734e-01 -1.18073138e-01 
 1.04844776e+10	-7.39723361e-01  3.87435327e-01 -9.53694642e-02 -5.39405377e-01 -9.53694642e-02 -5.39405377e-01 -8.28233479e-01 -1.07958022e-01 
 1.06841791e+10	-7.28129117e-01  4.08167294e-01 -1.06406960e-01 -5.37784494e-01 -1.06406960e-01 -5.37784494e-01 -8.29189458e-01 -9.79055563e-02 
 1.08838806e+10	-7.15647007e-01  4.28629384e-01 -1.17532711e-01 -5.36256071e-01 -1.17532711e-01 -5.36256071e-01 -8.29792226e-01 -8.79157586e-02 
 1.10835821e+10	-7.02265401e-01  4.48801066e-01 -1.28773524e-01 -5.34809942e-01 -1.28773524e-01 -5.34809942e-01 -8.30044072e-01 -7.79888761e-02 
 1.12832836e+10	-6.87970966e-01  4.68659513e-01 -1.40156113e-01 -5.33434648e-01 -1.40156113e-01 -5.33434648e-01 -8.29946055e-01 -6.81254754e-02 
 1.14829851e+10	-6.72748790e-01  4.88179312e-01 -1.51707153e-01 -5.32117347e-01 -1.51707153e-01 -5.32117347e-01 -8.29498039e-01 -5.83265371e-02 
 1.16826866e+10	-6.56582512e-01  5.07332166e-01 -1.63453343e-01 -5.30843698e-01 -1.63453343e-01 -5.30843698e-01 -8.28698715e-01 -4.85935527e-02 
 1.18823881e+10	-6.39454468e-01  5.26086575e-01 -1.75421435e-01 -5.29597727e-01 -1.75421435e-01 -5.29597727e-01 -8.27545640e-01 -3.89286264e-02 
 1.20820896e+10	-6.21345875e-01  5.44407492e-01 -1.87638264e-01 -5.28361675e-01 -1.87638264e-01 -5.28361675e-01 -8.26035258e-01 -2.93345832e-02 
 1.22817910e+10	-6.02237030e-01  5.62255959e-01 -2.00130755e-01 -5.27115823e-01 -2.00130755e-01 -5.27115823e-01 -8.24162935e-01 -1.98150843e-02 
 1.24814925e+10	-5.82107561e-01  5.79588726e-01 -2.12925907e-01 -5.25838300e-01 -2.12925907e-01 -5.25838300e-01 -8.21922990e-01 -1.03747507e-02 
 1.26811940e+10	-5.60936711e-01  5.96357839e-01 -2.26050759e-01 -5.24504868e-01 -2.26050759e-01 -5.24504868e-01 -8.19308734e-01 -1.01929789e-03 
 1.28808955e+10	-5.38703682e-01  6.12510206e-01 -2.39532323e-01 -5.23088679e-01 -2.39532323e-01 -5.23088679e-01 -8.16312518e-01  8.24431931e-03 
 1.30805970e+10	-5.15388044e-01  6.27987147e-01 -2.53397491e-01 -5.21560024e-01 -2.53397491e-01 -5.21560024e-01 -8.12925785e-01  1.74077488e-02 
 1.32802985e+10	-4.90970210e-01  6.42723922e-01 -2.67672898e-01 -5.19886043e-01 -2.67672898e-01 -5.19886043e-01 -8.09139140e-01  2.64610707e-02 
 1.34800000e+10	-4.65432009e-01  6.56649244e-01 -2.82384747e-01 -5.18030431e-01 -2.82384747e-01 -5.18030431e-01 -8.04942434e-01  3.53926121e-02 
 1.36797015e+10	-4.38757347e-01  6.69684788e-01 -2.97558573e-01 -5.15953112e-01 -2.97558573e-01 -5.15953112e-01 -8.00324872e-01  4.41887489e-02 
 1.38794030e+10	-4.10932995e-01  6.81744699e-01 -3.13218956e-01 -5.13609909e-01 -3.13218956e-01 -5.13609909e-01 -7.95275139e-01  5.28336920e-02 
 1.40791045e+10	-3.81949501e-01  6.92735118e-01 -3.29389163e-01 -5.10952190e-01 -3.29389163e-01 -5.10952190e-01 -7.89781563e-01  6.13092614e-02 
 1.42788060e+10	-3.51802249e-01  7.02553736e-01 -3.46090704e-01 -5.07926519e-01 -3.46090704e-01 -5.07926519e-01 -7.83832315e-01  6.95946482e-02 
 1.44785075e+10	-3.20492686e-01  7.11089403e-01 -3.63342805e-01 -5.04474308e-01 -3.63342805e-01 -5.04474308e-01 -7.77415644e-01  7.76661669e-02 
 1.46782090e+10	-2.88029728e-01  7.18221819e-01 -3.81161776e-01 -5.00531481e-01 -3.81161776e-01 -5.00531481e-01 -7.70520178e-01  8.54970036e-02 
 1.48779104e+10	-2.54431368e-01  7.23821335e-01 -3.99560262e-01 -4.96028171e-01 -3.99560262e-01 -4.96028171e-01 -7.63135267e-01  9.30569642e-02 
 1.50776119e+10	-2.19726480e-01  7.27748916e-01 -4.18546369e-01 -4.90888466e-01 -4.18546369e-01 -4.90888466e-01 -7.55251402e-01  1.00312231e-01 
 1.52773134e+10	-1.83956856e-01  7.29856300e-01 -4.38122661e-01 -4.85030225e-01 -4.38122661e-01 -4.85030225e-01 -7.46860714e-01  1.07225140e-01 
 1.54770149e+10	-1.47179452e-01  7.29986436e-01 -4.58285001e-01 -4.78365004e-01 -4.58285001e-01 -4.78365004e-01 -7.37957545e-01  1.13753987e-01 
 1.56767164e+10	-1.09468841e-01  7.27974248e-01 -4.79021253e-01 -4.70798108e-01 -4.79021253e-01 -4.70798108e-01 -7.28539120e-01  1.19852887e-01 
 1.58764179e+10	-7.09198618e-02  7.23647810e-01 -5.00309826e-01 -4.62228836e-01 -5.00309826e-01 -4.62228836e-01 -7.18606310e-01  1.25471700e-01 
 1.60761194e+10	-3.16504067e-02  7.16830034e-01 -5.22118093e-01 -4.52550942e-01 -5.22118093e-01 -4.52550942e-01 -7.08164491e-01  1.30556056e-01 
 1.62758209e+10	 8.19570460e-03  7.07340931e-01 -5.44400671e-01 -4.41653392e-01 -5.44400671e-01 -4.41653392e-01 -6.97224505e-01  1.35047499e-01 
 1.64755224e+10	 4.84458587e-02  6.95000577e-01 -5.67097634e-01 -4.29421445e-01 -5.67097634e-01 -4.29421445e-01 -6.85803699e-01  1.38883794e-01 
 1.66752239e+10	 8.88959139e-02  6.79632840e-01 -5.90132671e-01 -4.15738148e-01 -5.90132671e-01 -4.15738148e-01 -6.73927044e-01  1.41999424e-01 
 1.68749254e+10	 1.29307759e-01  6.61069969e-01 -6.13411287e-01 -4.00486291e-01 -6.13411287e-01 -4.00486291e-01 -6.61628292e-01  1.44326323e-01 
 1.70746269e+10	 1.69407368e-01  6.39158080e-01 -6.36819126e-01 -3.83550864e-01 -6.36819126e-01 -3.83550864e-01 -6.48951135e-01  1.45794876e-01 
 1.72743284e+10	 2.08883591e-01  6.13763562e-01 -6.60220544e-01 -3.64822077e-01 -6.60220544e-01 -3.64822077e-01 -6.35950318e-01  1.46335224e-01 
 1.74740299e+10	 2.47387961e-01  5.84780357e-01 -6.83457557e-01 -3.44198939e-01 -6.83457557e-01 -3.44198939e-01 -6.22692634e-01  1.45878908e-01 
 1.76737313e+10	 2.84535827e-01  5.52137995e-01 -7.06349360e-01 -3.21593387e-01 -7.06349360e-01 -3.21593387e-01 -6.09257711e-01  1.44360845e-01 
 1.78734328e+10	 3.19909115e-01  5.15810175e-01 -7.28692573e-01 -2.96934900e-01 -7.28692573e-01 -2.96934900e-01 -5.95738504e-01  1.41721652e-01 
 1.80731343e+10	 3.53061027e-01  4.75823581e-01 -7.50262416e-01 -2.70175482e-01 -7.50262416e-01 -2.70175482e-01 -5.82241362e-01  1.37910267e-01 
 1.82728358e+10	 3.83522917e-01  4.32266494e-01 -7.70814992e-01 -2.41294827e-01 -7.70814992e-01 -2.41294827e-01 -5.68885589e-01  1.32886809e-01 
 1.84725373e+10	 4.10813492e-01  3.85296656e-01 -7.90090814e-01 -2.10305428e-01 -7.90090814e-01 -2.10305428e-01 -5.55802364e-01  1.26625572e-01 
 1.86722388e+10	 4.34450359e-01  3.35147751e-01 -8.07819679e-01 -1.77257294e-01 -8.07819679e-01 -1.77257294e-01 -5.43132950e-01  1.19118002e-01 
 1.88719403e+10	 4.53963739e-01  2.82133795e-01 -8.23726886e-01 -1.42241927e-01 -8.23726886e-01 -1.42241927e-01 -5.31026137e-01  1.10375485e-01 
 1.90716418e+10	 4.68911948e-01  2.26650741e-01 -8.37540702e-01 -1.05395145e-01 -8.37540702e-01 -1.05395145e-01 -5.19634917e-01  1.00431722e-01 
 1.92713433e+10	 4.78898032e-01  1.69174651e-01 -8.49000834e-01 -6.68983595e-02 -8.49000834e-01 -6.68983595e-02 -5.09112457e-01  8.93444749e-02 
 1.94710448e+10	 4.83586670e-01  1.10255990e-01 -8.57867557e-01 -2.69779620e-02 -8.57867557e-01 -2.69779620e-02 -4.99607494e-01  7.71964600e-02 
 1.96707463e+10	 4.82720325e-01  5.05097808e-02 -8.63930999e-01  1.40974337e-02 -8.63930999e-01  1.40974337e-02 -4.91259381e-01  6.40951992e-02 
 1.98704478e+10	 4.76133465e-01 -9.39825818e-03 -8.67020009e-01  5.60219943e-02 -8.67020009e-01  5.60219943e-02 -4.84193033e-01  5.01717041e-02 
 2.00701493e+10	 4.63763744e-01 -6.87691549e-02 -8.67009969e-01  9.84598419e-02 -8.67009969e-01  9.84598419e-02 -4.78514120e-01  3.55779468e-02 
 2.02698507e+10	 4.45659094e-01 -1.26890874e-01 -8.63828963e-01  1.41054124e-01 -8.63828963e-01  1.41054124e-01 -4.74304822e-01  2.04831742e-02 
 2.04695522e+10	 4.21980023e-01 -1.83060121e-01 -8.57461761e-01  1.83437516e-01 -8.57461761e-01  1.83437516e-01 -4.71620476e-01  5.06922895e-03 
 2.06692537e+10	 3.92996714e-01 -2.36604415e-01 -8.47951274e-01  2.25243530e-01 -8.47951274e-01  2.25243530e-01 -4.70487376e-01 -1.04748637e-02 
 2.08689552e+10	 3.59081008e-01 -2.86902983e-01 -8.35397313e-01  2.66117916e-01 -8.35397313e-01  2.66117916e-01 -4.70901888e-01 -2.59587078e-02 
 2.10686567e+10	 3.20693755e-01 -3.33405148e-01 -8.19952732e-01  3.05729432e-01 -8.19952732e-01  3.05729432e-01 -4.72830950e-01 -4.11963739e-02 
 2.12683582e+10	 2.78368447e-01 -3.75645070e-01 -8.01817241e-01  3.43779278e-01 -8.01817241e-01  3.43779278e-01 -4.76213900e-01 -5.60118905e-02 
 2.14680597e+10	 2.32692283e-01 -4.13252056e-01 -7.81229371e-01  3.80008693e-01 -7.81229371e-01  3.80008693e-01 -4.80965457e-01 -7.02440558e-02 
 2.16677612e+10	 1.84285999e-01 -4.45956073e-01 -7.58457194e-01  4.14204319e-01 -7.58457194e-01  4.14204319e-01 -4.86979612e-01 -8.37503146e-02 
 2.18674627e+10	 1.33783779e-01 -4.73588496e-01 -7.33788467e-01  4.46201199e-01 -7.33788467e-01  4.46201199e-01 -4.94134120e-01 -9.64095379e-02 
 2.20671642e+10	 8.18144270e-02 -4.96078505e-01 -7.07520813e-01  4.75883457e-01 -7.07520813e-01  4.75883457e-01 -5.02295263e-01 -1.08123645e-01 
 2.22668657e+10	 2.89847466e-02 -5.13445827e-01 -6.79952534e-01  5.03182874e-01 -6.79952534e-01  5.03182874e-01 -5.11322596e-01 -1.18818104e-01 
 2.24665672e+10	-2.41342232e-02 -5.25790711e-01 -6.51374464e-01  5.28075716e-01 -6.51374464e-01  5.28075716e-01 -5.21073384e-01 -1.28441433e-01 
 2.26662687e+10	-7.70177651e-02 -5.33282065e-01 -6.22063173e-01  5.50578234e-01 -6.22063173e-01  5.50578234e-01 -5.31406561e-01 -1.36963859e-01 
 2.28659701e+10	-1.29194778e-01 -5.36144685e-01 -5.92275667e-01  5.70741281e-01 -5.92275667e-01  5.70741281e-01 -5.42186055e-01 -1.44375352e-01 
 2.30656716e+10	-1.80251983e-01 -5.34646373e-01 -5.62245606e-01  5.88644476e-01 -5.62245606e-01  5.88644476e-01 -5.53283418e-01 -1.50683228e-01 
 2.32653731e+10	-2.29835385e-01 -5.29085622e-01 -5.32180949e-01  6.04390277e-01 -5.32180949e-01  6.04390277e-01 -5.64579767e-01 -1.55909529e-01 
 2.34650746e+10	-2.77649437e-01 -5.19780338e-01 -5.02262877e-01  6.18098276e-01 -5.02262877e-01  6.18098276e-01 -5.75967060e-01 -1.60088338e-01 
 2.36647761e+10	-3.23454404e-01 -5.07057922e-01 -4.72645784e-01  6.29899925e-01 -4.72645784e-01  6.29899925e-01 -5.87348778e-01 -1.63263173e-01 
 2.38644776e+10	-3.67062414e-01 -4.91246885e-01 -4.43458122e-01  6.39933844e-01 -4.43458122e-01  6.39933844e-01 -5.98640123e-01 -1.65484557e-01 
 2.40641791e+10	-4.08332640e-01 -4.72670011e-01 -4.14803871e-01  6.48341794e-01 -4.14803871e-01  6.48341794e-01 -6.09767803e-01 -1.66807832e-01 
 2.42638806e+10	-4.47166010e-01 -4.51639044e-01 -3.86764446e-01  6.55265324e-01 -3.86764446e-01  6.55265324e-01 -6.20669520e-01 -1.67291258e-01 
 2.44635821e+10	-4.83499759e-01 -4.28450743e-01 -3.59400868e-01  6.60843088e-01 -3.59400868e-01  6.60843088e-01 -6.31293239e-01 -1.66994405e-01 
 2.46632836e+10	-5.17302058e-01 -4.03384165e-01 -3.32756040e-01  6.65208766e-01 -3.32756040e-01  6.65208766e-01 -6.41596320e-01 -1.65976832e-01 
 2.48629851e+10	-5.48566919e-01 -3.76698984e-01 -3.06857042e-01  6.68489544e-01 -3.06857042e-01  6.68489544e-01 -6.51544572e-01 -1.64297040e-01 
 2.50626866e+10	-5.77309471e-01 -3.48634670e-01 -2.81717333e-01  6.70805057e-01 -2.81717333e-01  6.70805057e-01 -6.61111290e-01 -1.62011673e-01 
 2.52623881e+10	-6.03561701e-01 -3.19410350e-01 -2.57338832e-01  6.72266730e-01 -2.57338832e-01  6.72266730e-01 -6.70276297e-01 -1.59174926e-01 
 2.54620896e+10	-6.27368664e-01 -2.89225201e-01 -2.33713818e-01  6.72977445e-01 -2.33713818e-01  6.72977445e-01 -6.79025039e-01 -1.55838146e-01 
 2.56617910e+10	-6.48785194e-01 -2.58259224e-01 -2.10826643e-01  6.73031457e-01 -2.10826643e-01  6.73031457e-01 -6.87347728e-01 -1.52049577e-01 
 2.58614925e+10	-6.67873075e-01 -2.26674310e-01 -1.88655249e-01  6.72514504e-01 -1.88655249e-01  6.72514504e-01 -6.95238568e-01 -1.47854233e-01 
 2.60611940e+10	-6.84698658e-01 -1.94615468e-01 -1.67172488e-01  6.71504069e-01 -1.67172488e-01  6.71504069e-01 -7.02695053e-01 -1.43293868e-01 
 2.62608955e+10	-6.99330869e-01 -1.62212178e-01 -1.46347262e-01  6.70069728e-01 -1.46347262e-01  6.70069728e-01 -7.09717340e-01 -1.38407022e-01 
 2.64605970e+10	-7.11839582e-01 -1.29579773e-01 -1.26145487e-01  6.68273578e-01 -1.26145487e-01  6.68273578e-01 -7.16307702e-01 -1.33229123e-01 
 2.66602985e+10	-7.22294301e-01 -9.68208372e-02 -1.06530907e-01  6.66170689e-01 -1.06530907e-01  6.66170689e-01 -7.22470049e-01 -1.27792632e-01 
 2.68600000e+10	-7.30763119e-01 -6.40265659e-02 -8.74657661e-02  6.63809584e-01 -8.74657661e-02  6.63809584e-01 -7.28209520e-01 -1.22127213e-01 
 2.70597015e+10	-7.37311901e-01 -3.12780800e-02 -6.89113621e-02  6.61232705e-01 -6.89113621e-02  6.61232705e-01 -7.33532129e-01 -1.16259924e-01 
 2.72594030e+10	-7.42003674e-01  1.35232881e-03 -5.08284926e-02  6.58476876e-01 -5.08284926e-02  6.58476876e-01 -7.38444468e-01 -1.10215415e-01 
