! Touchstone Ver. 1.0
! Number of ports is 2
# Hz  S RI  R  	50
! SCATTERING PARAMETERS  :
 1.00000000e+08	 9.45883365e-04  5.29015082e-05  9.99041691e-01 -2.95577119e-03  9.99041691e-01 -2.95577119e-03  9.45883365e-04  5.29015082e-05 
 7.69000000e+08	 9.28886190e-04  4.07260567e-04  9.98756854e-01 -2.27272721e-02  9.98756854e-01 -2.27272721e-02  9.28886190e-04  4.07260567e-04 
 1.43800000e+09	 9.62715481e-04  7.60380868e-04  9.98044133e-01 -4.24870652e-02  9.98044133e-01 -4.24870652e-02  9.62715481e-04  7.60380868e-04 
 2.10700000e+09	 1.02902703e-03  1.11065396e-03  9.96922136e-01 -6.22263585e-02  9.96922136e-01 -6.22263585e-02  1.02902703e-03  1.11065396e-03 
 2.77600000e+09	 1.10972453e-03  1.45792417e-03  9.95409363e-01 -8.19378185e-02  9.95409363e-01 -8.19378185e-02  1.10972453e-03  1.45792417e-03 
 3.44500000e+09	 1.20430470e-03  1.80164413e-03  9.93506849e-01 -1.01613728e-01  9.93506849e-01 -1.01613728e-01  1.20430470e-03  1.80164413e-03 
 4.11400000e+09	 1.31261312e-03  2.14126363e-03  9.91215412e-01 -1.21246375e-01  9.91215412e-01 -1.21246375e-01  1.31261312e-03  2.14126363e-03 
 4.78300000e+09	 1.43447359e-03  2.47623913e-03  9.88536023e-01 -1.40828069e-01  9.88536023e-01 -1.40828069e-01  1.43447359e-03  2.47623913e-03 
 5.45200000e+09	 1.57987745e-03  2.80432934e-03  9.85459573e-01 -1.60349426e-01  9.85459573e-01 -1.60349426e-01  1.57987745e-03  2.80432934e-03 
 6.12100000e+09	 1.74245565e-03  3.12554442e-03  9.81993487e-01 -1.79803336e-01  9.81993487e-01 -1.79803336e-01  1.74245565e-03  3.12554442e-03 
 6.79000000e+09	 1.91806592e-03  3.43991405e-03  9.78143101e-01 -1.99182729e-01  9.78143101e-01 -1.99182729e-01  1.91806592e-03  3.43991405e-03 
 7.45900000e+09	 2.10612711e-03  3.74698125e-03  9.73910311e-01 -2.18480065e-01  9.73910311e-01 -2.18480065e-01  2.10612711e-03  3.74698125e-03 
 8.12800000e+09	 2.30633686e-03  4.04625701e-03  9.69296862e-01 -2.37687797e-01  9.69296862e-01 -2.37687797e-01  2.30633686e-03  4.04625701e-03 
 8.79700000e+09	 2.51837367e-03  4.33726484e-03  9.64304649e-01 -2.56798414e-01  9.64304649e-01 -2.56798414e-01  2.51837367e-03  4.33726484e-03 
 9.46600000e+09	 2.74189744e-03  4.61954144e-03  9.58935715e-01 -2.75804445e-01  9.58935715e-01 -2.75804445e-01  2.74189744e-03  4.61954144e-03 
 1.01350000e+10	 2.96706775e-03  4.89565582e-03  9.53201875e-01 -2.94701526e-01  9.53201875e-01 -2.94701526e-01  2.96706775e-03  4.89565582e-03 
 1.08040000e+10	 3.18433319e-03  5.16890185e-03  9.47114854e-01 -3.13486083e-01  9.47114854e-01 -3.13486083e-01  3.18433319e-03  5.16890185e-03 
 1.14730000e+10	 3.40941186e-03  5.43424362e-03  9.40660836e-01 -3.32146124e-01  9.40660836e-01 -3.32146124e-01  3.40941186e-03  5.43424362e-03 
 1.21420000e+10	 3.64507842e-03  5.69032160e-03  9.33839233e-01 -3.50673413e-01  9.33839233e-01 -3.50673413e-01  3.64507842e-03  5.69032160e-03 
 1.28110000e+10	 3.89095381e-03  5.93671981e-03  9.26652778e-01 -3.69060707e-01  9.26652778e-01 -3.69060707e-01  3.89095381e-03  5.93671981e-03 
 1.34800000e+10	 4.14664270e-03  6.17303769e-03  9.19104346e-01 -3.87300821e-01  9.19104346e-01 -3.87300821e-01  4.14664270e-03  6.17303769e-03 
 1.41490000e+10	 4.41173419e-03  6.39889082e-03  9.11196955e-01 -4.05386629e-01  9.11196955e-01 -4.05386629e-01  4.41173419e-03  6.39889082e-03 
 1.48180000e+10	 4.68580241e-03  6.61391143e-03  9.02933762e-01 -4.23311068e-01  9.02933762e-01 -4.23311068e-01  4.68580241e-03  6.61391143e-03 
 1.54870000e+10	 4.96840721e-03  6.81774908e-03  8.94318064e-01 -4.41067137e-01  8.94318064e-01 -4.41067137e-01  4.96840721e-03  6.81774908e-03 
 1.61560000e+10	 5.25909487e-03  7.01007111e-03  8.85353296e-01 -4.58647907e-01  8.85353296e-01 -4.58647907e-01  5.25909487e-03  7.01007111e-03 
 1.68250000e+10	 5.55739882e-03  7.19056326e-03  8.76043028e-01 -4.76046517e-01  8.76043028e-01 -4.76046517e-01  5.55739882e-03  7.19056326e-03 
 1.74940000e+10	 5.86284037e-03  7.35893008e-03  8.66390965e-01 -4.93256178e-01  8.66390965e-01 -4.93256178e-01  5.86284037e-03  7.35893008e-03 
 1.81630000e+10	 6.17492949e-03  7.51489545e-03  8.56400947e-01 -5.10270180e-01  8.56400947e-01 -5.10270180e-01  6.17492949e-03  7.51489545e-03 
 1.88320000e+10	 6.49316557e-03  7.65820300e-03  8.46076943e-01 -5.27081889e-01  8.46076943e-01 -5.27081889e-01  6.49316557e-03  7.65820300e-03 
 1.95010000e+10	 6.81703820e-03  7.78861648e-03  8.35423055e-01 -5.43684751e-01  8.35423055e-01 -5.43684751e-01  6.81703820e-03  7.78861648e-03 
 2.01700000e+10	 7.14602803e-03  7.90592020e-03  8.24443512e-01 -5.60072299e-01  8.24443512e-01 -5.60072299e-01  7.14602803e-03  7.90592020e-03 
 2.08390000e+10	 7.47960755e-03  8.00991928e-03  8.13142668e-01 -5.76238149e-01  8.13142668e-01 -5.76238149e-01  7.47960755e-03  8.00991928e-03 
 2.15080000e+10	 7.81724193e-03  8.10044003e-03  8.01525005e-01 -5.92176007e-01  8.01525005e-01 -5.92176007e-01  7.81724193e-03  8.10044003e-03 
 2.21770000e+10	 8.15838987e-03  8.17733017e-03  7.89595127e-01 -6.07879669e-01  7.89595127e-01 -6.07879669e-01  8.15838987e-03  8.17733017e-03 
 2.28460000e+10	 8.50250450e-03  8.24045911e-03  7.77357758e-01 -6.23343025e-01  7.77357758e-01 -6.23343025e-01  8.50250450e-03  8.24045911e-03 
 2.35150000e+10	 8.84903416e-03  8.28971812e-03  7.64817742e-01 -6.38560060e-01  7.64817742e-01 -6.38560060e-01  8.84903416e-03  8.28971812e-03 
 2.41840000e+10	 9.19742336e-03  8.32502051e-03  7.51980041e-01 -6.53524857e-01  7.51980041e-01 -6.53524857e-01  9.19742336e-03  8.32502051e-03 
 2.48530000e+10	 9.54711360e-03  8.34630176e-03  7.38849733e-01 -6.68231601e-01  7.38849733e-01 -6.68231601e-01  9.54711360e-03  8.34630176e-03 
 2.55220000e+10	 9.89754426e-03  8.35351962e-03  7.25432006e-01 -6.82674577e-01  7.25432006e-01 -6.82674577e-01  9.89754426e-03  8.35351962e-03 
 2.61910000e+10	 1.02481535e-02  8.34665419e-03  7.11732164e-01 -6.96848175e-01  7.11732164e-01 -6.96848175e-01  1.02481535e-02  8.34665419e-03 
 2.68600000e+10	 1.05983793e-02  8.32570793e-03  6.97755615e-01 -7.10746894e-01  6.97755615e-01 -7.10746894e-01  1.05983793e-02  8.32570793e-03 
 2.75290000e+10	 1.09476598e-02  8.29070564e-03  6.83507878e-01 -7.24365340e-01  6.83507878e-01 -7.24365340e-01  1.09476598e-02  8.29070564e-03 
 2.81980000e+10	 1.12954351e-02  8.24169447e-03  6.68994576e-01 -7.37698231e-01  6.68994576e-01 -7.37698231e-01  1.12954351e-02  8.24169447e-03 
 2.88670000e+10	 1.16411472e-02  8.17874377e-03  6.54221431e-01 -7.50740396e-01  6.54221431e-01 -7.50740396e-01  1.16411472e-02  8.17874377e-03 
 2.95360000e+10	 1.19842416e-02  8.10194504e-03  6.39194270e-01 -7.63486781e-01  6.39194270e-01 -7.63486781e-01  1.19842416e-02  8.10194504e-03 
 3.02050000e+10	 1.23241677e-02  8.01141176e-03  6.23919015e-01 -7.75932449e-01  6.23919015e-01 -7.75932449e-01  1.23241677e-02  8.01141176e-03 
 3.08740000e+10	 1.26603799e-02  7.90727919e-03  6.08401684e-01 -7.88072580e-01  6.08401684e-01 -7.88072580e-01  1.26603799e-02  7.90727919e-03 
 3.15430000e+10	 1.29923384e-02  7.78970420e-03  5.92648388e-01 -7.99902475e-01  5.92648388e-01 -7.99902475e-01  1.29923384e-02  7.78970420e-03 
 3.22120000e+10	 1.33195101e-02  7.65886496e-03  5.76665330e-01 -8.11417559e-01  5.76665330e-01 -8.11417559e-01  1.33195101e-02  7.65886496e-03 
 3.28810000e+10	 1.36413694e-02  7.51496072e-03  5.60458799e-01 -8.22613380e-01  5.60458799e-01 -8.22613380e-01  1.36413694e-02  7.51496072e-03 
 3.35500000e+10	 1.39573990e-02  7.35821145e-03  5.44035173e-01 -8.33485610e-01  5.44035173e-01 -8.33485610e-01  1.39573990e-02  7.35821145e-03 
 3.42190000e+10	 1.42670909e-02  7.18885750e-03  5.27400909e-01 -8.44030051e-01  5.27400909e-01 -8.44030051e-01  1.42670909e-02  7.18885750e-03 
 3.48880000e+10	 1.45699468e-02  7.00715923e-03  5.10562548e-01 -8.54242633e-01  5.10562548e-01 -8.54242633e-01  1.45699468e-02  7.00715923e-03 
 3.55570000e+10	 1.48654792e-02  6.81339659e-03  4.93526708e-01 -8.64119415e-01  4.93526708e-01 -8.64119415e-01  1.48654792e-02  6.81339659e-03 
 3.62260000e+10	 1.51532122e-02  6.60786868e-03  4.76300082e-01 -8.73656590e-01  4.76300082e-01 -8.73656590e-01  1.51532122e-02  6.60786868e-03 
 3.68950000e+10	 1.54326822e-02  6.39089329e-03  4.58889437e-01 -8.82850484e-01  4.58889437e-01 -8.82850484e-01  1.54326822e-02  6.39089329e-03 
 3.75640000e+10	 1.57034384e-02  6.16280636e-03  4.41301610e-01 -8.91697556e-01  4.41301610e-01 -8.91697556e-01  1.57034384e-02  6.16280636e-03 
 3.82330000e+10	 1.59650438e-02  5.92396150e-03  4.23543506e-01 -9.00194403e-01  4.23543506e-01 -9.00194403e-01  1.59650438e-02  5.92396150e-03 
 3.89020000e+10	 1.62170757e-02  5.67472940e-03  4.05622092e-01 -9.08337757e-01  4.05622092e-01 -9.08337757e-01  1.62170757e-02  5.67472940e-03 
 3.95710000e+10	 1.64591265e-02  5.41549724e-03  3.87544401e-01 -9.16124492e-01  3.87544401e-01 -9.16124492e-01  1.64591265e-02  5.41549724e-03 
 4.02400000e+10	 1.66908044e-02  5.14666811e-03  3.69317523e-01 -9.23551617e-01  3.69317523e-01 -9.23551617e-01  1.66908044e-02  5.14666811e-03 
 4.09090000e+10	 1.69117336e-02  4.86866034e-03  3.50948607e-01 -9.30616287e-01  3.50948607e-01 -9.30616287e-01  1.69117336e-02  4.86866034e-03 
 4.15780000e+10	 1.71215555e-02  4.58190688e-03  3.32444852e-01 -9.37315794e-01  3.32444852e-01 -9.37315794e-01  1.71215555e-02  4.58190688e-03 
 4.22470000e+10	 1.73199288e-02  4.28685458e-03  3.13813512e-01 -9.43647575e-01  3.13813512e-01 -9.43647575e-01  1.73199288e-02  4.28685458e-03 
 4.29160000e+10	 1.75065303e-02  3.98396352e-03  2.95061887e-01 -9.49609210e-01  2.95061887e-01 -9.49609210e-01  1.75065303e-02  3.98396352e-03 
 4.35850000e+10	 1.76810551e-02  3.67370623e-03  2.76197324e-01 -9.55198426e-01  2.76197324e-01 -9.55198426e-01  1.76810551e-02  3.67370623e-03 
 4.42540000e+10	 1.78432174e-02  3.35656704e-03  2.57227211e-01 -9.60413092e-01  2.57227211e-01 -9.60413092e-01  1.78432174e-02  3.35656704e-03 
 4.49230000e+10	 1.79927509e-02  3.03304123e-03  2.38158976e-01 -9.65251225e-01  2.38158976e-01 -9.65251225e-01  1.79927509e-02  3.03304123e-03 
 4.55920000e+10	 1.81294092e-02  2.70363429e-03  2.19000086e-01 -9.69710989e-01  2.19000086e-01 -9.69710989e-01  1.81294092e-02  2.70363429e-03 
 4.62610000e+10	 1.82529658e-02  2.36886111e-03  1.99758038e-01 -9.73790694e-01  1.99758038e-01 -9.73790694e-01  1.82529658e-02  2.36886111e-03 
 4.69300000e+10	 1.83632152e-02  2.02924522e-03  1.80440365e-01 -9.77488801e-01  1.80440365e-01 -9.77488801e-01  1.83632152e-02  2.02924522e-03 
 4.75990000e+10	 1.84599726e-02  1.68531788e-03  1.61054623e-01 -9.80803918e-01  1.61054623e-01 -9.80803918e-01  1.84599726e-02  1.68531788e-03 
 4.82680000e+10	 1.85430745e-02  1.33761732e-03  1.41608398e-01 -9.83734801e-01  1.41608398e-01 -9.83734801e-01  1.85430745e-02  1.33761732e-03 
 4.89370000e+10	 1.86123788e-02  9.86687856e-04  1.22109295e-01 -9.86280359e-01  1.22109295e-01 -9.86280359e-01  1.86123788e-02  9.86687856e-04 
 4.96060000e+10	 1.86677650e-02  6.33079057e-04  1.02564941e-01 -9.88439647e-01  1.02564941e-01 -9.88439647e-01  1.86677650e-02  6.33079057e-04 
 5.02750000e+10	 1.87091348e-02  2.77344860e-04  8.29829764e-02 -9.90211875e-01  8.29829764e-02 -9.90211875e-01  1.87091348e-02  2.77344860e-04 
 5.09440000e+10	 1.87364116e-02 -7.99572847e-05  6.33710579e-02 -9.91596400e-01  6.33710579e-02 -9.91596400e-01  1.87364116e-02 -7.99572847e-05 
 5.16130000e+10	 1.87495412e-02 -4.38267297e-04  4.37368518e-02 -9.92592732e-01  4.37368518e-02 -9.92592732e-01  1.87495412e-02 -4.38267297e-04 
 5.22820000e+10	 1.87484914e-02 -7.97023341e-04  2.40880319e-02 -9.93200531e-01  2.40880319e-02 -9.93200531e-01  1.87484914e-02 -7.97023341e-04 
 5.29510000e+10	 1.87332526e-02 -1.15566271e-03  4.43227694e-03 -9.93419609e-01  4.43227694e-03 -9.93419609e-01  1.87332526e-02 -1.15566271e-03 
 5.36200000e+10	 1.87038374e-02 -1.51362272e-03 -1.52227327e-02 -9.93249928e-01 -1.52227327e-02 -9.93249928e-01  1.87038374e-02 -1.51362272e-03 
 5.42890000e+10	 1.86602804e-02 -1.87034156e-03 -3.48693176e-02 -9.92691603e-01 -3.48693176e-02 -9.92691603e-01  1.86602804e-02 -1.87034156e-03 
 5.49580000e+10	 1.86026390e-02 -2.22525923e-03 -5.44998029e-02 -9.91744898e-01 -5.44998029e-02 -9.91744898e-01  1.86026390e-02 -2.22525923e-03 
 5.56270000e+10	 1.85309923e-02 -2.57781836e-03 -7.41065204e-02 -9.90410231e-01 -7.41065204e-02 -9.90410231e-01  1.85309923e-02 -2.57781836e-03 
 5.62960000e+10	 1.84454417e-02 -2.92746513e-03 -9.36818122e-02 -9.88688168e-01 -9.36818122e-02 -9.88688168e-01  1.84454417e-02 -2.92746513e-03 
 5.69650000e+10	 1.83461103e-02 -3.27365011e-03 -1.13218033e-01 -9.86579428e-01 -1.13218033e-01 -9.86579428e-01  1.83461103e-02 -3.27365011e-03 
 5.76340000e+10	 1.82331429e-02 -3.61582916e-03 -1.32707555e-01 -9.84084879e-01 -1.32707555e-01 -9.84084879e-01  1.82331429e-02 -3.61582916e-03 
 5.83030000e+10	 1.81067060e-02 -3.95346422e-03 -1.52142766e-01 -9.81205539e-01 -1.52142766e-01 -9.81205539e-01  1.81067060e-02 -3.95346422e-03 
 5.89720000e+10	 1.79669871e-02 -4.28602424e-03 -1.71516079e-01 -9.77942576e-01 -1.71516079e-01 -9.77942576e-01  1.79669871e-02 -4.28602424e-03 
 5.96410000e+10	 1.78141945e-02 -4.61298595e-03 -1.90819930e-01 -9.74297308e-01 -1.90819930e-01 -9.74297308e-01  1.78141945e-02 -4.61298595e-03 
 6.03100000e+10	 1.76485573e-02 -4.93383468e-03 -2.10046782e-01 -9.70271201e-01 -2.10046782e-01 -9.70271201e-01  1.76485573e-02 -4.93383468e-03 
 6.09790000e+10	 1.74703249e-02 -5.24806523e-03 -2.29189131e-01 -9.65865870e-01 -2.29189131e-01 -9.65865870e-01  1.74703249e-02 -5.24806523e-03 
 6.16480000e+10	 1.72797662e-02 -5.55518260e-03 -2.48239503e-01 -9.61083074e-01 -2.48239503e-01 -9.61083074e-01  1.72797662e-02 -5.55518260e-03 
 6.23170000e+10	 1.70771698e-02 -5.85470279e-03 -2.67190463e-01 -9.55924725e-01 -2.67190463e-01 -9.55924725e-01  1.70771698e-02 -5.85470279e-03 
 6.29860000e+10	 1.68628432e-02 -6.14615357e-03 -2.86034615e-01 -9.50392876e-01 -2.86034615e-01 -9.50392876e-01  1.68628432e-02 -6.14615357e-03 
 6.36550000e+10	 1.66371124e-02 -6.42907521e-03 -3.04764603e-01 -9.44489727e-01 -3.04764603e-01 -9.44489727e-01  1.66371124e-02 -6.42907521e-03 
 6.43240000e+10	 1.64003214e-02 -6.70302122e-03 -3.23373117e-01 -9.38217623e-01 -3.23373117e-01 -9.38217623e-01  1.64003214e-02 -6.70302122e-03 
 6.49930000e+10	 1.61528316e-02 -6.96755901e-03 -3.41852896e-01 -9.31579053e-01 -3.41852896e-01 -9.31579053e-01  1.61528316e-02 -6.96755901e-03 
 6.56620000e+10	 1.58950213e-02 -7.22227063e-03 -3.60196728e-01 -9.24576647e-01 -3.60196728e-01 -9.24576647e-01  1.58950213e-02 -7.22227063e-03 
 6.63310000e+10	 1.56272851e-02 -7.46675338e-03 -3.78397453e-01 -9.17213179e-01 -3.78397453e-01 -9.17213179e-01  1.56272851e-02 -7.46675338e-03 
 6.70000000e+10	 1.53500332e-02 -7.70062046e-03 -3.96447970e-01 -9.09491561e-01 -3.96447970e-01 -9.09491561e-01  1.53500332e-02 -7.70062046e-03 
