! Touchstone Ver. 1.0
! Number of ports is 4
# Hz  S RI  R  	50
! SCATTERING PARAMETERS  :
 1.00000000e+08	 1.03502274e-04 -1.21046245e-04  4.75727953e-06  2.98953341e-04  9.99894289e-01 -5.38750814e-04 -3.86366180e-06 -3.24505118e-05  4.75603037e-06  2.99193080e-04  1.02991841e-04  6.98287127e-05 -3.85681329e-06 -3.22102764e-05  9.99896106e-01 -3.77059403e-04  9.99894289e-01 -5.38750814e-04 -3.86366180e-06 -3.24505119e-05  1.03502274e-04 -1.21046245e-04  4.75727953e-06  2.98953341e-04 -3.85681329e-06 -3.22102759e-05  9.99896106e-01 -3.77059402e-04  4.75603037e-06  2.99193080e-04  1.02991841e-04  6.98287135e-05 
 7.69000000e+08	 1.01850875e-04 -9.30830220e-04  1.81388488e-05  2.29887836e-03  9.99868024e-01 -4.14288948e-03 -4.57950352e-06 -2.49533581e-04  1.81596211e-05  2.30072185e-03  1.10355346e-04  5.36953848e-04 -4.54517319e-06 -2.47686282e-04  9.99878410e-01 -2.89952123e-03  9.99868024e-01 -4.14288948e-03 -4.57950352e-06 -2.49533581e-04  1.01850875e-04 -9.30830220e-04  1.81388488e-05  2.29887836e-03 -4.54517319e-06 -2.47686282e-04  9.99878410e-01 -2.89952123e-03  1.81596211e-05  2.30072185e-03  1.10355346e-04  5.36953848e-04 
 1.43800000e+09	 9.61623526e-05 -1.74055999e-03  4.29154421e-05  4.29861146e-03  9.99823132e-01 -7.74675556e-03 -5.15842782e-06 -4.66599088e-04  4.29693567e-05  4.30205848e-03  1.21882475e-04  1.00401026e-03 -5.08696894e-06 -4.63144970e-04  9.99849144e-01 -5.42181421e-03  9.99823132e-01 -7.74675556e-03 -5.15842782e-06 -4.66599088e-04  9.61623526e-05 -1.74055999e-03  4.29154421e-05  4.29861146e-03 -5.08696894e-06 -4.63144970e-04  9.99849144e-01 -5.42181421e-03  4.29693567e-05  4.30205848e-03  1.21882475e-04  1.00401026e-03 
 2.10700000e+09	 8.59725436e-05 -2.55019596e-03  7.94742237e-05  6.29806073e-03  9.99760081e-01 -1.13502223e-02 -5.98988358e-06 -6.83648343e-04  7.95720265e-05  6.30311097e-03  1.37103265e-04  1.47097370e-03 -5.87127970e-06 -6.78587724e-04  9.99808777e-01 -7.94386302e-03  9.99760081e-01 -1.13502223e-02 -5.98988358e-06 -6.83648343e-04  8.59725436e-05 -2.55019596e-03  7.94742237e-05  6.29806073e-03 -5.87127970e-06 -6.78587724e-04  9.99808777e-01 -7.94386302e-03  7.95720265e-05  6.30311097e-03  1.37103265e-04  1.47097370e-03 
 2.77600000e+09	 7.08238967e-05 -3.35969685e-03  1.28196310e-04  8.29713391e-03  9.99679336e-01 -1.49531646e-02 -7.45822127e-06 -9.00682300e-04  1.28348376e-04  8.30378698e-03  1.55553797e-04  1.93782205e-03 -7.28209192e-06 -8.94015572e-04  9.99757776e-01 -1.04655945e-02  9.99679336e-01 -1.49531646e-02 -7.45822127e-06 -9.00682300e-04  7.08238967e-05 -3.35969685e-03  1.28196310e-04  8.29713391e-03 -7.28209192e-06 -8.94015572e-04  9.99757776e-01 -1.04655945e-02  1.28348376e-04  8.30378698e-03  1.55553797e-04  1.93782205e-03 
 3.44500000e+09	 5.07086911e-05 -4.16902184e-03  1.89085403e-04  1.02957389e-02  9.99580910e-01 -1.85554572e-02 -9.57131546e-06 -1.11770201e-03  1.89302096e-04  1.03039943e-02  1.77223389e-04  2.40453263e-03 -9.32727653e-06 -1.10942964e-03  9.99696154e-01 -1.29869349e-02  9.99580910e-01 -1.85554572e-02 -9.57131546e-06 -1.11770201e-03  5.07086911e-05 -4.16902184e-03  1.89085403e-04  1.02957389e-02 -9.32727653e-06 -1.10942964e-03  9.99696154e-01 -1.29869349e-02  1.89302096e-04  1.03039943e-02  1.77223389e-04  2.40453263e-03 
 4.11400000e+09	 2.56291075e-05 -4.97813017e-03  2.62136391e-04  1.22937837e-02  9.99464812e-01 -2.21569746e-02 -1.23291678e-05 -1.33470852e-03  2.62428070e-04  1.23036409e-02  2.02110718e-04  2.87108276e-03 -1.20068398e-05 -1.32483105e-03  9.99623914e-01 -1.55078105e-02  9.99464812e-01 -2.21569746e-02 -1.23291678e-05 -1.33470852e-03  2.56291075e-05 -4.97813017e-03  2.62136391e-04  1.22937837e-02 -1.20068398e-05 -1.32483105e-03  9.99623914e-01 -1.55078105e-02  2.62428070e-04  1.23036409e-02  2.02110718e-04  2.87108276e-03 
 4.78300000e+09	-4.41223118e-06 -5.78698111e-03  3.47343280e-04  1.42911762e-02  9.99331048e-01 -2.57575916e-02 -1.57318325e-05 -1.55170288e-03  3.47720297e-04  1.43026346e-02  2.30214277e-04  3.33744976e-03 -1.53208415e-05 -1.54022094e-03  9.99541062e-01 -1.80281478e-02  9.99331048e-01 -2.57575916e-02 -1.57318325e-05 -1.55170288e-03 -4.41223118e-06 -5.78698111e-03  3.47343280e-04  1.42911762e-02 -1.53208415e-05 -1.54022094e-03  9.99541062e-01 -1.80281478e-02  3.47720297e-04  1.43026346e-02  2.30214277e-04  3.33744976e-03 
 5.45200000e+09	-3.94034160e-05 -6.59552568e-03  4.44234224e-04  1.62878355e-02  9.99179620e-01 -2.93571913e-02 -1.93143859e-05 -1.76869695e-03  4.44707369e-04  1.63008943e-02  2.61550981e-04  3.80361903e-03 -1.88048080e-05 -1.75561122e-03  9.99447584e-01 -2.05478811e-02  9.99179620e-01 -2.93571913e-02 -1.93143859e-05 -1.76869695e-03 -3.94034160e-05 -6.59552568e-03  4.44234224e-04  1.62878355e-02 -1.88048080e-05 -1.75561122e-03  9.99447584e-01 -2.05478811e-02  4.44707369e-04  1.63008943e-02  2.61550981e-04  3.80361903e-03 
 6.12100000e+09	-7.93460253e-05 -7.40372580e-03  5.53077029e-04  1.82836664e-02  9.99010543e-01 -3.29556462e-02 -2.33525595e-05 -1.98568844e-03  5.53656823e-04  1.82983248e-02  2.96108085e-04  4.26956543e-03 -2.27342146e-05 -1.97099968e-03  9.99343498e-01 -2.30669346e-02  9.99010543e-01 -3.29556462e-02 -2.33525595e-05 -1.98568844e-03 -7.93460253e-05 -7.40372580e-03  5.53077029e-04  1.82836664e-02 -2.27342146e-05 -1.97099968e-03  9.99343498e-01 -2.30669346e-02  5.53656823e-04  1.82983248e-02  2.96108085e-04  4.26956543e-03 
 6.79000000e+09	-1.24239402e-04 -8.21154347e-03  6.74039171e-04  2.02785736e-02  9.98823832e-01 -3.65528287e-02 -2.80226944e-05 -2.20267495e-03  6.74735955e-04  2.02948308e-02  3.33876541e-04  4.73526382e-03 -2.72852419e-05 -2.18638399e-03  9.99228818e-01 -2.55852321e-02  9.98823832e-01 -3.65528287e-02 -2.80226944e-05 -2.20267495e-03 -1.24239402e-04 -8.21154347e-03  6.74039171e-04  2.02785736e-02 -2.72852419e-05 -2.18638399e-03  9.99228818e-01 -2.55852321e-02  6.74735955e-04  2.02948308e-02  3.33876541e-04  4.73526382e-03 
 7.45900000e+09	-1.74079385e-04 -9.01893838e-03  8.07124721e-04  2.22724654e-02  9.98619500e-01 -4.01486138e-02 -3.33386476e-05 -2.41965721e-03  8.07948817e-04  2.22903204e-02  3.74853595e-04  5.20069140e-03 -3.24717421e-05 -2.40176498e-03  9.99103551e-01 -2.81027003e-02  9.98619500e-01 -4.01486138e-02 -3.33386476e-05 -2.41965721e-03 -1.74079385e-04 -9.01893838e-03  8.07124721e-04  2.22724654e-02 -3.24717421e-05 -2.40176498e-03  9.99103551e-01 -2.81027003e-02  8.07948817e-04  2.22903204e-02  3.74853595e-04  5.20069140e-03 
 8.12800000e+09	-2.28861122e-04 -9.82587005e-03  9.52323311e-04  2.42652502e-02  9.98397562e-01 -4.37428769e-02 -3.93007660e-05 -2.63663625e-03  9.53285031e-04  2.42847020e-02  4.19036845e-04  5.66582559e-03 -3.82940711e-05 -2.61714373e-03  9.98967706e-01 -3.06192658e-02  9.98397562e-01 -4.37428769e-02 -3.93007660e-05 -2.63663625e-03 -2.28861122e-04 -9.82587005e-03  9.52323311e-04  2.42652502e-02 -3.82940711e-05 -2.61714373e-03  9.98967706e-01 -3.06192658e-02  9.53285031e-04  2.42847020e-02  4.19036845e-04  5.66582559e-03 
 8.79700000e+09	-2.88579321e-04 -1.06322981e-02  1.10962370e-03  2.62568368e-02  9.98158032e-01 -4.73354937e-02 -4.59094485e-05 -2.85361307e-03  1.11073334e-03  2.62778842e-02  4.66423709e-04  6.13064386e-03 -4.47526376e-05 -2.83252133e-03  9.98821292e-01 -3.31348555e-02  9.98158032e-01 -4.73354937e-02 -4.59094485e-05 -2.85361307e-03 -2.88579321e-04 -1.06322981e-02  1.10962370e-03  2.62568368e-02 -4.47526376e-05 -2.83252133e-03  9.98821292e-01 -3.31348555e-02  1.11073334e-03  2.62778842e-02  4.66423709e-04  6.13064386e-03 
 9.46600000e+09	-3.53228255e-04 -1.14381821e-02  1.27901376e-03  2.82471338e-02  9.97900927e-01 -5.09263400e-02 -5.31651455e-05 -3.07058866e-03  1.28028162e-03  2.82697756e-02  5.17011420e-04  6.59512369e-03 -5.18479026e-05 -3.04789885e-03  9.98664319e-01 -3.56493964e-02  9.97900927e-01 -5.09263400e-02 -5.31651455e-05 -3.07058866e-03 -3.53228255e-04 -1.14381821e-02  1.27901376e-03  2.82471338e-02 -5.18479026e-05 -3.04789885e-03  9.98664319e-01 -3.56493964e-02  1.28028162e-03  2.82697756e-02  5.17011420e-04  6.59512369e-03 
 1.01350000e+10	-4.24155206e-04 -1.22434192e-02  1.46034158e-03  3.02361021e-02  9.97627620e-01 -5.45153545e-02 -6.09299673e-05 -3.28761585e-03  1.46177806e-03  3.02603371e-02  5.69460808e-04  7.05930851e-03 -5.94421239e-05 -3.26332916e-03  9.98498134e-01 -3.81628816e-02  9.97627620e-01 -5.45153545e-02 -6.09299673e-05 -3.28761585e-03 -4.24155206e-04 -1.22434192e-02  1.46034158e-03  3.02361021e-02 -5.94421239e-05 -3.26332916e-03  9.98498134e-01 -3.81628816e-02  1.46177806e-03  3.02603371e-02  5.69460808e-04  7.05930851e-03 
 1.08040000e+10	-5.02707607e-04 -1.30478908e-02  1.65345566e-03  3.22237157e-02  9.97339485e-01 -5.81024920e-02 -6.90676522e-05 -3.50476048e-03  1.65507130e-03  3.22495426e-02  6.22432052e-04  7.52325839e-03 -6.73991885e-05 -3.47887819e-03  9.98324085e-01 -4.06753208e-02  9.97339485e-01 -5.81024920e-02 -6.90676522e-05 -3.50476048e-03 -5.02707607e-04 -1.30478908e-02  1.65345566e-03  3.22237157e-02 -6.73991885e-05 -3.47887819e-03  9.98324085e-01 -4.06753208e-02  1.65507130e-03  3.22495426e-02  6.22432052e-04  7.52325839e-03 
 1.14730000e+10	-5.86611705e-04 -1.38516517e-02  1.85857496e-03  3.42098055e-02  9.97034274e-01 -6.16875340e-02 -7.78118078e-05 -3.72194503e-03  1.86038006e-03  3.42372227e-02  6.78159797e-04  7.98685115e-03 -7.59524890e-05 -3.69446850e-03  9.98139945e-01 -4.31865416e-02  9.97034274e-01 -6.16875340e-02 -7.78118078e-05 -3.72194503e-03 -5.86611705e-04 -1.38516517e-02  1.85857496e-03  3.42098055e-02 -7.59524890e-05 -3.69446850e-03  9.98139945e-01 -4.31865416e-02  1.86038006e-03  3.42372227e-02  6.78159797e-04  7.98685115e-03 
 1.21420000e+10	-6.75415601e-04 -1.46546811e-02  2.07572984e-03  3.61942649e-02  9.96711564e-01 -6.52703381e-02 -8.72089286e-05 -3.93915450e-03  2.07773462e-03  3.62232709e-02  7.37079360e-04  8.45004414e-03 -8.51484885e-05 -3.91008516e-03  9.97945288e-01 -4.56964512e-02  9.96711564e-01 -6.52703381e-02 -8.72089286e-05 -3.93915450e-03 -6.75415601e-04 -1.46546811e-02  2.07572984e-03  3.61942649e-02 -8.51484885e-05 -3.91008516e-03  9.97945288e-01 -4.56964512e-02  2.07773462e-03  3.62232709e-02  7.37079360e-04  8.45004414e-03 
 1.28110000e+10	-7.69111119e-04 -1.54569392e-02  2.30490408e-03  3.81770035e-02  9.96371377e-01 -6.88507811e-02 -9.72600107e-05 -4.15638976e-03  2.30711877e-03  3.82075968e-02  7.99187362e-04  8.91281494e-03 -9.49881975e-05 -4.12572912e-03  9.97740127e-01 -4.82049774e-02  9.96371377e-01 -6.88507811e-02 -9.72600107e-05 -4.15638976e-03 -7.69111119e-04 -1.54569392e-02  2.30490408e-03  3.81770035e-02 -9.49881975e-05 -4.12572912e-03  9.97740127e-01 -4.82049774e-02  2.30711877e-03  3.82075968e-02  7.99187362e-04  8.91281494e-03 
 1.34800000e+10	-8.67689661e-04 -1.62583863e-02  2.54608061e-03  4.01579311e-02  9.96013736e-01 -7.24287404e-02 -1.07966099e-04 -4.37365166e-03  2.54851541e-03  4.01901099e-02  8.64480244e-04  9.37514119e-03 -1.05472676e-04 -4.34140130e-03  9.97524476e-01 -5.07120478e-02  9.96013736e-01 -7.24287404e-02 -1.07966099e-04 -4.37365166e-03 -8.67689661e-04 -1.62583863e-02  2.54608061e-03  4.01579311e-02 -1.05472676e-04 -4.34140130e-03  9.97524476e-01 -5.07120478e-02  2.54851541e-03  4.01901099e-02  8.64480244e-04  9.37514119e-03 
 1.41490000e+10	-9.71142202e-04 -1.70589828e-02  2.79924149e-03  4.21369578e-02  9.95638666e-01 -7.60040934e-02 -1.19328288e-04 -4.59094103e-03  2.80190659e-03  4.21707204e-02  9.32954266e-04  9.83700053e-03 -1.16603033e-04 -4.55710260e-03  9.97298348e-01 -5.32175903e-02  9.95638666e-01 -7.60040934e-02 -1.19328288e-04 -4.59094103e-03 -9.71142202e-04 -1.70589828e-02  2.79924149e-03  4.21369578e-02 -1.16603033e-04 -4.55710260e-03  9.97298348e-01 -5.32175903e-02  2.80190659e-03  4.21707204e-02  9.32954266e-04  9.83700053e-03 
 1.48180000e+10	-1.07945930e-03 -1.78586893e-02  3.06436794e-03  4.41139937e-02  9.95246193e-01 -7.95767180e-02 -1.31347718e-04 -4.80825866e-03  3.06727351e-03  4.41493383e-02  1.00460550e-03  1.02983707e-02 -1.28380426e-04 -4.77283389e-03  9.97061759e-01 -5.57215332e-02  9.95246193e-01 -7.95767180e-02 -1.31347718e-04 -4.80825866e-03 -1.07945930e-03 -1.78586893e-02  3.06436794e-03  4.41139937e-02 -1.28380426e-04 -4.77283389e-03  9.97061759e-01 -5.57215332e-02  3.06727351e-03  4.41493383e-02  1.00460550e-03  1.02983707e-02 
 1.54870000e+10	-1.19263107e-03 -1.86574663e-02  3.34144031e-03  4.60889494e-02  9.94836344e-01 -8.31464923e-02 -1.44025578e-04 -5.02560535e-03  3.34459651e-03  4.61258740e-02  1.07942986e-03  1.07592294e-02 -1.40806062e-04 -4.98859603e-03  9.96814724e-01 -5.82238046e-02  9.94836344e-01 -8.31464923e-02 -1.44025578e-04 -5.02560535e-03 -1.19263107e-03 -1.86574663e-02  3.34144031e-03  4.60889494e-02 -1.40806062e-04 -4.98859603e-03  9.96814724e-01 -5.82238046e-02  3.34459651e-03  4.61258740e-02  1.07942986e-03  1.07592294e-02 
 1.61560000e+10	-1.31064725e-03 -1.94552748e-02  3.63043813e-03  4.80617355e-02  9.94409147e-01 -8.67132949e-02 -1.57363106e-04 -5.24298184e-03  3.63385508e-03  4.81002382e-02  1.15742304e-03  1.12195544e-02 -1.53881194e-04 -5.20438985e-03  9.96557261e-01 -6.07243332e-02  9.94409147e-01 -8.67132949e-02 -1.57363106e-04 -5.24298184e-03 -1.31064725e-03 -1.94552748e-02  3.63043813e-03  4.80617355e-02 -1.53881194e-04 -5.20438985e-03  9.96557261e-01 -6.07243332e-02  3.63385508e-03  4.81002382e-02  1.15742304e-03  1.12195544e-02 
 1.68250000e+10	-1.43349713e-03 -2.02520756e-02  3.93134006e-03  5.00322630e-02  9.93964631e-01 -9.02770045e-02 -1.71361581e-04 -5.46038886e-03  3.93502787e-03  5.00723417e-02  1.23858059e-03  1.16793235e-02 -1.67607122e-04 -5.42021616e-03  9.96289384e-01 -6.32230475e-02  9.93964631e-01 -9.02770045e-02 -1.71361581e-04 -5.46038886e-03 -1.43349713e-03 -2.02520756e-02  3.93134006e-03  5.00322630e-02 -1.67607122e-04 -5.42021616e-03  9.96289384e-01 -6.32230475e-02  3.93502787e-03  5.00723417e-02  1.23858059e-03  1.16793235e-02 
 1.74940000e+10	-1.56116959e-03 -2.10478298e-02  4.24412393e-03  5.20004431e-02  9.93502827e-01 -9.38375004e-02 -1.86022335e-04 -5.67782713e-03  4.24809269e-03  5.20420956e-02  1.32289785e-03  1.21385147e-02 -1.81985195e-04 -5.63607572e-03  9.96011113e-01 -6.57198764e-02  9.93502827e-01 -9.38375004e-02 -1.86022335e-04 -5.67782713e-03 -1.56116959e-03 -2.10478298e-02  4.24412393e-03  5.20004431e-02 -1.81985195e-04 -5.63607572e-03  9.96011113e-01 -6.57198764e-02  4.24809269e-03  5.20420956e-02  1.32289785e-03  1.21385147e-02 
 1.81630000e+10	-1.69365311e-03 -2.18424987e-02  4.56876672e-03  5.39661873e-02  9.93023766e-01 -9.73946622e-02 -2.01346739e-04 -5.89529731e-03  4.57302650e-03  5.40094115e-02  1.41037002e-03  1.25971058e-02 -1.97016806e-04 -5.85196928e-03  9.95722466e-01 -6.82147490e-02  9.93023766e-01 -9.73946622e-02 -2.01346739e-04 -5.89529731e-03 -1.69365311e-03 -2.18424987e-02  4.56876672e-03  5.39661873e-02 -1.97016806e-04 -5.85196928e-03  9.95722466e-01 -6.82147490e-02  4.57302650e-03  5.40094115e-02  1.41037002e-03  1.25971058e-02 
 1.88320000e+10	-1.83093575e-03 -2.26360437e-02  4.90524460e-03  5.59294073e-02  9.92527482e-01 -1.00948370e-01 -2.17336213e-04 -6.11280006e-03  4.90980545e-03  5.59742008e-02  1.50099209e-03  1.30550747e-02 -2.12703394e-04 -6.06789757e-03  9.95423461e-01 -7.07075948e-02  9.92527482e-01 -1.00948370e-01 -2.17336213e-04 -6.11280006e-03 -1.83093575e-03 -2.26360437e-02  4.90524460e-03  5.59294073e-02 -2.12703394e-04 -6.06789757e-03  9.95423461e-01 -7.07075948e-02  4.90980545e-03  5.59742008e-02  1.50099209e-03  1.30550747e-02 
 1.95010000e+10	-1.97300517e-03 -2.34284263e-02  5.25353289e-03  5.78900153e-02  9.92014007e-01 -1.04498504e-01 -2.33992220e-04 -6.33033598e-03  5.25840483e-03  5.79363758e-02  1.59475888e-03  1.35123996e-02 -2.29046443e-04 -6.28386127e-03  9.95114118e-01 -7.31983431e-02  9.92014007e-01 -1.04498504e-01 -2.33992220e-04 -6.33033598e-03 -1.97300517e-03 -2.34284263e-02  5.25353289e-03  5.78900153e-02 -2.29046443e-04 -6.28386127e-03  9.95114118e-01 -7.31983431e-02  5.25840483e-03  5.79363758e-02  1.59475888e-03  1.35123996e-02 
 2.01700000e+10	-2.11984863e-03 -2.42196082e-02  5.61360609e-03  5.98479235e-02  9.91483377e-01 -1.08044945e-01 -2.51316266e-04 -6.54790568e-03  5.61879912e-03  5.98958485e-02  1.69166504e-03  1.39690584e-02 -2.46047482e-04 -6.49986105e-03  9.94794458e-01 -7.56869239e-02  9.91483377e-01 -1.08044945e-01 -2.51316266e-04 -6.54790568e-03 -2.11984863e-03 -2.42196082e-02  5.61360609e-03  5.98479235e-02 -2.46047482e-04 -6.49986105e-03  9.94794458e-01 -7.56869239e-02  5.61879912e-03  5.98958485e-02  1.69166504e-03  1.39690584e-02 
 2.08390000e+10	-2.27145298e-03 -2.50095514e-02  5.98543788e-03  6.18030447e-02  9.90935628e-01 -1.11587574e-01 -2.69309901e-04 -6.76550970e-03  5.99096199e-03  6.18525316e-02  1.79170502e-03  1.44250293e-02 -2.63708083e-04 -6.71589753e-03  9.94464502e-01 -7.81732672e-02  9.90935628e-01 -1.11587574e-01 -2.69309901e-04 -6.76550970e-03 -2.27145298e-03 -2.50095514e-02  5.98543788e-03  6.18030447e-02 -2.63708083e-04 -6.71589753e-03  9.94464502e-01 -7.81732672e-02  5.99096199e-03  6.18525316e-02  1.79170502e-03  1.44250293e-02 
 2.15080000e+10	-2.42780467e-03 -2.57982178e-02  6.36900114e-03  6.37552917e-02  9.90370798e-01 -1.15126273e-01 -2.87974717e-04 -6.98314858e-03  6.37486627e-03  6.38063381e-02  1.89487313e-03  1.48802905e-02 -2.82029860e-04 -6.93197131e-03  9.94124270e-01 -8.06573031e-02  9.90370798e-01 -1.15126273e-01 -2.87974717e-04 -6.98314858e-03 -2.42780467e-03 -2.57982178e-02  6.36900114e-03  6.37552917e-02 -2.82029860e-04 -6.93197131e-03  9.94124270e-01 -8.06573031e-02  6.37486627e-03  6.38063381e-02  1.89487313e-03  1.48802905e-02 
 2.21770000e+10	-2.58888977e-03 -2.65855699e-02  6.76426791e-03  6.57045780e-02  9.89788924e-01 -1.18660924e-01 -3.07312347e-04 -7.20082280e-03  6.77048398e-03  6.57571811e-02  2.00116348e-03  1.53348201e-02 -3.01014472e-04 -7.14808295e-03  9.93773786e-01 -8.31389624e-02  9.89788924e-01 -1.18660924e-01 -3.07312347e-04 -7.20082280e-03 -2.58888977e-03 -2.65855699e-02  6.76426791e-03  6.57045780e-02 -3.01014472e-04 -7.14808295e-03  9.93773786e-01 -8.31389624e-02  6.77048398e-03  6.57571811e-02  2.00116348e-03  1.53348201e-02 
 2.28460000e+10	-2.75469394e-03 -2.73715700e-02  7.17120944e-03  6.76508172e-02  9.89190047e-01 -1.22191410e-01 -3.27324466e-04 -7.41853283e-03  7.17778636e-03  6.77049742e-02  2.11057001e-03  1.57885965e-02 -3.20663617e-04 -7.36423298e-03  9.93413072e-01 -8.56181757e-02  9.89190047e-01 -1.22191410e-01 -3.27324466e-04 -7.41853283e-03 -2.75469394e-03 -2.73715700e-02  7.17120944e-03  6.76508172e-02 -3.20663617e-04 -7.36423298e-03  9.93413072e-01 -8.56181757e-02  7.17778636e-03  6.77049742e-02  2.11057001e-03  1.57885965e-02 
 2.35150000e+10	-2.92520246e-03 -2.81561807e-02  7.58979618e-03  6.95939232e-02  9.88574206e-01 -1.25717614e-01 -3.48012790e-04 -7.63627909e-03  7.59674382e-03  6.96496313e-02  2.22308649e-03  1.62415981e-02 -3.40979036e-04 -7.58042190e-03  9.93042151e-01 -8.80948742e-02  9.88574206e-01 -1.25717614e-01 -3.48012790e-04 -7.63627909e-03 -2.92520246e-03 -2.81561807e-02  7.58979618e-03  6.95939232e-02 -3.40979036e-04 -7.58042190e-03  9.93042151e-01 -8.80948742e-02  7.59674382e-03  6.96496313e-02  2.22308649e-03  1.62415981e-02 
 2.41840000e+10	-3.10040023e-03 -2.89393649e-02  8.01999779e-03  7.15338105e-02  9.87941443e-01 -1.29239419e-01 -3.69379072e-04 -7.85406196e-03  8.02732598e-03  7.15910668e-02  2.33870651e-03  1.66938032e-02 -3.61962510e-04 -7.79665016e-03  9.92661049e-01 -9.05689893e-02  9.87941443e-01 -1.29239419e-01 -3.69379072e-04 -7.85406196e-03 -3.10040023e-03 -2.89393649e-02  8.01999779e-03  7.15338105e-02 -3.61962510e-04 -7.79665016e-03  9.92661049e-01 -9.05689893e-02  8.02732598e-03  7.15910668e-02  2.33870651e-03  1.66938032e-02 
