! Created with skrf (http://scikit-rf.org).
# Hz S RI R 50.0 
!freq ReS11 ImS11 ReS21 ImS21 ReS12 ImS12 ReS22 ImS22
100000000.0 0.999990423594704 -0.0035225230489581813 1.237436014517475e-06 0.00028677977527124567 1.237436014506606e-06 0.00028677977526841086 0.9999904235947042 -0.0035225230489392724
300299401.1976048 0.9999336708586799 -0.01057784215856004 9.79335373013151e-06 0.0008611395574600468 9.793353730160847e-06 0.0008611395574592033 0.9999336708586799 -0.010577842158534908
500598802.3952096 0.9998268023118871 -0.017632458663219743 2.645523799779768e-05 0.0014353416558884583 2.6455237997951266e-05 0.0014353416558963365 0.9998268023118875 -0.0176324586632229
700898203.5928144 0.9996698263946378 -0.02468596714119772 5.122060859423706e-05 0.002009290315210693 5.1220608594442394e-05 0.002009290315218583 0.9996698263946374 -0.024685967141214245
901197604.7904192 0.9994627554771631 -0.031737962285920615 8.408578886347245e-05 0.0025828898212879254 8.408578886398955e-05 0.0025828898213026814 0.9994627554771636 -0.03173796228591036
1101497005.988024 0.9992056055325809 -0.03878803893977353 0.00012504586651444213 0.003156044519020256 0.00012504586651514054 0.0031560445190371164 0.9992056055325811 -0.03878803893978333
1301796407.185629 0.9988983964101925 -0.045835792142537704 0.0001740947285352202 0.003728658829359644 0.00017409472853621553 0.0037286588293812444 0.998898396410193 -0.045835792142526845
1502095808.3832335 0.998541152341472 -0.05288081720376759 0.00023122512519822226 0.004300637265303506 0.0002312251251995077 0.004300637265327294 0.9985411523414709 -0.052880817203768964
1702395209.5808384 0.9981339012647306 -0.0599227097244943 0.0002964285891362459 0.004871884450159683 0.0002964285891378757 0.004871884450187656 0.99813390126473 -0.0599227097244924
1902694610.7784433 0.9976766750325641 -0.06696106565072128 0.0003696954633272283 0.0054423051343170355 0.00036969546332916406 0.005442305134346879 0.9976766750325634 -0.06696106565072452
2102994011.976048 0.9971695094066912 -0.0739954813198751 0.00045101490330862795 0.006011804212272582 0.0004510149033110119 0.0060118042123041586 0.997169509406691 -0.07399548131988863
2303293413.1736526 0.996612444052118 -0.08102555350721702 0.0005403748796770564 0.006580286739638629 0.0005403748796800452 0.006580286739673551 0.9966124440521166 -0.08102555350723209
2503592814.371258 0.9960055225306409 -0.08805087947205037 0.0006377621808712033 0.007147657950091476 0.0006377621808745583 0.007147657950129647 0.996005522530639 -0.08805087947207181
2703892215.5688624 0.9953487922936937 -0.0950710570038836 0.0007431624162360514 0.007713823272266019 0.0007431624162400678 0.007713823272307948 0.9953487922936923 -0.0950710570038853
2904191616.766467 0.9946423046745174 -0.10208568446844356 0.0008565600193699206 0.008278688346588061 0.0008565600193746683 0.008278688346632208 0.9946423046745168 -0.10208568446845641
3104491017.964072 0.9938861148796883 -0.10909436085361901 0.0009779382517493107 0.008842159042039202 0.0009779382517547998 0.008842159042087674 0.9938861148796877 -0.10909436085362853
3304790419.161677 0.9930802819799788 -0.11609668581506327 0.0011072792066332891 0.00940414147286237 0.0011072792066393528 0.009404141472913283 0.9930802819799773 -0.1160966858150812
3505089820.3592815 0.992224868900569 -0.12309225972192467 0.0012445638132433027 0.009964542015168382 0.0012445638132500907 0.009964542015223012 0.9922248689005668 -0.12309225972193966
3705389221.5568867 0.9913199424106098 -0.13008068370213774 0.0013897718412194014 0.01052326732348616 0.0013897718412269645 0.010523267323543055 0.9913199424106083 -0.13008068370215092
3905688622.7544913 0.9903655731121428 -0.13706155968770622 0.00154288190534798 0.011080224347203238 0.00154288190535635 0.011080224347263478 0.9903655731121401 -0.13706155968771794
4105988023.952096 0.9893618354283641 -0.14403449045972694 0.0017038714705620776 0.011635320346932711 0.0017038714705713974 0.01163532034699615 0.9893618354283624 -0.14403449045973632
4306287425.149701 0.9883088075912689 -0.1509990796932291 0.0018727168572099948 0.012188462910768888 0.0018727168572202657 0.01218846291083452 0.9883088075912665 -0.1509990796932449
4506586826.347305 0.9872065716286436 -0.15795493200178876 0.0020493932465911148 0.012739559970446039 0.0020493932466022695 0.012739559970515069 0.9872065716286405 -0.15795493200180646
4706886227.54491 0.986055213350435 -0.16490165298193482 0.002233874686756603 0.013288519817394935 0.002233874686768848 0.013288519817466763 0.9860552133504323 -0.16490165298195053
4907185628.742516 0.984854822334499 -0.1718388492573123 0.0024261340985731136 0.013835251118675809 0.002426134098586366 0.013835251118751146 0.9848548223344962 -0.17183884925732168
5107485029.94012 0.9836054927657476 -0.17876612869927766 0.002626141976427315 0.014379663185684215 0.0026261419764417385 0.01437966318576251 0.9836054927657448 -0.17876612869929323
5307784431.137725 0.9823073217863676 -0.1856831001542851 0.0028338688922398786 0.014921665537194491 0.0028338688922554495 0.014921665537275608 0.982307321786364 -0.18568310015430253
5508083832.33533 0.9809604095168669 -0.1925893734634351 0.0030492854468900732 0.01546116788074851 0.0030492854469068194 0.015461167880832356 0.980960409516863 -0.19258937346345242
5708383233.532934 0.9795648604642804 -0.1994845598049778 0.0032723600987570635 0.015998080556559092 0.003272360098774937 0.015998080556645672 0.9795648604642766 -0.19948455980499685
5908682634.730539 0.9781207828227902 -0.20636827160165405 0.0035030602135223627 0.016532314358912056 0.003503060213541737 0.016532314359002022 0.9781207828227868 -0.20636827160167184
6108982035.928144 0.9766282884557982 -0.2132401225632575 0.0037413520717664824 0.017063780551324553 0.0037413520717869894 0.017063780551417097 0.9766282884557942 -0.21324012256327382
6309281437.125749 0.9750874928774154 -0.22009972772887013 0.003987200876806483 0.01759239088155307 0.003987200876828393 0.017592390881648975 0.9750874928774113 -0.22009972772889
6509580838.323354 0.9734985152333664 -0.22694670350879564 0.004240570762776445 0.018118057596459826 0.004240570762799842 0.018118057596558382 0.973498515233362 -0.22694670350881455
6709880239.520959 0.9718614782813104 -0.23378066772616043 0.0045014248029423614 0.01864069345671601 0.004501424802966931 0.018640693456817067 0.971861478281306 -0.23378066772617828
6910179640.718563 0.9701765083705994 -0.2406012396581953 0.004769725018250359 0.019160211751351183 0.004769725018276472 0.019160211751455044 0.9701765083705947 -0.2406012396582131
7110479041.916168 0.9684437354214619 -0.24740804007715955 0.005045432386107129 0.019676526312140206 0.005045432386134826 0.019676526312247252 0.9684437354214569 -0.2474080400771795
7310778443.113773 0.966663292903632 -0.2542006912909397 0.005328506849384537 0.020189551527821162 0.005328506849413719 0.02018955152793056 0.9666632929036263 -0.2542006912909612
7511077844.311378 0.9648353178144284 -0.2609788171832523 0.00561890732564769 0.02069920235814217 0.0056189073256783795 0.020699202358254426 0.9648353178144216 -0.26097881718327537
7711377245.508983 0.9629599506562818 -0.2677420432535262 0.005916591716603533 0.021205394347735735 0.00591659171663587 0.02120539434785059 0.9629599506562758 -0.2677420432535492
7911676646.706588 0.9610373354137345 -0.2744899966563552 0.006221516917763168 0.02170804363981129 0.006221516917797253 0.02170804363992871 0.9610373354137277 -0.2744899966563801
8111976047.904192 0.9590676195298935 -0.28122230624062106 0.00653363882831783 0.02220706698966654 0.0065336388283535945 0.022207066989787097 0.959067619529887 -0.2812223062406438
8312275449.101797 0.9570509538823809 -0.28793860258816384 0.00685291236122086 0.022702381778014563 0.0068529123612583375 0.022702381778137586 0.9570509538823738 -0.2879386025881882
8512574850.299402 0.954987492758747 -0.29463851805211794 0.007179291453475216 0.023193906024115425 0.007179291453514461 0.023193906024241054 0.9549874927587373 -0.2946385180521453
8712874251.497007 0.9528773938313846 -0.30132168679477783 0.007512729076619972 0.02368155839872116 0.007512729076660914 0.023681558398848883 0.9528773938313757 -0.30132168679480503
8913173652.69461 0.950720818131954 -0.307987744825087 0.007853177247413294 0.02416525823681792 0.007853177247456065 0.02416525823694837 0.9507208181319443 -0.30798774482511526
9113473053.892216 0.9485179300252906 -0.31463633003567876 0.008200587038706618 0.024644925550173558 0.00820058703875128 0.0246449255503065 0.9485179300252801 -0.3146363300357074
9313772455.08982 0.9462688971828483 -0.3212670822395072 0.008554908590506652 0.025120481039675898 0.008554908590553238 0.02512048103981141 0.9462688971828385 -0.32126708223953504
9514071856.287426 0.94397389055566 -0.3278796432060078 0.008916091121220857 0.02559184610747045 0.008916091121269332 0.025591846107608514 0.9439738905556487 -0.32787964320603774
9714371257.485031 0.9416330843468257 -0.33447365669685664 0.009284082939081144 0.026058942868884157 0.009284082939131804 0.026058942869025034 0.9416330843468151 -0.33447365669688284
9914670658.682636 0.9392466559835486 -0.3410487685012209 0.009658831453743709 0.026521694164139534 0.009658831453796273 0.026521694164282437 0.9392466559835366 -0.3410487685012509
10114970059.88024 0.9368148715110839 -0.3476046589212749 0.010040267163214853 0.026980032362085123 0.010040267163269525 0.026980032362230552 0.9368148715110713 -0.3476046589213054
10315269461.077845 0.9343379012654813 -0.35414097477480455 0.010428338362527323 0.027433880919384313 0.010428338362584041 0.027433880919531983 0.9343379012654682 -0.35414097477483597
10515568862.27545 0.9318158712684008 -0.36065734578826003 0.010823001314844028 0.027883158853220943 0.010823001314902977 0.027883158853371105 0.9318158712683884 -0.36065734578829084
10715868263.473055 0.9292489717506875 -0.3671534265776146 0.011224199941345046 0.02832779211174982 0.011224199941406119 0.028327792111902235 0.9292489717506742 -0.3671534265776473
10916167664.67066 0.9266373960122257 -0.37362887396230005 0.01163187732792607 0.028767707424573023 0.011631877327989211 0.028767707424727805 0.9266373960122108 -0.3736288739623346
11116467065.868265 0.9239813403912547 -0.38008334699746127 0.012045975737786561 0.029202832313052134 0.012045975737852037 0.029202832313209158 0.9239813403912409 -0.38008334699749297
11316766467.065868 0.9212810042333028 -0.38651650700567713 0.012466436624158538 0.029633095100385632 0.01246643662422614 0.029633095100544935 0.9212810042332891 -0.3865165070057069
11517065868.263474 0.9185365898597289 -0.39292801760820395 0.012893200643170179 0.030058424921455933 0.012893200643240095 0.0300584249216171 0.9185365898597138 -0.39292801760823926
11717365269.461079 0.9157483025358817 -0.39931754475571984 0.013326207666842742 0.03047875173243916 0.013326207666915205 0.030478751732603223 0.9157483025358666 -0.3993175447557534
11917664670.658684 0.9129163504389102 -0.4056847567585098 0.013765396796213492 0.03089400632018366 0.013765396796288248 0.030894006320349533 0.9129163504388951 -0.40568475675854354
12117964071.856289 0.9100409446252051 -0.4120293243161727 0.014210706374578984 0.03130412031134093 0.01421070637465607 0.0313041203115088 0.9100409446251896 -0.4120293243162062
12318263473.053894 0.9071222989974947 -0.4183509205467881 0.01466207400085743 0.031709026181265254 0.014662074000936932 0.03170902618143539 0.9071222989974781 -0.4183509205468224
12518562874.251497 0.9041606302716074 -0.4246492210155578 0.015119436543062395 0.032108657262667775 0.015119436543144333 0.03210865726284007 0.9041606302715894 -0.42464922101559394
12718862275.449102 0.901156157942905 -0.43092390376290957 0.015582730151883172 0.03250294775402768 0.015582730151967525 0.0325029477542019 0.9011561579428867 -0.4309239037629448
12919161676.646708 0.8981091042523965 -0.43717464933206707 0.01605189027436853 0.032891832727759064 0.016051890274455246 0.03289183272793479 0.8981091042523781 -0.43717464933210287
13119461077.844313 0.8950196941525455 -0.44340114079608706 0.016526851667707152 0.03327524813813272 0.016526851667796407 0.033275248138310516 0.8950196941525259 -0.44340114079612386
13319760479.041918 0.8918881552727762 -0.44960306378434134 0.017007548413101533 0.033653130828952306 0.01700754841319354 0.03365313082913238 0.8918881552727562 -0.44960306378437687
13520059880.239521 0.888714717884696 -0.4557801065084544 0.017493913929729113 0.034025418540981574 0.017493913929823694 0.03402541854116344 0.888714717884676 -0.45578010650849105
13720359281.437126 0.8854996148670328 -0.4619319597876973 0.01798588098878592 0.03439204991912269 0.017985880988883172 0.03439204991930647 0.8854996148670123 -0.46193195978773366
13920658682.634731 0.8822430816703108 -0.4680583170738119 0.01848338172760866 0.03475296451934716 0.018483381727708487 0.03475296451953268 0.8822430816702894 -0.46805831707385015
14120958083.832336 0.8789453562812591 -0.47415887447529825 0.018986347663869772 0.035108102815375866 0.018986347663972225 0.03510810281556307 0.8789453562812365 -0.47415887447533794
14321257485.029942 0.8756066791869751 -0.4802333307811348 0.019494709709839894 0.03545740620510691 0.019494709709945244 0.03545740620529634 0.8756066791869526 -0.4802333307811736
14521556886.227547 0.8722272933388543 -0.48628138748392274 0.020008398186714942 0.03580081701679793 0.02000839818682299 0.03580081701698884 0.8722272933388315 -0.48628138748396277
14721856287.42515 0.86880744411628 -0.4923027488024934 0.02052734283899977 0.03613827851498973 0.020527342839110632 0.0361382785151824 0.8688074441162561 -0.4923027488025333
14922155688.622755 0.8653473792900968 -0.4982971217039306 0.021051472848946824 0.03646973490618468 0.021051472849060227 0.036469734906378816 0.8653473792900732 -0.4982971217039684
15122455089.82036 0.8618473489858889 -0.5042642159250229 0.021580716851041043 0.03679513134426889 0.021580716851157117 0.03679513134446452 0.8618473489858627 -0.5042642159250632
15322754491.017965 0.8583076056470305 -0.5102037439931696 0.022115002946532132 0.03711441393568754 0.02211500294665131 0.037114413935885056 0.8583076056470057 -0.5102037439932098
15523053892.21557 0.8547284039975777 -0.5161154212466891 0.02265425871800307 0.0374275297443638 0.022654258718124865 0.037427529744562885 0.8547284039975512 -0.5161154212467294
15723353293.413176 0.8511100010049607 -0.5219989658545641 0.02319841124397186 0.03773442679636917 0.023198411244096495 0.03773442679656945 0.8511100010049337 -0.5219989658546044
15923652694.610779 0.8474526558425095 -0.5278540988356278 0.023747387113525448 0.038035054084340277 0.023747387113652995 0.03803505408454212 0.847452655842482 -0.5278540988356694
16123952095.808384 0.8437566298518314 -0.5336805440771523 0.024301112440976217 0.03832936157164901 0.024301112441106828 0.0383293615718523 0.8437566298518031 -0.5336805440771936
16324251497.00599 0.8400221865050189 -0.5394780283528819 0.02485951288053879 0.03861730019631683 0.024859512880672133 0.03861730019652147 0.8400221865049893 -0.5394780283529244
16524550898.203594 0.8362495913667418 -0.5452462813404767 0.025422513641021428 0.03889882187468416 0.025422513641157815 0.03889882187489025 0.8362495913667121 -0.5452462813405191
16724850299.4012 0.832439112056186 -0.5509850356383934 0.02599003950052838 0.03917387950482619 0.02599003950066786 0.03917387950503366 0.8324391120561567 -0.5509850356384363
16925149700.598804 0.8285910182088896 -0.5566940267821823 0.026562014821168732 0.03944242696972439 0.026562014821311056 0.03944242696993302 0.828591018208859 -0.5566940267822242
17125449101.796408 0.824705581438457 -0.5623729932602041 0.027138363563763184 0.03970441914018648 0.02713836356390885 0.039704419140396616 0.824705581438425 -0.5623729932602483
17325748502.994015 0.8207830752981795 -0.5680216765287914 0.027719009302552708 0.03995981187752393 0.02771900930270108 0.03995981187773504 0.8207830752981473 -0.568021676528835
17526047904.19162 0.8168237752425622 -0.5736398210268062 0.028303875239893507 0.04020856203597907 0.028303875240045132 0.04020856203619176 0.8168237752425294 -0.573639821026849
17726347305.38922 0.8128279585887686 -0.579227174189646 0.028892884220943774 0.04045062746491197 0.028892884221098286 0.04045062746512546 0.812827958588735 -0.5792271741896893
17926646706.586826 0.8087959044779955 -0.584783486462669 0.029485958748331056 0.04068596701074031 0.029485958748488427 0.040685967010954574 0.8087959044779603 -0.5847834864627115
18126946107.78443 0.8047278938367808 -0.5903085113140406 0.030083020996799922 0.040914540518640276 0.030083020996960436 0.04091454051885553 0.8047278938367464 -0.5903085113140845
18327245508.982037 0.8006242093382698 -0.5958020052470218 0.030683992827833143 0.04113630883400472 0.030683992827996855 0.04113630883422121 0.8006242093382345 -0.5958020052470655
18527544910.17964 0.7964851353634226 -0.601263727811666 0.031288795804242084 0.04135123380366279 0.031288795804409186 0.04135123380388045 0.7964851353633859 -0.6012637278117113
18727844311.377247 0.7923109579621993 -0.6066934416159736 0.03189735120472546 0.04155927827686211 0.031897351204895494 0.04155927827708056 0.7923109579621623 -0.6066934416160186
18928143712.574852 0.7881019648147154 -0.612090912336455 0.03250958003838568 0.04176040610601299 0.03250958003855887 0.04176040610623232 0.7881019648146779 -0.612090912336499
19128443113.772457 0.7838584451923839 -0.6174559087281424 0.03312540305920643 0.04195458214720112 0.03312540305938249 0.041954582147420996 0.7838584451923458 -0.6174559087281868
19328742514.970062 0.7795806899190496 -0.6227882026340326 0.03374474078048079 0.042141772260465206 0.03374474078066018 0.042141772260685995 0.7795806899190114 -0.6227882026340769
19529041916.167667 0.7752689913321259 -0.6280875689939717 0.03436751348919086 0.042321943309845386 0.034367513489373606 0.04232194331006709 0.7752689913320869 -0.6280875689940166
19729341317.365273 0.7709236432437419 -0.6333537858529747 0.034993641260330416 0.04249506316320192 0.03499364126051657 0.0424950631634245 0.7709236432437024 -0.6333537858530197
19929640718.562874 0.7665449409019175 -0.638586634368997 0.035623043971170394 0.04266110069180648 0.03562304397135953 0.04266110069202957 0.7665449409018762 -0.638586634369042
20129940119.76048 0.7621331809517529 -0.6437858988201398 0.03625564131546033 0.04282002576970954 0.03625564131565261 0.04282002576993325 0.7621331809517111 -0.6437858988201852
20330239520.958084 0.7576886613966779 -0.6489513666113155 0.03689135281756556 0.04297180927288518 0.036891352817761305 0.04297180927310967 0.7576886613966355 -0.6489513666113607
20530538922.15569 0.7532116815597243 -0.6540828282803586 0.03753009784653252 0.04311642307815434 0.0375300978467314 0.043116423078379346 0.7532116815596802 -0.654082828280405
20730838323.353294 0.7487025420448714 -0.6591800775035922 0.03817179563008083 0.04325384006189117 0.03817179563028293 0.04325384006211659 0.7487025420448267 -0.6591800775036383
20931137724.5509 0.7441615446984458 -0.6642429111008465 0.03881636526851791 0.043384034098511666 0.038816365268722966 0.04338403409873723 0.7441615446984006 -0.6642429111008928
21131437125.748505 0.7395889925705994 -0.669271129039948 0.03946372574857103 0.04350698005874923 0.03946372574877982 0.04350698005897566 0.7395889925705539 -0.6692711290399936
21331736526.94611 0.734985189876862 -0.674264534440667 0.0401137959571411 0.043622653807723955 0.040113795957352955 0.043622653807950676 0.7349851898768145 -0.6742645344407125
21532035928.143715 0.7303504419597835 -0.6792229335781311 0.04076649469495736 0.04373103220279288 0.04076649469517295 0.043731032203020236 0.7303504419597373 -0.6792229335781769
21732335329.34132 0.7256850552506807 -0.6841461358857158 0.04142174069015329 0.04383209309120524 0.04142174069037168 0.04383209309143253 0.7256850552506324 -0.6841461358857619
21932634730.538925 0.7209893372314732 -0.6890339539574032 0.042079452611737206 0.04392581530754677 0.042079452611958994 0.04392581530777449 0.7209893372314248 -0.6890339539574479
