! Created with skrf (http://scikit-rf.org).
# Hz S RI R 50.0 
!freq ReS11 ImS11 ReS12 ImS12 ReS13 ImS13
! ReS14 ImS14
! ReS21 ImS21 ReS22 ImS22 ReS23 ImS23
! ReS24 ImS24
! ReS31 ImS31 ReS32 ImS32 ReS33 ImS33
! ReS34 ImS34
! ReS41 ImS41 ReS42 ImS42 ReS43 ImS43
! ReS44 ImS44
!
100000000.0 0.0008094334788030788 -0.00015015999468652344 3.106794213362603e-05 0.0009883799112862242 0.9991759876447375 -0.0030679531430703637 -2.579402852958754e-05 -0.00010130350492214637
 3.106863309057044e-05 0.0009885206766894923 0.0007296398359663003 -0.0003165178567414446 -2.579288583042795e-05 -0.00010116272439002797 0.999254543336542 -0.0031007270328433046
 0.9991759876447375 -0.0030679531430055735 -2.5794028530011796e-05 -0.00010130350492866126 0.0008094334788033009 -0.00015015999476418896 3.106794213377343e-05 0.0009883799112969925
 -2.5792885829927517e-05 -0.00010116272438594484 0.9992545433365425 -0.0031007270328505076 3.1068633090468695e-05 0.0009885206766800055 0.0007296398359664669 -0.0003165178566990011
775757575.7575758 0.000812645693759162 -0.0011651268913591237 0.00023624550487560264 0.007663157591647686 0.9987821665477978 -0.023794288082149763 -4.108814751714836e-05 -0.000785726005736352
 0.00023627670950153153 0.0076642489543931385 0.0006941637199661677 -0.0024548495988878723 -4.105616716027145e-05 -0.0007846344582324141 0.9988564255675632 -0.024048451785871956
 0.9987821665477981 -0.023794288082149156 -4.108814751713917e-05 -0.0007857260057337054 0.0008126456937589954 -0.001165126891358973 0.00023624550487572312 0.007663157591645201
 -4.105616716016614e-05 -0.000784634458232401 0.9988564255675638 -0.024048451785866037 0.00023627670950161563 0.007664248954392561 0.0006941637199658901 -0.0024548495988926723
1451515151.5151515 0.000793855736666127 -0.0021799384623876657 0.0007121911901030043 0.014321849161733883 0.9979019323971758 -0.044500761858617705 -5.893996248818219e-05 -0.001470753846476571
 0.0007122955122104831 0.01432388859337152 0.0005883836164028433 -0.004590038325098608 -5.883458077619866e-05 -0.0014687137247343385 0.9979599894739608 -0.044975740673367015
 0.9979019323971768 -0.04450076185861544 -5.893996248812669e-05 -0.0014707538464734438 0.0007938557366656274 -0.002179938462389417 0.0007121911901027454 0.014321849161730967
 -5.883458077627809e-05 -0.0014687137247341422 0.9979599894739601 -0.04497574067336127 0.0007122955122106152 0.014323888593371805 0.0005883836164029543 -0.004590038325104017
2127272727.2727273 0.0007477250002978497 -0.0031934984790313098 0.0014603374239146746 0.020952395636851633 0.9965417557372431 -0.06517355322237507 -8.205331359900113e-05 -0.0021575392979853417
 0.0014605572636287485 0.020955378632353208 0.0004075782542775075 -0.006718835866299323 -8.183208391761271e-05 -0.0021545544713047447 0.9965713500946235 -0.06586813254016874
 0.9965417557372431 -0.06517355322237212 -8.205331359892806e-05 -0.0021575392979841577 0.0007477250002977387 -0.003193498479034134 0.0014603374239145189 0.020952395636850515
 -8.183208391785835e-05 -0.002154554471303925 0.9965713500946229 -0.06586813254016816 0.00146055726362886 0.020955378632352133 0.00040757825427734096 -0.006718835866299653
2803030303.030303 0.0006690771895286884 -0.004204375483214705 0.0024815001972436244 0.027542774537098438 0.9947085680499824 -0.08579925953183984 -0.00011322421014405015 -0.002847172142912876
 0.0024818776518861965 0.02754669463001372 0.00014728498341082252 -0.00883772317180096 -0.00011284488012998646 -0.002843248148559855 0.9946971302535996 -0.08671154049416932
 0.9947085680499821 -0.08579925953184224 -0.00011322421014415188 -0.0028471721429117487 0.0006690771895285774 -0.004204375483211046 0.002481500197243621 0.027542774537097317
 -0.0001128448801305288 -0.0028432481485604864 0.9946971302535992 -0.08671154049416863 0.0024818776518863665 0.027546694630014197 0.00014728498341087803 -0.008837723171802358
3478787878.787879 0.0005581407572007868 -0.005211255027869012 0.003773405876169227 0.03408108723712383 0.9924045083118538 -0.10636448025463402 -0.00015285624820035492 -0.0035407248362840046
 0.003773982663075525 0.03408593601836877 -0.00019185761091305986 -0.010943304181692507 -0.00015227685629517741 -0.0035358688644039314 0.9923396050653203 -0.10749190220283368
 0.9924045083118541 -0.10636448025463473 -0.0001528562482005164 -0.003540724836284115 0.0005581407572005093 -0.005211255027868919 0.0037734058761691846 0.03408108723712378
 -0.0001522768562950809 -0.0035358688644042996 0.9923396050653202 -0.10749190220283236 0.003773982663075405 0.03408593601836919 -0.0001918576109127823 -0.01094330418169433
4154545454.5454545 0.00041522237944174867 -0.006212846750972367 0.005333212698151829 0.04055557827217629 0.9896322403086407 -0.12685594506061768 -0.00020147134605628302 -0.004239230291942526
 0.0053340300578916386 0.04056134541487551 -0.0006090320561891183 -0.013032232879959653 -0.00020065029584657188 -0.004233451166589214 0.9895016128243163 -0.12819529628458215
 0.9896322403086408 -0.12685594506061543 -0.00020147134605597218 -0.0042392302919428 0.0004152223794415266 -0.0062128467509744035 0.005333212698151766 0.040555578272176415
 -0.0002006502958467889 -0.0042334511665884315 0.9895016128243163 -0.1281952962845818 0.005334030057891831 0.0405613454148747 -0.0006090320561893958 -0.01303223287995937
4830303030.30303 0.000240704275603687 -0.007207890606178566 0.007157521187933483 0.04695466622011728 0.9863949428763561 -0.1472605417867599 -0.00025970596346840656 -0.004943672315741842
 0.00715861978941712 0.04696133950990629 -0.0011032465771128042 -0.01510122505922347 -0.0002586020965095384 -0.004936980471676986 0.986186544300863 -0.14880797280391012
 0.9863949428763558 -0.147260541786759 -0.0002597059634684912 -0.004943672315741445 0.00024070427560374252 -0.007207890606179228 0.007157521187933499 0.04695466622011693
 -0.0002586020965097085 -0.00493698047167659 0.986186544300863 -0.14880797280390937 0.007158619789417236 0.046961339509905956 -0.0011032465771135258 -0.015101225059224583
5506060606.060606 3.671651406167431e-05 -0.008195239761668575 0.00923922568483744 0.053267373548447766 0.9826946048283653 -0.16756526210294104 -0.0003251225208929861 -0.005655381629561198
 0.009240645559078962 0.05327493891477396 -0.0016717260093270792 -0.017147124568297933 -0.00032369521204437027 -0.00564778908137465 0.9823966962501771 -0.16931632294825882
 0.9826946048283656 -0.167565262102941 -0.0003251225208926594 -0.005655381629561541 3.6716514061396754e-05 -0.008195239761668829 0.009239225684837395 0.053267373548448065
 -0.0003236952120442167 -0.005647789081374533 0.9823966962501773 -0.16931632294826032 0.009240645559079094 0.053274938914773834 -0.0016717260093269681 -0.01714712456829707
6181818181.818182 -0.00019732902747532366 -0.009173683535490142 0.01157597798502247 0.05948240109666771 0.9785365113034153 -0.1877574180070251 -0.0004007017938686303 -0.00637506344207958
 0.011577758390761904 0.05949084265936275 -0.0023142162449951154 -0.019166783881721237 -0.00039891097819708 -0.006366583758353064 0.9781375948813432 -0.18970704617559275
 0.9785365113034147 -0.18775741800702556 -0.00040070179386890393 -0.0063750634420797255 -0.00019732902747437997 -0.009173683535489146 0.011575977985022474 0.05948240109666779
 -0.00039891097819696845 -0.00636658375835326 0.9781375948813433 -0.18970704617559359 0.011577758390761911 0.05949084265936298 -0.002314216244995393 -0.01916678388172042
6857575757.575758 -0.0004614059522262126 -0.010142064554644552 0.01416385519330152 0.065588745296284 0.9739258738152198 -0.20782455224015267 -0.0004884656241651466 -0.0071033817798132285
 0.014166034538758043 0.0655980454108031 -0.003029778934954208 -0.021157153923949245 -0.0004862718725848644 -0.00709403004775035 0.9734147476420889 -0.2099670948749447
 0.9739258738152194 -0.20782455224015214 -0.0004884656241652165 -0.007103381779813311 -0.0004614059522262126 -0.01014206455464486 0.014163855193301624 0.06558874529628404
 -0.00048627187258499827 -0.007094030047750288 0.9734147476420885 -0.20996709487494414 0.014166034538758159 0.06559804541080304 -0.003029778934954097 -0.021157153923949658
7533333333.333333 -0.0007548667042703849 -0.011099299774775409 0.016997373495012333 0.07157580767491183 0.9688677963869801 -0.22775444395727856 -0.0005894586805773283 -0.007841037014122408
 0.016999989262831028 0.0715859469812826 -0.0038167874675392177 -0.02311530521460609 -0.0005868232721825519 -0.00783082980000823 0.9682336067081099 -0.23008368652977834
 0.9688677963869805 -0.22775444395727873 -0.0005894586805771779 -0.00784103701412232 -0.000754866704270607 -0.011099299774774859 0.01699737349501211 0.07157580767491178
 -0.0005868232721836055 -0.007830829800007998 0.9682336067081092 -0.2300836865297771 0.016999989262831246 0.07158594698128246 -0.0038167874675394398 -0.02311530521460712
8209090909.090909 -0.001077009191626066 -0.01204436210169015 0.02007057074156441 0.0774333020075778 0.9633678237901586 -0.2475351548422116 -0.0007048107269018451 -0.008588639627491864
 0.020073659408354705 0.07744425948498962 -0.00467347642521021 -0.025038420450692985 -0.0007016957101245929 -0.00857759493495273 0.9626000951097373 -0.2500443453727627
 0.9633678237901587 -0.24753515484221117 -0.000704810726901952 -0.008588639627491613 -0.0010770091916265656 -0.012044362101690482 0.020070570741564542 0.07743330200757764
 -0.000701695710124174 -0.008577594934952682 0.9626000951097377 -0.2500443453727622 0.020073659408354545 0.07744425948498951 -0.004673476425210765 -0.025038420450693447
8884848484.848484 -0.0014270821938364708 -0.012976284095434953 0.023377027092811732 0.0831512779590422 0.9574319222393648 -0.2671550501652517 -0.000835728997187556 -0.009346703853921052
 0.023380624052428287 0.0831630309845222 -0.005597950745705127 -0.026923802408852043 -0.0008320972479231328 -0.009334841079120425 0.9565205855271615 -0.2698369252091286
 0.957431922239365 -0.26715505016525154 -0.0008357289971878454 -0.00934670385392085 -0.0014270821938363043 -0.012976284095435376 0.023377027092811815 0.08315127795904195
 -0.0008320972479231639 -0.009334841079120203 0.9565205855271612 -0.2698369252091287 0.023380624052428203 0.083163030984522 -0.00559795074570496 -0.02692380240885183
9560606060.60606 -0.001804291048247142 -0.013894161127736547 0.026909886948941652 0.08872014313837676 0.9510664588912474 -0.28660281832499634 -0.0009834901422041428 -0.010115642015765442
 0.026914026439741584 0.08873266754925832 -0.0065881953922767855 -0.02876888100917273 -0.000979305418740761 -0.010102981899787769 0.9500018777792856 -0.289449630557583
 0.9510664588912474 -0.28660281832499723 -0.000983490142204388 -0.010115642015765574 -0.0018042910482467533 -0.013894161127735637 0.026909886948941572 0.08872014313837698
 -0.0009793054187407293 -0.010102981899788088 0.9500018777792867 -0.2894496305575832 0.02691402643974182 0.08873266754925851 -0.006588195392277507 -0.028768881009172683
10236363636.363636 -0.002219001935218623 -0.014793620826906094 0.03066136137460968 0.09413215321557217 0.9442895820950037 -0.3058711010137083 -0.0011489899616362364 -0.010897180387448455
 0.030666076417614145 0.09414542337534443 -0.007652223411503234 -0.030568165593961444 -0.0011442169940854357 -0.010883744948224593 0.9430615185031972 -0.30887417438096654
 0.9442895820950037 -0.30587110101370796 -0.0011489899616363801 -0.010897180387448562 -0.002219001935218734 -0.014793620826906464 0.030661361374609588 0.09413215321557242
 -0.0011442169940857538 -0.010883744948224305 0.9430615185031965 -0.30887417438096676 0.030666076417614194 0.09414542337534415 -0.007652223411503345 -0.03056816559396081
10912121212.121212 -0.002679534358115021 -0.015670059206477203 0.03462361571246182 0.09938006357700202 0.9371178491933377 -0.3249532466590929 -0.0013335401897516112 -0.011693006876574479
 0.0346289380457418 0.09939405244563874 -0.008796148661634862 -0.03231604570723728 -0.0013281447356342704 -0.011678819346532102 0.9357157000599037 -0.32810296919147713
 0.937117849193338 -0.32495324665909275 -0.0013335401897512952 -0.01169300687657473 -0.0026795343581151876 -0.01567005920647713 0.03462361571246153 0.09938006357700227
 -0.00132814473563438 -0.011678819346532055 0.9357157000599038 -0.3281029691914773 0.03462893804574174 0.09939405244563868 -0.00879614866163475 -0.032316045707237256
11587878787.878788 -0.0031639338017375174 -0.01652898903232927 0.03878975181905418 0.10445286771927348 0.9295373056614178 -0.3438326935562316 -0.001539564902257942 -0.012500664358324864
 0.03879571182016933 0.10446754692510209 -0.00999860169892508 -0.034015738806781035 -0.0015335136817858398 -0.01248574918275263 0.9279529710610189 -0.34711989571652774
 0.9295373056614178 -0.3438326935562315 -0.0015395649022578017 -0.012500664358324903 -0.0031639338017377394 -0.0165289890323294 0.038789751819054266 0.10445286771927348
 -0.0015335136817860072 -0.012485749182752394 0.9279529710610185 -0.3471198957165281 0.03879571182016933 0.10446754692510188 -0.009998601698924636 -0.0340157388067807
12263636363.636364 -0.0036712459921171003 -0.017369819432227634 0.04315144142338441 0.10934256388923459 0.9215556584618471 -0.36249955964123004 -0.0017685604570870823 -0.013320079167818997
 0.04315806806711141 0.10935790380265092 -0.011257152912967805 -0.035665272752422206 -0.0017618212580258153 -0.01330446192067335 0.9197815609046727 -0.3659147175466043
 0.9215556584618472 -0.3624995596412301 -0.0017685604570875746 -0.013320079167818778 -0.0036712459921174334 -0.017369819432227554 0.04315144142338461 0.10934256388923447
 -0.00176182125802556 -0.013304461920673347 0.9197815609046733 -0.36591471754660443 0.043158068067111095 0.10935790380265101 -0.011257152912967805 -0.03566527275242222
12939393939.39394 -0.004200506666843795 -0.018192031476228363 0.047700042890926914 0.11404159096542199 0.9131809013632044 -0.38094435748413363 -0.0020220457134319577 -0.014151056934026227
 0.04770736369890573 0.114057560775422 -0.012569308298921222 -0.03726282609246595 -0.0020145874278571355 -0.014134764260284639 0.9112100003903585 -0.38447762611406955
 0.9131809013632051 -0.3809443574841339 -0.002022045713431516 -0.014151056934026287 -0.004200506666844184 -0.018192031476227985 0.04770004289092658 0.11404159096542207
 -0.002014587427857614 -0.014134764260284292 0.911210000390358 -0.3844776261140688 0.04770736369890581 0.11405756077542184 -0.012569308298921111 -0.03726282609246632
13615151515.151516 -0.004750747799587118 -0.018995177643545573 0.05242662779320219 0.11854283997766235 0.904421290211531 -0.39915800377306776 -0.0023015528112523675 -0.014993281613565234
 0.05243466878833955 0.11855940777017043 -0.013932520472136056 -0.0388067295097238 -0.0022933454685337288 -0.014976341170460757 0.9022470946499022 -0.40279925065515587
 0.904421290211531 -0.3991580037730682 -0.0023015528112525193 -0.014993281613565067 -0.004750747799586785 -0.01899517764354529 0.05242662779320231 0.1185428399776623
 -0.0022933454685338354 -0.014976341170460948 0.9022470946499022 -0.4027992506551558 0.05243466878833969 0.11855940777017054 -0.013932520472136112 -0.03880672950972393
14290909090.90909 -0.005321003685571146 -0.01977888073139463 0.05732200775892998 0.1228396638001647 0.8952853179684159 -0.41713182704823926 -0.002608618026658712 -0.015846315259826563
 0.05733079342458587 0.12285679663782603 -0.015344199587702667 -0.04029546637716215 -0.002599632822649713 -0.015828755657256385 0.8929018958518067 -0.4208706662413868
 0.8952853179684158 -0.4171318270482395 -0.0026086180266585712 -0.015846315259826462 -0.005321003685570869 -0.019778880731394576 0.057322007758929955 0.12283966380016469
 -0.0025996328226497835 -0.015828755657256468 0.8929018958518069 -0.42087066624138625 0.05733079342458594 0.12285679663782603 -0.015344199587703111 -0.040295466377162525
14966666666.666666 -0.005910316837590246 -0.02054283222872469 0.06237676146703813 0.12692588503497343 0.8857816896501665 -0.43485757370058775 -0.0029447727654523005 -0.016709598504109982
 0.06238631471100759 0.12694354903807215 -0.016801724088867043 -0.04172767244978877 -0.002934982087916015 -0.016691449244484506 0.8831836758283602 -0.438683399899751
 0.8857816896501669 -0.43485757370058853 -0.0029447727654521535 -0.01670959850411005 -0.005910316837590079 -0.020542832228724245 0.062376761467038085 0.1269258850349735
 -0.002934982087916001 -0.01669144924448464 0.8831836758283604 -0.43868339989975136 0.06238631471100774 0.12694354903807217 -0.01680172408886721 -0.04172767244978859
15642424242.424242 -0.006517743645603036 -0.02128679018228162 0.06758126164659094 0.1307958021140906 0.8759192972982366 -0.45232741226080814 -0.003311534753219398 -0.017582451719982753
 0.06759160376985549 0.13081396254227218 -0.018302451212652115 -0.04310213472603108 -0.0033009122035180336 -0.01756374313779198 0.8731018987698196 -0.4562294348531848
 0.8759192972982366 -0.45232741226080786 -0.0033115347532193325 -0.017582451719982857 -0.00651774364560298 -0.021286790182281926 0.06758126164659103 0.1307958021140906
 -0.0033009122035180176 -0.017563743137791882 0.8731018987698191 -0.45622943485318446 0.06759160376985546 0.1308139625422721 -0.018302451212651893 -0.043102134726031555
16318181818.181818 -0.0071423597568148756 -0.022010576586498735 0.0729257019544371 0.13444419365927213 0.865707195105853 -0.4695339360147071 -0.0037103994759546182 -0.018464076837175682
 0.07293685262464358 0.13446281499375465 -0.019843727186011295 -0.044417789517861 -0.0036989198870631935 -0.018444840038526842 0.8626661941237899 -0.47350121292430003
 0.8657071951058537 -0.46953393601470705 -0.0037103994759549556 -0.018464076837175436 -0.007142359756815042 -0.022010576586498874 0.0729257019544372 0.134444193659272
 -0.003698919887063489 -0.01844484003852659 0.8626661941237898 -0.4735012129242999 0.07293685262464358 0.13446281499375456 -0.019843727186010907 -0.044417789517861184
16993939393.939394 -0.007783265137309536 -0.02271407433215511 0.07840012360797745 0.13786632114833597 0.8551545748197572 -0.48647016399030396 -0.004142831920421882 -0.019353559767048056
 0.07841210083757702 0.1378853671743041 -0.021422897051270262 -0.04567371977420483 -0.0041304713713427406 -0.019333826569429995 0.851886329830898 -0.49049163515581035
 0.855154574819757 -0.486470163990304 -0.004142831920421871 -0.019353559767048 -0.007783265137309481 -0.022714074332155165 0.07840012360797745 0.13786632114833586
 -0.004130471371342834 -0.01933382656942991 0.8518863298308978 -0.49049163515581023 0.07841210083757716 0.13788536717430405 -0.021422897051270262 -0.0456737197742048
17669696969.696968 -0.008439588780722762 -0.023397223751731096 0.08399444165777709 0.1410579299457394 0.8442707415292174 -0.503129540370692 -0.00461025865836367 -0.020249873398028882
 0.0840072617867366 0.14107736383462866 -0.023037314065455228 -0.04686915170675639 -0.004596994485035878 -0.020229676270536224 0.8407721860200077 -0.5071940607105732
 0.8442707415292177 -0.5031295403706919 -0.004610258658363821 -0.020249873398028875 -0.008439588780722707 -0.023397223751731214 0.08399444165777709 0.14105792994573949
 -0.004596994485036121 -0.020229676270536116 0.8407721860200076 -0.507194060710573 0.08400726178673663 0.14107736383462868 -0.023037314065455394 -0.046869151706756734
18345454545.454544 -0.009110493034045819 -0.024060018801732766 0.08969847079269258 0.14401524876315336 0.8330650899471742 -0.5195059323944099 -0.005114060313366735 -0.021151881116443692
 0.08971214847566739 0.1440350331545468 -0.024684348624194274 -0.048003450771120094 -0.005099871116180124 -0.021131253120688392 0.8293337292777725 -0.5236023041226907
 0.8330650899471745 -0.5195059323944099 -0.005114060313366675 -0.02115188111644373 -0.00911049303404593 -0.024060018801732586 0.08969847079269255 0.14401524876315341
 -0.005099871116180681 -0.02113125312068816 0.829333729277772 -0.5236023041226905 0.08971214847566752 0.14403503315454674 -0.02468434862419422 -0.04800345077111996
19021212121.21212 -0.00979517751531711 -0.024702502924081216 0.09550195057860394 0.14673498762273657 0.8215470812805509 -0.5355936268118718 -0.00565556444373181 -0.022058340805825347
