! Created with skrf (http://scikit-rf.org).
# Hz S RI R 50.0 
!freq ReS11 ImS11 ReS21 ImS21 ReS12 ImS12 ReS22 ImS22
100000000.0 0.00044592296368176624 2.563916020037317e-05 0.9995492720096665 -0.0013935916792948125 0.9995492720096664 -0.001393591679234707 0.00044592296368167945 2.5639160254304357e-05
775757575.7575758 0.0004355219411154779 0.00019901507911703855 0.9994781488847233 -0.010810540686643577 0.9994781488847229 -0.01081054068666315 0.00043552194111555443 0.00019901507910237608
1451515151.5151515 0.00044602520801600266 0.0003721877929946554 0.9993006690332514 -0.020225913296139836 0.9993006690332511 -0.020225913296138976 0.0004460252080156357 0.00037218779299408035
2127272727.2727273 0.00046855573898074 0.0005448559787029226 0.9990257255550593 -0.029638633237694608 0.9990257255550594 -0.02963863323770128 0.0004685557389804777 0.0005448559786979517
2803030303.030303 0.0004943573082269393 0.0007170540904246958 0.9986620981442647 -0.03904796017830576 0.9986620981442653 -0.03904796017830376 0.0004943573082273299 0.0007170540904257982
3478787878.787879 0.0005234201984640437 0.0008887203884633722 0.998209826569229 -0.048453057790909686 0.9982098265692291 -0.048453057790911615 0.0005234201984638706 0.0008887203884640888
4154545454.5454545 0.0005557335286182144 0.001059793332545807 0.9976689585082708 -0.057853090203955404 0.9976689585082708 -0.05785309020395339 0.0005557335286183109 0.0010597933325493547
4830303030.30303 0.0005912852579109351 0.0012302116037756277 0.9970395495443928 -0.06724722207684068 0.9970395495443929 -0.06724722207684111 0.0005912852579107311 0.001230211603776026
5506060606.060606 0.0006353639587044112 0.0013994987862019509 0.9963163563698223 -0.07663420292753273 0.9963163563698227 -0.07663420292753252 0.0006353639587047511 0.001399498786202494
6181818181.818182 0.0006844174374555164 0.001567751758647067 0.9955029885009243 -0.08601335627948486 0.9955029885009246 -0.0860133562794847 0.0006844174374556891 0.001567751758647721
6857575757.575758 0.0007366479930149029 0.0017350326207407117 0.9946013081093422 -0.09538397139859664 0.9946013081093426 -0.09538397139859688 0.0007366479930148015 0.0017350326207400126
7533333333.333333 0.0007920364129036241 0.0019012815799475677 0.9936114043226373 -0.10474521606726156 0.9936114043226374 -0.1047452160672612 0.0007920364129035658 0.0019012815799473132
8209090909.090909 0.000850562360755756 0.002066439222751239 0.9925333741313797 -0.11409625900247308 0.9925333741313793 -0.1140962590024737 0.0008505623607555318 0.0020664392227500764
8884848484.848484 0.0009122043837890215 0.0022304465357624857 0.9913673223790644 -0.1234362699307137 0.9913673223790641 -0.12343626993071412 0.0009122043837888751 0.0022304465357623334
9560606060.60606 0.0009769399206720607 0.0023932449266902424 0.9901133617513017 -0.13276441966269925 0.9901133617513019 -0.13276441966269906 0.0009769399206725612 0.002393244926690327
10236363636.363636 0.001039207760415957 0.0025555866844689536 0.9887771684827941 -0.14208069327398895 0.9887771684827944 -0.1420806932739888 0.0010392077604161158 0.0025555866844692164
10912121212.121212 0.001094268895919394 0.0027183132884368235 0.987363610208837 -0.15138516756344061 0.9873636102088371 -0.15138516756344134 0.0010942688959191804 0.0027183132884356196
11587878787.878788 0.0011524165458631412 0.002879957633783123 0.9858624757811986 -0.16067560369464176 0.9858624757811991 -0.16067560369464087 0.0011524165458633028 0.0028799576337846314
12263636363.636364 0.0012136295039058647 0.003040461504417764 0.9842739046844543 -0.16995117669891202 0.9842739046844543 -0.16995117669891205 0.001213629503905724 0.0030404615044177666
12939393939.39394 0.001277885467987142 0.0031997670990547636 0.9825980441944829 -0.1792110630027765 0.9825980441944834 -0.1792110630027781 0.001277885467987095 0.003199767099053526
13615151515.151516 0.0013451610484384857 0.003357817051825475 0.9808350493641816 -0.18845444050211685 0.9808350493641814 -0.1884544405021165 0.0013451610484385965 0.003357817051825401
14290909090.90909 0.0014154317764797691 0.0035145544527353735 0.9789850830084517 -0.19768048863616103 0.9789850830084517 -0.1976804886361611 0.0014154317764799081 0.003514554452735527
14966666666.666666 0.0014886721131010332 0.003669922867939031 0.9770483156884696 -0.20688838846133945 0.9770483156884694 -0.20688838846134 0.0014886721131008934 0.0036699228679387677
15642424242.424242 0.0015648554583236115 0.0038238663598499792 0.9750249256952386 -0.21607732272493346 0.9750249256952388 -0.2160773227249339 0.0015648554583237966 0.0038238663598497945
16318181818.181818 0.0016439541608430372 0.003976329507070518 0.9729150990324246 -0.22524647593856625 0.9729150990324247 -0.2252464759385658 0.001643954160843233 0.003976329507071202
16993939393.939394 0.0017259395280427392 0.004127257424138992 0.9707190293984769 -0.23439503445150434 0.970719029398477 -0.23439503445150436 0.0017259395280429999 0.004127257424138913
17669696969.696968 0.0018107818363792283 0.004276595781067229 0.9684369181680426 -0.24352218652376106 0.9684369181680432 -0.24352218652376112 0.0018107818363794687 0.004276595781067034
18345454545.454544 0.001898450342135558 0.004424290822693952 0.9660689743726687 -0.2526271223990032 0.9660689743726687 -0.25262712239900376 0.0018984503421357892 0.004424290822693271
19021212121.21212 0.001988913292536414 0.0045702893878185455 0.9636154146807965 -0.2617090343772495 0.963615414680797 -0.2617090343772503 0.001988913292536642 0.004570289387817987
19696969696.969696 0.0020821379372229615 0.004714538928124684 0.9610764633770599 -0.27076711688734906 0.9610764633770599 -0.2707671168873489 0.002082137937223278 0.004714538928124547
20372727272.727272 0.0021780905400815283 0.004856987526878491 0.9584523523408747 -0.2798005665592412 0.9584523523408747 -0.27980056655924146 0.0021780905400815916 0.004856987526878148
21048484848.484848 0.0022767363914239936 0.004997583917402501 0.9557433210243347 -0.2888085822959915 0.9557433210243341 -0.2888085822959913 0.002276736391423878 0.0049975839174024525
21724242424.242424 0.0023780398205126034 0.005136277501309756 0.9529496164294119 -0.29779036534557746 0.9529496164294113 -0.29779036534557746 0.0023780398205125765 0.005136277501309865
22400000000.0 0.002481964208427666 0.005273018366498732 0.950071493084464 -0.3067451193724406 0.9500714930844643 -0.30674511937244037 0.002481964208427966 0.005273018366498753
23075757575.757576 0.002588472001272623 0.0054077573049010385 0.9471092130200544 -0.3156720505287885 0.947109213020054 -0.3156720505287882 0.0025884720012726626 0.0054077573049011885
23751515151.515152 0.002697524723706679 0.005540445829973674 0.9440630457440816 -0.32457036752563195 0.9440630457440818 -0.32457036752563184 0.0026975247237070663 0.005540445829973607
24427272727.272728 0.0028090829928114924 0.00567103619392684 0.9409332682162342 -0.3334392817035629 0.9409332682162338 -0.33343928170356285 0.0028090829928112335 0.005671036193926806
25103030303.030304 0.0029231065322733313 0.005799481404695935 0.9377201648217556 -0.34227800710326195 0.9377201648217554 -0.3422780071032616 0.0029231065322731986 0.0057994814046961754
25778787878.78788 0.0030395541868857754 0.00592573524262621 0.9344240273445433 -0.35108576053572144 0.9344240273445432 -0.35108576053572127 0.003039554186885857 0.00592573524262648
26454545454.545456 0.0031583839373645786 0.006049752276891079 0.9310451549395673 -0.35986176165219164 0.9310451549395671 -0.35986176165219225 0.003158383937364477 0.006049752276890497
27130303030.303032 0.0032795529154647065 0.0061714878816191854 0.927583854104622 -0.3686052330138325 0.9275838541046219 -0.3686052330138322 0.0032795529154650547 0.0061714878816193225
27806060606.060604 0.0034030174194034915 0.006290898251735189 0.9240404386514145 -0.3773154001610594 0.9240404386514147 -0.37731540016105974 0.003403017419403527 0.0062908982517350135
28481818181.81818 0.003528732929573666 0.006407940418501156 0.9204152296759869 -0.38599149168260105 0.920415229675987 -0.38599149168260083 0.00352873292957373 0.006407940418501232
29157575757.575756 0.0036566541245506056 0.006522572264758965 0.9167085555284831 -0.3946327392842268 0.9167085555284828 -0.3946327392842268 0.0036566541245505596 0.006522572264758988
29833333333.333332 0.0037867348973792837 0.006634752539866016 0.9129207517822582 -0.40323837785717276 0.9129207517822588 -0.4032383778571727 0.0037867348973794827 0.0066347525398663
30509090909.090908 0.0039189283721428195 0.006744440874318911 0.9090521612023422 -0.41180764554623167 0.9090521612023417 -0.41180764554623156 0.003918928372142654 0.006744440874318678
31184848484.848484 0.00405318692079904 0.00685159779405805 0.9051031337132472 -0.42033978381752074 0.9051031337132475 -0.4203397838175211 0.004053186920798998 0.006851597794058138
31860606060.60606 0.004189462180286046 0.006956184734455192 0.9010740263661444 -0.4288340375259072 0.9010740263661442 -0.4288340375259075 0.004189462180285667 0.006956184734454938
32536363636.363636 0.004327705069884221 0.0070581640539667 0.8969652033053899 -0.4372896549820942 0.8969652033053901 -0.4372896549820942 0.004327705069884515 0.007058164053966481
33212121212.121212 0.004467865808835514 0.007157499047462582 0.8927770357344247 -0.4457058880193547 0.8927770357344249 -0.4457058880193552 0.004467865808835643 0.007157499047461737
33887878787.878788 0.004609893934205605 0.007254153959212278 0.888509901881038 -0.45408199205991534 0.8885099018810375 -0.45408199205991573 0.004609893934205399 0.007254153959212036
34563636363.63636 0.00475373831898716 0.007348093995534746 0.8841641869620075 -0.4624172261809717 0.8841641869620076 -0.4624172261809718 0.004753738318987284 0.007348093995534554
35239393939.393936 0.004899347190441904 0.007439285337099697 0.8797402831471174 -0.4707108531803419 0.8797402831471174 -0.47071085318034184 0.00489934719044215 0.00743928533709959
35915151515.15151 0.005046668148662452 0.007527695150879657 0.8752385895225547 -0.4789621396417467 0.8752385895225546 -0.4789621396417464 0.005046668148662377 0.007527695150879817
36590909090.90909 0.005195648185359865 0.007613291601748308 0.8706595120536978 -0.4871703559997065 0.8706595120536978 -0.48717035599970643 0.005195648185359989 0.007613291601748232
37266666666.666664 0.005346233702865166 0.007696043863722658 0.8660034635472913 -0.4953347766040603 0.8660034635472912 -0.4953347766040602 0.005346233702864765 0.0076960438637227275
37942424242.42424 0.005498370533333576 0.007775922130839025 0.861270863613018 -0.5034546797840873 0.861270863613018 -0.5034546797840878 0.0054983705333336045 0.007775922130838656
38618181818.181816 0.005652003958154921 0.00785289762766496 0.8564621386244725 -0.5115293479122371 0.8564621386244725 -0.5115293479122369 0.005652003958155029 0.007852897627664992
39293939393.93939 0.005807078727552176 0.007926942619445966 0.8515777216795362 -0.5195580674674558 0.8515777216795362 -0.5195580674674556 0.005807078727552297 0.007926942619446212
39969696969.69697 0.005963539080368627 0.007998030421871954 0.8466180525601635 -0.5275401290981074 0.8466180525601639 -0.5275401290981074 0.005963539080368858 0.00799803042187187
40645454545.454544 0.006121328764033368 0.008066135410472025 0.8415835776915835 -0.5354748276844798 0.8415835776915832 -0.5354748276844801 0.0061213287640330925 0.008066135410472007
41321212121.21212 0.006280391054697503 0.00813123302962841 0.8364747501009152 -0.5433614624008752 0.8364747501009154 -0.5433614624008752 0.006280391054697652 0.008131233029628444
41996969696.969696 0.0064406687775386065 0.008193299801207185 0.8312920293752135 -0.5511993367772746 0.8312920293752134 -0.5511993367772746 0.006440668777538318 0.008193299801207301
42672727272.72727 0.006602104327217735 0.008252313332805643 0.8260358816189373 -0.5589877587605779 0.8260358816189374 -0.5589877587605776 0.006602104327217687 0.008252313332805915
43348484848.48485 0.006764639688489867 0.00830825232560552 0.8207067794108531 -0.5667260407754042 0.8207067794108528 -0.5667260407754044 0.0067646396884895755 0.008308252325605494
44024242424.242424 0.006928216456953828 0.008361096581842038 0.8153052017603788 -0.5744134997844624 0.8153052017603788 -0.5744134997844627 0.006928216456953817 0.008361096581841839
44700000000.0 0.0070927758599424835 0.0084108270118729 0.8098316340633679 -0.5820494573484664 0.8098316340633676 -0.5820494573484665 0.007092775859942389 0.008410827011872762
45375757575.757576 0.007258258777533761 0.008457425640855784 0.8042865680573419 -0.5896332396856128 0.8042865680573413 -0.5896332396856123 0.00725825877753371 0.008457425640855942
46051515151.51515 0.00742460576368713 0.008500875615023057 0.7986705017761785 -0.597164177730595 0.7986705017761782 -0.5971641777305949 0.0074246057636869565 0.008500875615023147
46727272727.27273 0.007591757067490229 0.008541161207559371 0.7929839395042547 -0.6046416071931703 0.7929839395042546 -0.6046416071931705 0.0075917570674900485 0.008541161207559392
47403030303.030304 0.0077596526545123425 0.008578267824074972 0.7872273917300578 -0.6120648686162514 0.7872273917300575 -0.6120648686162513 0.007759652654512201 0.00857826782407477
48078787878.78788 0.007928232228251274 0.008612182007672067 0.7814013750992581 -0.6194333074335384 0.781401375099258 -0.6194333074335387 0.007928232228250903 0.008612182007672
48754545454.545456 0.008097435251673947 0.008642891443610794 0.7755064123672636 -0.6267462740266758 0.7755064123672637 -0.6267462740266759 0.008097435251674128 0.008642891443610808
49430303030.30303 0.008267200968838657 0.008670384963562284 0.7695430323512478 -0.634003123781932 0.7695430323512479 -0.6340031237819321 0.008267200968838533 0.008670384963562303
50106060606.06061 0.008437468426587845 0.00869465254945421 0.7635117698816631 -0.6412032171463976 0.763511769881663 -0.6412032171463975 0.008437468426587913 0.008694652549454332
50781818181.818184 0.008608176496310871 0.00871568533690589 0.7574131657532457 -0.6483459196836988 0.7574131657532458 -0.6483459196836989 0.00860817649631106 0.00871568533690583
51457575757.57576 0.008779263895765006 0.0087334756182517 0.7512477666755126 -0.6554306021292197 0.7512477666755126 -0.6554306021292197 0.008779263895764994 0.00873347561825177
52133333333.333336 0.0089506692109456 0.008748016845153049 0.7450161252227612 -0.6624566404448298 0.7450161252227615 -0.6624566404448299 0.008950669210945726 0.008748016845153016
52809090909.09091 0.009122330918001874 0.008759303630793509 0.738718799783573 -0.6694234158731136 0.7387187997835726 -0.6694234158731132 0.009122330918001678 0.008759303630793821
53484848484.84849 0.009294187405184638 0.008767331751665063 0.7323563545098277 -0.6763303149910962 0.7323563545098278 -0.6763303149910961 0.009294187405184673 0.00876733175166527
54160606060.606064 0.00946617699482565 0.008772098148935498 0.7259293592652373 -0.6831767297634652 0.7259293592652373 -0.6831767297634652 0.009466176994825728 0.008772098148935523
54836363636.36363 0.009638237965333075 0.008773600929401814 0.7194383895733957 -0.689962057595278 0.7194383895733958 -0.6899620575952781 0.009638237965332969 0.008773600929401763
55512121212.12121 0.009810308573200569 0.008771839366030076 0.7128840265653625 -0.6966857013841549 0.7128840265653629 -0.696685701384155 0.009810308573200689 0.008771839366030104
56187878787.878784 0.00998232707502065 0.008766813898078776 0.7062668569267747 -0.7033470695719581 0.7062668569267746 -0.7033470695719581 0.009982327075020718 0.008766813898078759
56863636363.63636 0.010154231749491852 0.008758526130806975 0.699587472844498 -0.7099455761959415 0.6995874728444983 -0.7099455761959418 0.010154231749491935 0.00875852613080667
57539393939.393936 0.010325960919417477 0.008746978834765775 0.6928464719528239 -0.7164806409393807 0.6928464719528239 -0.7164806409393805 0.010325960919417407 0.00874697883476585
58215151515.15151 0.010497452973681527 0.008732175944679472 0.6860444572792116 -0.7229516891816683 0.6860444572792115 -0.7229516891816682 0.010497452973681596 0.008732175944679645
58890909090.90909 0.010668646389201598 0.008714122557910257 0.6791820371895899 -0.7293581520478815 0.67918203718959 -0.7293581520478813 0.010668646389201585 0.008714122557910323
59566666666.666664 0.010839479752841316 0.008692824932505172 0.672259825333217 -0.7356994664578056 0.6722598253332168 -0.7356994664578057 0.010839479752841155 0.00869282493250505
60242424242.42424 0.01100989178328424 0.008668290484839025 0.6652784405871042 -0.7419750751744261 0.6652784405871043 -0.7419750751744262 0.011009891783284235 0.0086682904848389
60918181818.181816 0.011179821352855553 0.008640527786837826 0.6582385070000165 -0.7481844268518684 0.6582385070000168 -0.7481844268518685 0.0111798213528556 0.00864052778683796
61593939393.93939 0.011349207509285128 0.00860954656279691 0.6511406537360452 -0.754326976082798 0.6511406537360453 -0.754326976082798 0.011349207509285149 0.00860954656279692
62269696969.69697 0.011517989497404731 0.008575357685785899 0.6439855150177666 -0.7604021834452667 0.6439855150177666 -0.7604021834452664 0.01151798949740481 0.008575357685785889
62945454545.454544 0.011686106780771859 0.00853797317364754 0.6367737300689866 -0.7664095155490055 0.6367737300689869 -0.7664095155490054 0.011686106780772035 0.008537973173647639
63621212121.21212 0.011853499063210713 0.008497406184589627 0.6295059430570835 -0.7723484450811633 0.6295059430570836 -0.7723484450811635 0.011853499063210728 0.008497406184589586
64296969696.969696 0.01202010631026671 0.008453671012372639 0.6221828030349453 -0.7782184508514852 0.6221828030349453 -0.7782184508514853 0.012020106310266713 0.008453671012372531
64972727272.72727 0.012185868770561194 0.008406783081093182 0.6148049638825154 -0.7840190178369267 0.6148049638825155 -0.7840190178369267 0.012185868770561225 0.00840678308109311
65648484848.48485 0.012350726997045118 0.00835675893956743 0.6073730842479501 -0.789749637225705 0.60737308424795 -0.789749637225705 0.012350726997045208 0.008356758939567365
66324242424.242424 0.012514621868137597 0.008303616255314814 0.5998878274883902 -0.7954098064607822 0.5998878274883902 -0.795409806460782 0.012514621868137558 0.008303616255314858
67000000000.0 0.012677494608748193 0.008247373808146009 0.5923498616103572 -0.8009990292827744 0.5923498616103571 -0.8009990292827742 0.012677494608748157 0.008247373808146016
