! Created with skrf (http://scikit-rf.org).
# Hz S RI R 50.0 
!freq ReS11 ImS11
100000000.0 0.999966714607427 -0.005805667601967401
775757575.7575758 0.9988580300600582 -0.045018194786526564
1451515151.5151515 0.9962113634526346 -0.08415393153895336
2127272727.2727273 0.9920307122767416 -0.12315367125589044
2803030303.030303 0.9863223156491334 -0.161958380490577
3478787878.787879 0.9790945876952905 -0.20050927016393905
4154545454.5454545 0.9703581233866683 -0.23874787068132405
4830303030.30303 0.9601256898229609 -0.2766161064996386
5506060606.060606 0.9484118523555864 -0.3140562481444632
6181818181.818182 0.9352337247346998 -0.3510111978480573
6857575757.575758 0.9206105849064954 -0.38742449287267033
7533333333.333333 0.9045637377635813 -0.4232403302778868
8209090909.090909 0.8871165913263219 -0.4584036702210414
8884848484.848484 0.8682946356065897 -0.4928603113026524
9560606060.60606 0.848125419078448 -0.5265569658848622
10236363636.363636 0.8266396624205243 -0.5594421170374569
10912121212.121212 0.8038703797533651 -0.5914657994074456
11587878787.878788 0.7798492123047805 -0.6225768673221935
12263636363.636364 0.7546116230206394 -0.6527265884970551
12939393939.39394 0.7281949589096466 -0.6818675201852337
13615151515.151516 0.7006384114015429 -0.7099535811619526
14290909090.90909 0.6719829740203611 -0.7369401231196142
14966666666.666666 0.6422713973175715 -0.7627840013800262
15642424242.424242 0.6115481410125622 -0.7874436448215291
16318181818.181818 0.5798593232911935 -0.8108791249107317
16993939393.939394 0.5472526672172829 -0.8330522237204105
17669696969.696968 0.5137774442167562 -0.853926500807054
18345454545.454544 0.4794844145998473 -0.8734673588136483
19021212121.21212 0.4444257650932445 -0.8916421076556413
19696969696.969696 0.4086550433612678 -0.9084200271406156
20372727272.727272 0.37222708950327615 -0.9237724278651742
21048484848.484848 0.3351979645232726 -0.9376727102259806
21724242424.242424 0.2976248757772852 -0.9500964213757437
22400000000.0 0.2595660994143858 -0.9610213099494449
23075757575.757576 0.22108089983826423 -0.9704273783812121
23751515151.515152 0.18222944622790732 -0.978296932628053
24427272727.272728 0.14307272616830582 -0.9846146291132652
25103030303.030304 0.10367245645493714 -0.9893675186998061
25778787878.78788 0.0640909911492372 -0.9925450875022359
26454545454.545456 0.024391226976095384 -0.9941392943451997
27130303030.303032 -0.015363493831307442 -0.9941446046767626
27806060606.060604 -0.05510948311944246 -0.9925580207463541
28481818181.81818 -0.09478280870049441 -0.9893791078596562
29157575757.575756 -0.13431939838689155 -0.9846100165265024
29833333333.333332 -0.17365514600972784 -0.9782555003228067
30509090909.090908 -0.21272601924147982 -0.9703229292937232
31184848484.848484 -0.2514681690286777 -0.960822298732676
31860606060.60606 -0.2898180404256285 -0.9497662331795789
32536363636.363636 -0.3277124846060896 -0.9371699854915614
33212121212.121212 -0.3650888718161351 -0.9230514308506954
33887878787.878788 -0.40188520501829533 -0.9074310555857297
34563636363.63636 -0.4380402339646713 -0.8903319406984672
35239393939.393936 -0.47349356942511356 -0.8717797400003034
35915151515.15151 -0.5081857972858788 -0.8518026527803899
36590909090.90909 -0.5420585922245456 -0.8304313909439478
37266666666.666664 -0.5750548306584662 -0.8076991405772564
37942424242.42424 -0.6071187026567704 -0.7836415179148025
38618181818.181816 -0.6381958224999769 -0.758296519703823
39293939393.93939 -0.6682333375667944 -0.7317044679819522
39969696969.69697 -0.6971800352246408 -0.7039079493047495
40645454545.454544 -0.7249864473989424 -0.6749517484814884
41321212121.21212 -0.7516049524964743 -0.6448827768994605
41996969696.969696 -0.7769898743597945 -0.613749995539255
42672727272.72727 -0.8010975779333993 -0.5816043328056635
43348484848.48485 -0.8238865613274655 -0.548498597321074
44024242424.242424 -0.8453175439720606 -0.5144873858501727
44700000000.0 -0.8653535505634511 -0.47962698654638686
45375757575.757576 -0.8839599905145685 -0.443975277731609
46051515151.51515 -0.9011047326338433 -0.4075916224412239
46727272727.27273 -0.9167581747703992 -0.3705367589860288
47403030303.030304 -0.9308933081789165 -0.33287268780144347
48078787878.78788 -0.9434857763743651 -0.2946625548718994
48754545454.545456 -0.9545139282650325 -0.25597053203478537
49430303030.30303 -0.9639588653718725 -0.2168616944832914
50106060606.06061 -0.9718044829629641 -0.17740189580111937
50781818181.818184 -0.9780375049537293 -0.13765764087402882
51457575757.57576 -0.9826475124463449 -0.09769595703353216
52133333333.333336 -0.9856269658053965 -0.057584263796686165
52809090909.09091 -0.9869712201910465 -0.01739024157270834
53484848484.84849 -0.9866785344957514 0.022818300287884168
54160606060.606064 -0.9847500736556312 0.06297355572288528
54836363636.36363 -0.9811899043328415 0.10300785408691965
55512121212.12121 -0.9760049839905471 0.1428537917998119
56187878787.878784 -0.9692051434072129 0.18244436313851153
56863636363.63636 -0.9608030627016543 0.22171308980088253
57539393939.393936 -0.9508142409646352 0.26059414887618887
58215151515.15151 -0.9392569596163933 0.2990224988653667
58890909090.90909 -0.9261522396323785 0.3369340034042819
59566666666.666664 -0.911523792801394 0.37426555235478015
60242424242.42424 -0.8953979672012031 0.41095517994171066
60918181818.181816 -0.8778036870963654 0.44694217962874444
61593939393.93939 -0.858772387481419 0.48216721544193875
62269696969.69697 -0.8383379435095382 0.5165724294672924
62945454545.454544 -0.8165365950622925 0.5501015452668977
63621212121.21212 -0.7934068667300602 0.5826999669776988
64296969696.969696 -0.7689894834850014 0.6143148738769502
64972727272.72727 -0.743327282339122 0.6448953102193592
65648484848.48485 -0.7164651202889512 0.674392270172178
66324242424.242424 -0.6884497788555676 0.7027587776962458
67000000000.0 -0.659329865534267 0.7299499612428729
