! Created with skrf (http://scikit-rf.org).
# Hz S RI R 50.0 
!freq ReS11 ImS11
100000000.0 0.9999984048559589 -0.0005409925854614568
200000000.0 0.999996516911113 -0.0010819836488488996
300000000.0 0.999994336180466 -0.0016229732359385608
400000000.0 0.9999918626786652 -0.002163961393304348
500000000.0 0.9999890964200011 -0.0027049481668627766
600000000.0 0.999986037356523 -0.0032459336025019558
700000000.0 0.9999826855189957 -0.003786917746372488
800000000.0 0.9999790409103255 -0.004327900644910048
900000000.0 0.9999751035330584 -0.004868882343768019
1000000000.0 0.9999708733893853 -0.00540986288932932
1100000000.0 0.9999663503175447 -0.00595084232580931
1200000000.0 0.9999615344204165 -0.00649182070027875
1300000000.0 0.999956425691009 -0.007032798058670836
1400000000.0 0.9999510241219737 -0.0075737744469156565
1500000000.0 0.9999453297056041 -0.008114749911022612
1600000000.0 0.9999393424338365 -0.008655724496745263
1700000000.0 0.9999330622982529 -0.009196698249966107
1800000000.0 0.9999264892900757 -0.009737671216649167
1900000000.0 0.9999196234001706 -0.01027864344263384
2000000000.0 0.9999124646190484 -0.010819614973587362
2100000000.0 0.9999050129368587 -0.011360585855544092
2200000000.0 0.9998972683433995 -0.011901556134239849
2300000000.0 0.9998892308281084 -0.012442525855424963
2400000000.0 0.9998809003800657 -0.012983495064938644
2500000000.0 0.9998722769879971 -0.013524463808505985
2600000000.0 0.9998633606402687 -0.014065432131878244
2700000000.0 0.9998541513248913 -0.014606400080773628
2800000000.0 0.9998446490295179 -0.015147367700914878
2900000000.0 0.999834853741444 -0.015688335038018766
3000000000.0 0.99982476544761 -0.016229302137698128
3100000000.0 0.9998143841345959 -0.016770269045632676
3200000000.0 0.9998037097886289 -0.01731123580748469
3300000000.0 0.9997927423955749 -0.017852202468864348
3400000000.0 0.9997814819409447 -0.01839316907534884
3500000000.0 0.9997699284098931 -0.018934135672544122
3600000000.0 0.9997580817872149 -0.019475102306003758
3700000000.0 0.9997459420573493 -0.020016069021235212
3800000000.0 0.9997335092043798 -0.020557035863814337
3900000000.0 0.9997207832120298 -0.02109800287921912
4000000000.0 0.9997077640636678 -0.021638970112908922
4100000000.0 0.9996944517423019 -0.022179937610369953
4200000000.0 0.9996808462305871 -0.022720905417058478
4300000000.0 0.9996669475108189 -0.023261873578324436
4400000000.0 0.9996527555649348 -0.023802842139617857
4500000000.0 0.9996382703745177 -0.02434381114627664
4600000000.0 0.9996234919207891 -0.02488478064367219
4700000000.0 0.9996084201846174 -0.02542575067709509
4800000000.0 0.9995930551465098 -0.02596672129189571
4900000000.0 0.999577396786619 -0.026507692533315207
5000000000.0 0.9995614450847391 -0.027048664446609586
5100000000.0 0.9995451997730813 -0.027589637068881956
5200000000.0 0.9995286610583729 -0.028130610452530975
5300000000.0 0.999511828918765 -0.028671584642740867
5400000000.0 0.9994947033320521 -0.0292125596845626
5500000000.0 0.9994772842756713 -0.02975353562308439
5600000000.0 0.9994595717267009 -0.030294512503344653
5700000000.0 0.9994415656618618 -0.030835490370411098
5800000000.0 0.9994232660575202 -0.031376469269199896
5900000000.0 0.9994046728896788 -0.03191744924476474
6000000000.0 0.9993857861339891 -0.03245843034200439
6100000000.0 0.99936660576574 -0.03299941260580679
6200000000.0 0.9993471317598654 -0.03354039608108725
6300000000.0 0.9993273640909394 -0.03408138081267965
6400000000.0 0.9993073027331802 -0.0346223668454165
6500000000.0 0.9992869476604483 -0.03516335422407833
6600000000.0 0.9992662988462426 -0.035704342993422115
6700000000.0 0.9992453562637095 -0.03624533319822591
6800000000.0 0.9992241198856329 -0.03678632488312676
6900000000.0 0.9992025896844413 -0.037327318092828986
7000000000.0 0.9991807656322047 -0.03786831287195828
7100000000.0 0.9991586477006349 -0.03840930926513462
7200000000.0 0.9991362358610839 -0.0389503073169207
7300000000.0 0.9991135300845481 -0.039491307071890455
7400000000.0 0.9990905303416651 -0.04003230857450998
7500000000.0 0.9990672366027137 -0.04057331186928417
7600000000.0 0.9990436488376141 -0.041114317000646515
7700000000.0 0.9990197670159291 -0.04165532401302661
7800000000.0 0.9989955911068635 -0.04219633295077472
7900000000.0 0.9989711210792622 -0.042737343858237235
8000000000.0 0.998946356901613 -0.043278356779733795
8100000000.0 0.9989212985420443 -0.043819371759560334
8200000000.0 0.9988959459683268 -0.04436038884188716
8300000000.0 0.998870299147872 -0.04490140807098858
8400000000.0 0.9988443580477325 -0.045442429490999206
8500000000.0 0.9988181226346058 -0.045983453146042734
8600000000.0 0.9987915928748248 -0.04652447908021781
8700000000.0 0.9987647687343666 -0.047065507337617225
8800000000.0 0.9987376501788524 -0.04760653796222023
8900000000.0 0.9987102371735386 -0.04814757099802136
9000000000.0 0.9986825296833274 -0.048688606488983766
9100000000.0 0.9986545276727613 -0.049229644478999426
9200000000.0 0.9986262311060208 -0.04977068501193521
9300000000.0 0.998597639946933 -0.05031172813164397
9400000000.0 0.9985687541589594 -0.05085277388190141
9500000000.0 0.9985395737052076 -0.0513938223064693
9600000000.0 0.998510098548423 -0.05193487344904968
9700000000.0 0.9984803286509942 -0.05247592735333
9800000000.0 0.9984502639749486 -0.053016984062936506
9900000000.0 0.9984199044819532 -0.053558043621481144
10000000000.0 0.9983892501333191 -0.054099106072483874
10100000000.0 0.9983583028047086 -0.05464017157467213
10200000000.0 0.9983270606181799 -0.055181240063012754
10300000000.0 0.9982955235350873 -0.05572231158116339
10400000000.0 0.9982636915164267 -0.05626338617267769
10500000000.0 0.9982315645228331 -0.056804463881124326
10600000000.0 0.9981991425145842 -0.05734554474998713
10700000000.0 0.9981664254515968 -0.05788662882273167
10800000000.0 0.998133413293425 -0.05842771614279685
10900000000.0 0.9981001059992678 -0.058968806753546044
11000000000.0 0.9980665035279606 -0.05950990069830922
11100000000.0 0.9980326058379799 -0.06005099802040681
11200000000.0 0.9979984128874431 -0.06059209876308522
11300000000.0 0.9979639246341061 -0.06113320296955864
11400000000.0 0.9979291410353637 -0.061674310682992756
11500000000.0 0.9978940620482522 -0.06221542194651557
11600000000.0 0.9978586876294477 -0.0627565368032154
11700000000.0 0.9978230177352648 -0.06329765529613761
11800000000.0 0.9977870523216585 -0.06383877746825983
11900000000.0 0.9977507913442212 -0.06437990336255484
12000000000.0 0.9977142347581877 -0.06492103302191285
12100000000.0 0.9976773825184286 -0.06546216648921008
12200000000.0 0.9976402345794586 -0.06600330380724903
12300000000.0 0.9976027908954251 -0.06654444501881424
12400000000.0 0.9975650514201213 -0.06708559016661744
12500000000.0 0.9975270161069743 -0.06762673929335321
12600000000.0 0.9974886849090532 -0.06816789244164545
12700000000.0 0.9974500577790641 -0.0687090496540777
12800000000.0 0.9974111346693543 -0.06925021097318859
12900000000.0 0.997371915531908 -0.06979137644147422
13000000000.0 0.9973324003183461 -0.07033254610138237
13100000000.0 0.9972925889799327 -0.0708737199952921
13200000000.0 0.9972524814675691 -0.07141489816555073
13300000000.0 0.9972120777317921 -0.07195608065447359
13400000000.0 0.9971713777227791 -0.07249726750429136
13500000000.0 0.997130381390346 -0.07303845875721116
13600000000.0 0.9970890886839472 -0.07357965445537606
13700000000.0 0.9970474995526747 -0.07412085464089577
13800000000.0 0.9970056139452574 -0.07466205935580124
13900000000.0 0.996963431810064 -0.07520326864210494
14000000000.0 0.9969209530951014 -0.07574448254174636
14100000000.0 0.9968781777480125 -0.07628570109661217
14200000000.0 0.9968351057160785 -0.07682692434855704
14300000000.0 0.9967917369462196 -0.07736815233936824
14400000000.0 0.996748071384993 -0.07790938511078796
14500000000.0 0.9967041089785917 -0.07845062270449532
14600000000.0 0.9966598496728485 -0.07899186516212874
14700000000.0 0.9966152934132334 -0.07953311252525674
14800000000.0 0.9965704401448517 -0.08007436483541663
14900000000.0 0.9965252898124481 -0.08061562213406259
15000000000.0 0.9964798423604037 -0.08115688446263436
15100000000.0 0.9964340977327355 -0.08169815186247889
15200000000.0 0.9963880558731 -0.08223942437490087
15300000000.0 0.9963417167247871 -0.08278070204115441
15400000000.0 0.9962950802307265 -0.08332198490244165
15500000000.0 0.9962481463334832 -0.08386327299990229
15600000000.0 0.99620091497526 -0.08440456637460408
15700000000.0 0.9961533860978928 -0.08494586506759072
15800000000.0 0.99610555964286 -0.0854871691198146
15900000000.0 0.9960574355512692 -0.08602847857220561
16000000000.0 0.9960090137638707 -0.08656979346560591
16100000000.0 0.9959602942210464 -0.08711111384081367
16200000000.0 0.9959112768628171 -0.08765243973856854
16300000000.0 0.9958619616288381 -0.08819377119954037
16400000000.0 0.9958123484584005 -0.08873510826436176
16500000000.0 0.9957624372904323 -0.08927645097358554
16600000000.0 0.9957122280634978 -0.0898177993677032
16700000000.0 0.9956617207157921 -0.09035915348717707
16800000000.0 0.9956109151851528 -0.09090051337236356
16900000000.0 0.9955598114090465 -0.09144187906359909
17000000000.0 0.995508409324583 -0.09198325060112963
17100000000.0 0.9954567088684968 -0.09252462802516588
17200000000.0 0.9954047099771672 -0.0930660113758223
17300000000.0 0.9953524125866032 -0.09360740069319215
17400000000.0 0.9952998166324512 -0.09414879601725676
17500000000.0 0.9952469220499889 -0.09469019738799721
17600000000.0 0.9951937287741339 -0.09523160484527499
17700000000.0 0.9951402367394349 -0.09577301842891767
17800000000.0 0.9950864458800753 -0.09631443817868009
17900000000.0 0.9950323561298746 -0.0968558641342479
18000000000.0 0.994977967422285 -0.09739729633526664
18100000000.0 0.9949232796903935 -0.09793873482128858
18200000000.0 0.994868292866923 -0.09848017963180394
18300000000.0 0.9948130068842275 -0.09902163080625492
18400000000.0 0.9947574216742969 -0.0995630883840038
18500000000.0 0.994701537168754 -0.10010455240435476
18600000000.0 0.994645353298854 -0.10064602290654166
18700000000.0 0.9945888699954908 -0.10118749992971356
18800000000.0 0.9945320871891861 -0.10172898351299262
18900000000.0 0.9944750048100972 -0.10227047369539906
19000000000.0 0.9944176227880174 -0.10281197051589597
19100000000.0 0.9943599410523662 -0.10335347401338758
19200000000.0 0.9943019595322041 -0.10389498422668583
19300000000.0 0.9942436781562201 -0.10443650119455956
19400000000.0 0.9941850968527355 -0.10497802495569208
19500000000.0 0.9941262155497084 -0.10551955554870485
19600000000.0 0.9940670341747257 -0.10606109301214002
19700000000.0 0.9940075526550096 -0.10660263738447928
19800000000.0 0.9939477709174099 -0.10714418870413753
19900000000.0 0.993887688888416 -0.10768574700943248
20000000000.0 0.9938273064941437 -0.10822731233864899
20100000000.0 0.9937666279166434 -0.10876888521952677
20200000000.0 0.9937056489098279 -0.10931046521515346
20300000000.0 0.9936443693993411 -0.10985205236378434
20400000000.0 0.9935827893104574 -0.11039364670361596
20500000000.0 0.9935209085680838 -0.11093524827275854
20600000000.0 0.9934587270967569 -0.11147685710926665
20700000000.0 0.9933962448206453 -0.11201847325111923
20800000000.0 0.9933334616635503 -0.11256009673621387
20900000000.0 0.9932703775489029 -0.1131017276023871
21000000000.0 0.9932069923997655 -0.11364336588738809
21100000000.0 0.9931433061388315 -0.11418501162890093
21200000000.0 0.9930793186884255 -0.11472666486452925
21300000000.0 0.993015029970501 -0.11526832563181663
21400000000.0 0.9929504399066433 -0.11580999396821459
21500000000.0 0.9928855484180683 -0.11635166991110496
21600000000.0 0.9928203554256226 -0.11689335349780423
21700000000.0 0.9927548608497805 -0.11743504476553468
21800000000.0 0.9926890646106497 -0.11797674375144346
21900000000.0 0.9926229666279651 -0.11851845049262746
22000000000.0 0.9925565668210927 -0.11906016502608213
22100000000.0 0.9924898651090284 -0.11960188738872493
22200000000.0 0.9924228614103952 -0.12014361761740919
22300000000.0 0.9923555556434502 -0.12068535574889208
22400000000.0 0.9922879477260758 -0.12122710181986632
22500000000.0 0.992220037575783 -0.12176885586695828
22600000000.0 0.9921518251097161 -0.12231061792667383
22700000000.0 0.9920833102446445 -0.12285238803548154
22800000000.0 0.9920144928969674 -0.12339416622974367
22900000000.0 0.991945372982713 -0.12393595254575553
23000000000.0 0.9918759504175392 -0.1244777470197218
23100000000.0 0.9918062251167289 -0.12501954968778023
23200000000.0 0.9917361969951963 -0.12556136058597095
23300000000.0 0.9916658659674823 -0.12610317975025934
23400000000.0 0.9915952319477561 -0.12664500721653293
23500000000.0 0.9915242948498162 -0.12718684302059796
23600000000.0 0.9914530545870853 -0.1277286871981586
23700000000.0 0.9913815110726159 -0.12827053978485786
23800000000.0 0.9913096642190882 -0.12881240081625167
23900000000.0 0.9912375139388122 -0.1293542703277937
24000000000.0 0.9911650601437174 -0.12989614835487598
24100000000.0 0.991092302745368 -0.13043803493279935
24200000000.0 0.9910192416549504 -0.13097993009676812
24300000000.0 0.9909458767832815 -0.13152183388191252
24400000000.0 0.9908722080408032 -0.132063746323271
24500000000.0 0.9907982353375812 -0.13260566745580557
24600000000.0 0.9907239585833112 -0.13314759731437292
24700000000.0 0.9906493776873142 -0.133689535933772
24800000000.0 0.9905744925585354 -0.13423148334868254
24900000000.0 0.99049930310555 -0.1347734395937112
25000000000.0 0.9904238092365533 -0.13531540470338552
25100000000.0 0.9903480108593717 -0.13585737871212353
25200000000.0 0.9902719078814528 -0.13639936165427222
25300000000.0 0.9901955002098732 -0.13694135356407874
25400000000.0 0.9901187877513322 -0.13748335447571297
25500000000.0 0.9900417704121546 -0.13802536442324148
25600000000.0 0.9899644480982908 -0.13856738344064537
25700000000.0 0.9898868207153155 -0.13910941156180795
25800000000.0 0.9898088881684285 -0.13965144882053956
25900000000.0 0.9897306503624527 -0.14019349525054717
26000000000.0 0.9896521072018372 -0.14073555088543963
26100000000.0 0.9895732585906543 -0.1412776157587451
26200000000.0 0.9894941044326002 -0.14181968990389443
26300000000.0 0.9894146446309948 -0.14236177335422445
26400000000.0 0.9893348790887833 -0.1429038661429769
26500000000.0 0.9892548077085326 -0.14344596830330733
26600000000.0 0.9891744303924345 -0.14398807986826198
26700000000.0 0.9890937470423027 -0.14453020087081514
26800000000.0 0.9890127575595737 -0.1450723313438304
26900000000.0 0.9889314618453109 -0.14561447132007257
27000000000.0 0.9888498598001946 -0.1461566208322171
27100000000.0 0.9887679513245335 -0.1466987799128499
27200000000.0 0.9886857363182529 -0.14724094859444894
27300000000.0 0.9886032146809066 -0.1477831269094031
27400000000.0 0.9885203863116654 -0.14832531489000048
27500000000.0 0.9884372511093267 -0.14886751256842679
27600000000.0 0.9883538089723056 -0.14940971997677968
27700000000.0 0.9882700597986417 -0.14995193714705154
27800000000.0 0.9881860034859953 -0.1504941641111346
27900000000.0 0.9881016399316485 -0.15103640090083087
28000000000.0 0.9880169690325038 -0.15157864754782951
28100000000.0 0.9879319906850852 -0.1521209040837325
28200000000.0 0.9878467047855386 -0.15266317054003337
28300000000.0 0.9877611112296283 -0.15320544694812363
28400000000.0 0.987675209912743 -0.15374773333930009
28500000000.0 0.9875890007298886 -0.15429002974475597
28600000000.0 0.9875024835756928 -0.15483233619557374
28700000000.0 0.9874156583444014 -0.1553746527227517
28800000000.0 0.9873285249298831 -0.15591697935716212
28900000000.0 0.9872410832256259 -0.15645931612959865
29000000000.0 0.9871533331247356 -0.15700166307072558
29100000000.0 0.9870652745199381 -0.15754402021112618
29200000000.0 0.9869769073035801 -0.15808638758126226
29300000000.0 0.9868882313676257 -0.15862876521150301
29400000000.0 0.9867992466036588 -0.15917115313210511
29500000000.0 0.9867099529028824 -0.15971355137322354
29600000000.0 0.9866203501561179 -0.1602559599648997
29700000000.0 0.9865304382538052 -0.16079837893708318
29800000000.0 0.9864402170860017 -0.16134080831959652
29900000000.0 0.986349686542384 -0.16188324814217836
30000000000.0 0.9862588465122464 -0.1624256984344336
30100000000.0 0.9861677018197028 -0.1629681600699931
30200000000.0 0.9860762474836402 -0.16351063225100287
30300000000.0 0.9859844833925262 -0.16405311500692316
30400000000.0 0.9858924094344498 -0.16459560836710857
30500000000.0 0.985800025497115 -0.16513811236080708
30600000000.0 0.9857073314678446 -0.16568062701714942
30700000000.0 0.985614327233577 -0.16622315236517088
30800000000.0 0.9855210126808663 -0.16676568843377826
30900000000.0 0.9854273876958843 -0.16730823525177876
31000000000.0 0.985333452164419 -0.16785079284787507
31100000000.0 0.9852392059718728 -0.16839336125063897
31200000000.0 0.9851446490032667 -0.16893594048855
31300000000.0 0.9850497811432355 -0.16947853058996265
31400000000.0 0.9849546022760294 -0.17002113158312587
31500000000.0 0.984859112285515 -0.1705637434961732
31600000000.0 0.9847633110551732 -0.17110636635712123
31700000000.0 0.9846671984681006 -0.1716490001938776
31800000000.0 0.9845707744070067 -0.17219164503423257
31900000000.0 0.9844740387542181 -0.17273430090586328
32000000000.0 0.9843769913916742 -0.17327696783633312
32100000000.0 0.9842796322009305 -0.17381964585308793
32200000000.0 0.9841819610631529 -0.17436233498345313
32300000000.0 0.984083977859126 -0.17490503525464302
32400000000.0 0.9839856824692442 -0.1754477466937591
32500000000.0 0.9838870747735173 -0.17599046932777693
32600000000.0 0.9837881546515672 -0.17653320318355853
32700000000.0 0.9836889219826305 -0.17707594828784473
32800000000.0 0.9835893766455566 -0.17761870466726354
32900000000.0 0.9834895185188046 -0.17816147234831936
33000000000.0 0.9833893474804493 -0.1787042513573977
33100000000.0 0.98328886340818 -0.1792470417207654
33200000000.0 0.9831880661792924 -0.1797898434645669
33300000000.0 0.9830869556706978 -0.1803326566148313
33400000000.0 0.982985531758919 -0.18087548119745775
33500000000.0 0.9828837943200914 -0.1814183172382336
33600000000.0 0.9827817432299588 -0.1819611647628156
33700000000.0 0.9826793783638802 -0.18250402379674016
33800000000.0 0.9825766995968213 -0.18304689436542745
33900000000.0 0.9824737068033615 -0.18358977649416625
34000000000.0 0.9823703998576918 -0.18413267020812327
34100000000.0 0.9822667786336121 -0.1846755755323451
34200000000.0 0.9821628430045304 -0.18521849249175004
34300000000.0 0.9820585928434695 -0.1857614211111273
34400000000.0 0.9819540280230596 -0.18630436141515158
34500000000.0 0.9818491484155402 -0.18684731342835978
34600000000.0 0.981743953892761 -0.18739027717517265
34700000000.0 0.9816384443261817 -0.1879332526798766
34800000000.0 0.9815326195868697 -0.18847623996663537
34900000000.0 0.9814264795455024 -0.18901923905947834
35000000000.0 0.9813200240723657 -0.18956224998231289
35100000000.0 0.9812132530373536 -0.19010527275892286
35200000000.0 0.9811061663099685 -0.19064830741294791
35300000000.0 0.9809987637593234 -0.19119135396791212
35400000000.0 0.9808910452541337 -0.19173441244720046
35500000000.0 0.9807830106627281 -0.19227748287407032
35600000000.0 0.9806746598530426 -0.1928205652716492
35700000000.0 0.9805659926926149 -0.19336365966293728
35800000000.0 0.9804570090485949 -0.19390676607079627
35900000000.0 0.9803477087877395 -0.19444988451795328
36000000000.0 0.98023809177641 -0.19499301502701233
36100000000.0 0.980128157880575 -0.19553615762044152
36200000000.0 0.9800179069658099 -0.19607931232056655
36300000000.0 0.9799073388972981 -0.19662247914958558
36400000000.0 0.9797964535398238 -0.19716565812956843
36500000000.0 0.9796852507577806 -0.19770884928244006
36600000000.0 0.9795737304151693 -0.19825205262999487
36700000000.0 0.9794618923755906 -0.19879526819388943
36800000000.0 0.979349736502255 -0.19933849599564374
36900000000.0 0.9792372626579775 -0.19988173605664458
37000000000.0 0.9791244707051742 -0.20042498839813616
37100000000.0 0.9790113605058699 -0.20096825304122812
