! Created with skrf (http://scikit-rf.org).
# Hz S RI R 50.0 
!freq ReS11 ImS11
100000000.0 0.9999667146074264 -0.005805667601985256
775757575.7575758 0.9988580300600548 -0.04501819478660508
1451515151.5151515 0.9962113634526236 -0.08415393153907812
2127272727.2727273 0.992030712276718 -0.12315367125607289
2803030303.030303 0.9863223156490932 -0.16195838049081748
3478787878.787879 0.9790945876952293 -0.20050927016423548
4154545454.5454545 0.9703581233865817 -0.2387478706816734
4830303030.30303 0.960125689822844 -0.27661610650004037
5506060606.060606 0.9484118523554357 -0.3140562481449154
6181818181.818182 0.9352337247345117 -0.3510111978485566
6857575757.575758 0.9206105849062651 -0.3874244928732155
7533333333.333333 0.9045637377633056 -0.42324033027847174
8209090909.090909 0.8871165913259975 -0.45840367022166606
8884848484.848484 0.868294635606214 -0.492860311303313
9560606060.60606 0.8481254190780175 -0.5265569658855536
10236363636.363636 0.8266396624200366 -0.5594421170381741
10912121212.121212 0.8038703797528182 -0.5914657994081863
11587878787.878788 0.7798492123041714 -0.6225768673229553
12263636363.636364 0.7546116230199663 -0.6527265884978317
12939393939.39394 0.7281949589089077 -0.6818675201860221
13615151515.151516 0.7006384114007383 -0.7099535811627453
14290909090.90909 0.6719829740194887 -0.7369401231204085
14966666666.666666 0.6422713973166311 -0.7627840013808173
15642424242.424242 0.6115481410115529 -0.7874436448223118
16318181818.181818 0.5798593232901152 -0.8108791249115014
16993939393.939394 0.5472526672161373 -0.8330522237211639
17669696969.696968 0.5137774442155424 -0.8539265008077838
18345454545.454544 0.4794844145985668 -0.8734673588143512
19021212121.21212 0.4444257650918977 -0.8916421076563134
19696969696.969696 0.408655043359857 -0.9084200271412507
20372727272.727272 0.3722270895018025 -0.9237724278657694
21048484848.484848 0.3351979645217392 -0.9376727102265311
21724242424.242424 0.2976248757756927 -0.9500964213762441
22400000000.0 0.25956609941273856 -0.9610213099498917
23075757575.757576 0.22108089983656432 -0.9704273783816022
23751515151.515152 0.18222944622615905 -0.9782969326283817
24427272727.272728 0.14307272616651104 -0.9846146291135291
25103030303.030304 0.10367245645310039 -0.9893675187000016
25778787878.78788 0.06409099114736098 -0.9925450875023609
26454545454.545456 0.02439122697418442 -0.9941392943452511
27130303030.303032 -0.015363493833248273 -0.9941446046767375
27806060606.060604 -0.05510948312141028 -0.9925580207462501
28481818181.81818 -0.0947828087024839 -0.9893791078594718
29157575757.575756 -0.13431939838889811 -0.9846100165262355
29833333333.333332 -0.1736551460117472 -0.9782555003224555
30509090909.090908 -0.21272601924350612 -0.9703229292932868
31184848484.848484 -0.25146816903070873 -0.9608222987321532
31860606060.60606 -0.2898180404276576 -0.9497662331789698
32536363636.363636 -0.32771248460811264 -0.9371699854908646
33212121212.121212 -0.3650888718181462 -0.9230514308499115
33887878787.878788 -0.4018852050202908 -0.9074310555848584
34563636363.63636 -0.43804023396664565 -0.8903319406975095
35239393939.393936 -0.47349356942706194 -0.8717797399992601
35915151515.15151 -0.508185797287796 -0.8518026527792619
36590909090.90909 -0.5420585922264278 -0.8304313909427371
37266666666.666664 -0.5750548306603097 -0.8076991405759635
37942424242.42424 -0.6071187026585705 -0.7836415179134294
38618181818.181816 -0.6381958225017277 -0.7582965197023721
39293939393.93939 -0.6682333375684936 -0.731704467980425
39969696969.69697 -0.6971800352262836 -0.7039079493031489
40645454545.454544 -0.7249864474005253 -0.674951748479817
41321212121.21212 -0.7516049524979928 -0.644882776897722
41996969696.969696 -0.7769898743612464 -0.613749995537452
42672727272.72727 -0.8010975779347813 -0.581604332803799
43348484848.48485 -0.8238865613287742 -0.548498597319152
44024242424.242424 -0.8453175439732926 -0.5144873858481964
44700000000.0 -0.8653535505646045 -0.47962698654435826
45375757575.757576 -0.8839599905156403 -0.44397527772953405
46051515151.51515 -0.9011047326348318 -0.40759162243910513
46727272727.27273 -0.9167581747713025 -0.3705367589838709
47403030303.030304 -0.9308933081797318 -0.3328726877992498
48078787878.78788 -0.9434857763750915 -0.294662554869675
48754545454.545456 -0.9545139282656688 -0.2559705320325333
49430303030.30303 -0.9639588653724178 -0.21686169448101533
50106060606.06061 -0.9718044829634171 -0.1774018957988239
50781818181.818184 -0.9780375049540893 -0.13765764087171756
51457575757.57576 -0.9826475124466117 -0.09769595703120967
52133333333.333336 -0.985626965805569 -0.057584263794356785
52809090909.09091 -0.9869712201911245 -0.017390241570375158
53484848484.84849 -0.9866785344957351 0.022818300290217256
54160606060.606064 -0.984750073655521 0.06297355572521453
54836363636.36363 -0.9811899043326374 0.10300785408924114
55512121212.12121 -0.9760049839902504 0.14285379180212202
56187878787.878784 -0.9692051434068223 0.18244436314080614
56863636363.63636 -0.960803062701172 0.22171308980315887
57539393939.393936 -0.9508142409640615 0.26059414887844173
58215151515.15151 -0.9392569596157296 0.2990224988675946
58890909090.90909 -0.9261522396316261 0.33693400340648016
59566666666.666664 -0.911523792800553 0.37426555235694603
60242424242.42424 -0.8953979672002755 0.4109551799438413
60918181818.181816 -0.8778036870953522 0.44694217963083593
61593939393.93939 -0.8587723874803207 0.4821672154439895
62269696969.69697 -0.8383379435083578 0.5165724294692979
62945454545.454544 -0.81653659506103 0.550101545268857
63621212121.21212 -0.7934068667287182 0.5826999669796072
64296969696.969696 -0.7689894834835814 0.6143148738788057
64972727272.72727 -0.7433272823376254 0.6448953102211586
65648484848.48485 -0.71646512028738 0.6743922701739196
66324242424.242424 -0.6884497788539231 0.7027587776979264
67000000000.0 -0.6593298655325515 0.7299499612444903
