! Created with skrf (http://scikit-rf.org).
# Hz S RI R 50.0 
!freq ReS11 ImS11 ReS21 ImS21 ReS12 ImS12 ReS22 ImS22
100000000.0 0.004267329590565805 0.0004614741534205119 0.9957316804012154 -0.0007991139954416713 0.9957316804012142 -0.0007991139953422582 0.004267329590565416 0.0004614741532856677
200000000.0 0.004267975333227814 0.0009229472304219032 0.995729930487518 -0.001598226298371625 0.9957299304875185 -0.0015982262986346586 0.004267975333228147 0.0009229472301735397
300000000.0 0.004269362543668553 0.0013844178422542622 0.9957273249432181 -0.002397335534533086 0.9957273249432173 -0.0023973355346996648 0.004269362543668331 0.0013844178421022297
400000000.0 0.004271491214322409 0.0018458845990534458 0.995723863775812 -0.003196440328603188 0.9957238637758117 -0.0031964403285969136 0.004271491214321799 0.0018458845990596945
500000000.0 0.004274361334431043 0.0023073461113942836 0.9957195469959297 -0.003995539305397578 0.9957195469959306 -0.0039955393053894474 0.00427436133443182 0.002307346111438099
600000000.0 0.004277972890053217 0.0027688009896979864 0.9957143746173314 -0.004794631090042831 0.9957143746173316 -0.0047946310900403135 0.00427797289005305 0.0027688009896888097
700000000.0 0.004282325864053527 0.0032302478444501456 0.9957083466569046 -0.005593714307695445 0.9957083466569048 -0.005593714307720044 0.004282325864053416 0.0032302478444352304
800000000.0 0.004287420236110506 0.0036916852863028513 0.9957014631346688 -0.006392787583572323 0.9957014631346687 -0.0063927875835792436 0.004287420236110395 0.003691685286292994
900000000.0 0.004293255982712296 0.004153111925837988 0.9956937240737735 -0.007191849542682099 0.9956937240737731 -0.007191849542770546 0.004293255982712019 0.004153111925769101
1000000000.0 0.004299833077160142 0.004614526373772675 0.9956851295004961 -0.007990898810558946 0.995685129500496 -0.007990898810603046 0.004299833077159976 0.004614526373734292
1100000000.0 0.004282116609164388 0.005076276030190623 0.9957007143827008 -0.008790282802212864 0.9957007143827006 -0.008790282802257385 0.0042821166091641105 0.005076276030171092
1200000000.0 0.00426514148162882 0.00553807414865712 0.9957154437809612 -0.009589714785547085 0.9957154437809608 -0.009589714785546578 0.004265141481628487 0.005538074148663118
1300000000.0 0.004248907829783988 0.00599991934247247 0.9957293175623259 -0.010389193388379628 0.9957293175623256 -0.010389193388422095 0.004248907829783877 0.005999919342434858
1400000000.0 0.004233415785685202 0.006461810224203125 0.9957423355969623 -0.011188717238032612 0.9957423355969623 -0.01118871723803333 0.004233415785685035 0.006461810224196401
1500000000.0 0.004218665478216255 0.006923745406311997 0.9957544977581503 -0.011988284961515041 0.9957544977581498 -0.011988284961507716 0.004218665478216366 0.0069237454063044955
1600000000.0 0.004204657033083592 0.007385723500754912 0.9957658039222868 -0.012787895185352387 0.995765803922287 -0.012787895185371444 0.004204657033083314 0.007385723500725463
1700000000.0 0.004191390572816978 0.0078477431190522 0.9957762539688876 -0.013587546535806246 0.9957762539688876 -0.013587546535838388 0.0041913905728165335 0.007847743119037572
1800000000.0 0.004178866216763 0.008309802872331188 0.995785847780591 -0.014387237638591918 0.9957858477805912 -0.014387237638594903 0.004178866216763 0.008309802872321343
1900000000.0 0.004167084081094452 0.008771901371409265 0.9957945852431531 -0.015186967119155955 0.995794585243153 -0.01518696711915861 0.0041670840810943965 0.008771901371403067
2000000000.0 0.004156044278798232 0.009234037226682021 0.9958024662454553 -0.015986733602526722 0.995802466245455 -0.01598673360251821 0.00415604427879801 0.009234037226698064
2100000000.0 0.004145746919678228 0.009696209048236551 0.9958094906795008 -0.016786535713412508 0.9958094906795012 -0.01678653571339228 0.004145746919678783 0.009696209048262976
2200000000.0 0.004136192110355208 0.010158415445697604 0.9958156584404227 -0.017586372076101982 0.9958156584404229 -0.01758637207608469 0.0041361921103557076 0.010158415445729749
2300000000.0 0.004127379954264043 0.010620655028487226 0.9958209694264757 -0.018386241314616282 0.9958209694264758 -0.018386241314623072 0.004127379954264099 0.0106206550284796
2400000000.0 0.0041193105516521 0.011082926405590554 0.9958254235390456 -0.01918614205266312 0.9958254235390457 -0.019186142052682886 0.004119310551651878 0.011082926405566889
2500000000.0 0.004111983999578461 0.01154522818566656 0.995829020682647 -0.019986072913576437 0.9958290206826472 -0.0199860729135623 0.004111983999578683 0.011545228185681145
2600000000.0 0.004105400391913261 0.012007558977167189 0.9958317607649245 -0.020786032520321646 0.9958317607649247 -0.020786032520332245 0.0041054003919135384 0.012007558977157103
2700000000.0 0.004099559819336296 0.012469917388099855 0.9958336436966538 -0.02158601949574078 0.9958336436966546 -0.021586019495713184 0.0040995598193369065 0.012469917388134164
2800000000.0 0.004094462369334861 0.01293230202630078 0.9958346693917466 -0.022386032462130653 0.9958346693917467 -0.02238603246213732 0.0040944623693351945 0.012932302026296059
2900000000.0 0.004090108126205028 0.013394711499207497 0.9958348377672437 -0.023186070041750655 0.9958348377672426 -0.02318607004175565 0.004090108126204528 0.013394711499208352
3000000000.0 0.004086497171045145 0.013857144414031828 0.9958341487433224 -0.023986130856430272 0.9958341487433235 -0.023986130856418583 0.004086497171045644 0.0138571444140402
3100000000.0 0.004083629581763615 0.014319599377687288 0.9958326022433008 -0.024786213527746598 0.9958326022433011 -0.024786213527726763 0.004083629581763892 0.014319599377703919
3200000000.0 0.00408150543307062 0.014782074996913301 0.995830198193626 -0.02558631667704775 0.9958301981936253 -0.025586316677056513 0.004081505433070065 0.014782074996899226
3300000000.0 0.004080124796479179 0.015244569878068232 0.9958269365238879 -0.026386438925474105 0.9958269365238879 -0.02638643892547481 0.004080124796478846 0.015244569878062412
3400000000.0 0.0040794877403036445 0.015707082627345232 0.9958228171668148 -0.027186578893839266 0.9958228171668149 -0.027186578893841788 0.0040794877403042 0.01570708262733943
3500000000.0 0.004079594329662928 0.016169611850694585 0.9958178400582749 -0.027986735202750353 0.9958178400582749 -0.027986735202765217 0.004079594329662595 0.016169611850681553
3600000000.0 0.004080444626472113 0.01663215615381916 0.9958120051372761 -0.028786906472616905 0.9958120051372763 -0.028786906472634488 0.004080444626472002 0.016632156153801394
3700000000.0 0.004082038689449452 0.017094714142223334 0.9958053123459685 -0.029587091323652014 0.9958053123459683 -0.029587091323655765 0.00408203868944923 0.017094714142216673
3800000000.0 0.004084376574108484 0.01755728442118528 0.9957977616296445 -0.03038728837579721 0.9957977616296442 -0.030387288375799223 0.004084376574108539 0.017557284421185964
3900000000.0 0.004087458332763305 0.018019865595828938 0.9957893529367403 -0.031187496248828495 0.9957893529367403 -0.031187496248835662 0.00408745833276325 0.018019865595821898
4000000000.0 0.00409128401452491 0.01848245627105692 0.995780086218834 -0.03198771356238206 0.9957800862188337 -0.03198771356238059 0.00409128401452491 0.018482456271055568
4100000000.0 0.004095853665298688 0.018945055051580735 0.995769961430651 -0.03278793893583749 0.9957699614306509 -0.03278793893584393 0.004095853665298799 0.01894505505157203
4200000000.0 0.004101167327787203 0.019407660541949194 0.9957589785300613 -0.033588170988440226 0.9957589785300608 -0.0335881709884541 0.004101167327786925 0.01940766054193728
4300000000.0 0.004107225041487916 0.019870271346552195 0.995747137478079 -0.03438840833932942 0.9957471374780786 -0.0343884083393273 0.004107225041488083 0.019870271346560713
4400000000.0 0.004114026842692242 0.020332886069653076 0.995734438238868 -0.03518864960738401 0.9957344382388684 -0.03518864960739211 0.004114026842692409 0.02033288606964924
4500000000.0 0.004121572764486103 0.020795503315329363 0.995720880779737 -0.03598889341144436 0.9957208807797376 -0.03598889341144326 0.0041215727644868805 0.020795503315330095
4600000000.0 0.00412986283674921 0.021258121687560718 0.9957064650711434 -0.036789138370161595 0.995706465071144 -0.03678913837016781 0.004129862836749487 0.021258121687562352
4700000000.0 0.0041388970861513386 0.02172073979016599 0.9956911910866943 -0.03758938310207955 0.9956911910866938 -0.037589383102084 0.004138897086151394 0.021720739790163736
4800000000.0 0.004148675536155277 0.022183356226860865 0.9956750588031429 -0.03838962622562111 0.9956750588031434 -0.03838962622561479 0.0041486755361554994 0.022183356226866714
4900000000.0 0.004159198207018544 0.022645969601273658 0.9956580682003948 -0.0391898663591219 0.9956580682003944 -0.03918986635911821 0.0041591982070181 0.022645969601277176
5000000000.0 0.004170465115785504 0.023108578516924813 0.9956402192615024 -0.03999010212079998 0.9956402192615023 -0.03999010212079794 0.004170465115785726 0.023108578516924074
5100000000.0 0.0042059686971585575 0.023569661021240095 0.9955980183799349 -0.04078881154611416 0.9955980183799344 -0.04078881154612432 0.004205968697157669 0.023569661021227848
5200000000.0 0.004242212257945577 0.024030676746271858 0.9955549633279316 -0.041587454305627394 0.995554963327931 -0.04158745430561806 0.004242212257945022 0.0240306767462809
5300000000.0 0.00427919564459095 0.024491624307834386 0.9955110542562688 -0.04238602902963734 0.9955110542562687 -0.04238602902963469 0.004279195644590672 0.024491624307833658
5400000000.0 0.004316918700375538 0.024952502322149017 0.9954662913188306 -0.04318453434897469 0.9954662913188296 -0.043184534348988265 0.004316918700374761 0.024952502322141128
5500000000.0 0.004355381265409353 0.02541330940590031 0.9954206746726064 -0.04398296889488876 0.9954206746726064 -0.04398296889488988 0.004355381265409297 0.025413309405898882
5600000000.0 0.004394583176640765 0.025874044176225915 0.9953742044776951 -0.044781331299058424 0.995374204477695 -0.04478133129905317 0.004394583176640765 0.025874044176230855
5700000000.0 0.00443452426785379 0.02633470525073779 0.9953268808972957 -0.04557962019364081 0.9953268808972962 -0.04557962019363638 0.004434524267854234 0.0263347052507428
5800000000.0 0.004475204369671026 0.02679529124750061 0.9952787040977142 -0.04637783421126859 0.9952787040977142 -0.04637783421126917 0.00447520436967086 0.026795291247503298
5900000000.0 0.00451662330955388 0.027255800785074398 0.9952296742483553 -0.04717597198503673 0.9952296742483553 -0.047175971985040865 0.004516623309553824 0.02725580078507083
6000000000.0 0.004558780911807614 0.02771623248250335 0.9951797915217215 -0.04797403214856623 0.9951797915217222 -0.04797403214856294 0.0045587809118078915 0.027716232482509002
6100000000.0 0.004601676997578852 0.02817658495933624 0.9951290560934173 -0.048772013335927664 0.9951290560934172 -0.04877201333591976 0.004601676997578796 0.028176584959344192
6200000000.0 0.004645311384860185 0.02863685683563719 0.9950774681421393 -0.04956991418172704 0.9950774681421395 -0.04956991418173157 0.0046453113848600736 0.0286368568356316
6300000000.0 0.004689683888492113 0.02909704673196875 0.9950250278496795 -0.0503677333210915 0.9950250278496795 -0.050367733321096855 0.004689683888491836 0.029097046731963852
6400000000.0 0.004734794320159108 0.02955715326941937 0.9949717354009243 -0.05116546938964868 0.9949717354009247 -0.05116546938964531 0.004734794320159774 0.02955715326942157
6500000000.0 0.004780642488403264 0.030017175069639863 0.9949175909838479 -0.051963121023578446 0.9949175909838481 -0.051963121023571944 0.0047806424884035414 0.030017175069645536
6600000000.0 0.004827228198613753 0.0304771107548068 0.9948625947895153 -0.0527606868595928 0.9948625947895153 -0.052760686859592884 0.004827228198613254 0.03047711075480982
6700000000.0 0.004874551253033821 0.03093695894765038 0.9948067470120769 -0.05355816553495396 0.9948067470120774 -0.05355816553496072 0.004874551253034043 0.030936958947645726
6800000000.0 0.004922611450765502 0.031396718271447556 0.9947500478487701 -0.05435555568751022 0.9947500478487701 -0.05435555568750802 0.004922611450765446 0.03139671827144873
6900000000.0 0.004971408587765458 0.03185638735007679 0.9946924974999138 -0.055152855955619084 0.9946924974999145 -0.05515285595561768 0.0049714085877658465 0.03185638735007544
7000000000.0 0.005020942456854638 0.03231596480797835 0.9946340961689089 -0.05595006497828804 0.9946340961689086 -0.05595006497828586 0.005020942456854471 0.03231596480797834
7100000000.0 0.0050712128477105045 0.032775449270177504 0.994574844062235 -0.056747181395044755 0.9945748440622353 -0.056747181395044824 0.00507121284771056 0.03277544927017663
7200000000.0 0.005122219546877416 0.03323483936229641 0.9945147413894502 -0.057544203846054576 0.99451474138945 -0.05754420384605659 0.005122219546877194 0.03323483936229555
7300000000.0 0.005173962337767624 0.03369413371058962 0.9944537883631838 -0.05834113097208437 0.9944537883631837 -0.05834113097208495 0.0051739623377674016 0.033694133710590504
7400000000.0 0.005226441000656001 0.034153330941891255 0.9943919851991423 -0.059137961414496884 0.9943919851991433 -0.0591379614144919 0.005226441000657056 0.03415333094189919
7500000000.0 0.0052796553126936985 0.034612429683686975 0.9943293321161032 -0.05993469381527227 0.9943293321161032 -0.059934693815274165 0.005279655312693643 0.034612429683681264
7600000000.0 0.005333605047897982 0.035071428564055436 0.9942658293359097 -0.06073132681704591 0.99426582933591 -0.06073132681704068 0.00533360504789826 0.03507142856405912
7700000000.0 0.005388289977165672 0.035530326211765544 0.994201477083473 -0.0615278590630647 0.9942014770834731 -0.06152785906306964 0.005388289977165783 0.03553032621176504
7800000000.0 0.005443709868267255 0.03598912125620586 0.9941362755867693 -0.06232428919725268 0.9941362755867698 -0.06232428919725027 0.005443709868267921 0.035989121256208706
7900000000.0 0.0054998644858530454 0.03644781232742672 0.9940702250768376 -0.06312061586415019 0.9940702250768376 -0.06312061586414798 0.005499864485852768 0.03644781232742907
8000000000.0 0.0055567535914543 0.036906398056165066 0.994003325787773 -0.06391683770901177 0.9940033257877732 -0.06391683770900854 0.005556753591454189 0.03690639805616691
8100000000.0 0.005614376943485322 0.037364877073806896 0.993935577956734 -0.06471295337771825 0.9939355779567336 -0.06471295337772326 0.005614376943484989 0.03736487707380265
8200000000.0 0.005672734297247073 0.037823248012438304 0.9938669818239287 -0.06550896151687369 0.9938669818239287 -0.06550896151687781 0.005672734297247239 0.03782324801243821
8300000000.0 0.005731825404927227 0.038281509504835096 0.9937975376326226 -0.0663048607737445 0.993797537632623 -0.06630486077374852 0.00573182540492756 0.03828150950483652
8400000000.0 0.005791650015605221 0.03873966018448148 0.9937272456291297 -0.0671006497963123 0.9937272456291302 -0.06710064979630381 0.005791650015605387 0.03873966018448806
8500000000.0 0.005852207875252702 0.039197698685567536 0.9936561060628122 -0.0678963272332535 0.993656106062812 -0.06789632723324796 0.005852207875252702 0.039197698685569785
8600000000.0 0.005913498726736355 0.03965562364301187 0.9935841191860787 -0.06869189173397272 0.9935841191860779 -0.06869189173397541 0.0059134987267358 0.03965562364300733
8700000000.0 0.005975522309820125 0.04011343369244249 0.9935112852543794 -0.06948734194860864 0.9935112852543792 -0.069487341948613 0.005975522309819792 0.04011343369243783
8800000000.0 0.006038278361170102 0.04057112747024158 0.993437604526207 -0.07028267652802192 0.9934376045262068 -0.07028267652802639 0.006038278361169769 0.04057112747023983
8900000000.0 0.006101766614352744 0.04102870361353665 0.9933630772630927 -0.07107789412381588 0.9933630772630925 -0.07107789412381958 0.006101766614352522 0.0410287036135315
9000000000.0 0.006165986799840817 0.041486160760193375 0.9932877037296028 -0.07187299338835407 0.9932877037296026 -0.07187299338834588 0.006165986799840595 0.041486160760198704
9100000000.0 0.006230938645016504 0.04194349754887293 0.9932114841933339 -0.07266797297476107 0.9932114841933346 -0.07266797297475108 0.00623093864501717 0.0419434975488818
9200000000.0 0.006296621874170183 0.042400712618983045 0.9931344189249194 -0.07346283153690022 0.9931344189249194 -0.07346283153690238 0.006296621874169905 0.04240071261897897
9300000000.0 0.00636303620850559 0.04285780461070643 0.9930565081980147 -0.07425756772947018 0.9930565081980146 -0.0742575677294686 0.006363036208505868 0.04285780461070923
9400000000.0 0.006430181366144316 0.043314772165043945 0.9929777522893029 -0.07505218020790567 0.9929777522893022 -0.07505218020791166 0.006430181366143317 0.04331477216503658
9500000000.0 0.0064980570621231415 0.043771613923760305 0.9928981514784883 -0.07584666762847314 0.9928981514784885 -0.07584666762847127 0.0064980570621233635 0.043771613923762
9600000000.0 0.0065666630084024735 0.04422832852945379 0.9928177060482977 -0.07664102864820412 0.9928177060482979 -0.07664102864820214 0.006566663008402862 0.04422832852945626
9700000000.0 0.006635998913866625 0.04468491462552644 0.9927364162844722 -0.07743526192497091 0.9927364162844723 -0.07743526192497022 0.006635998913866736 0.04468491462552726
9800000000.0 0.006706064484326257 0.045141370856214974 0.9926542824757669 -0.07822936611746625 0.9926542824757671 -0.07822936611746756 0.0067060644843268125 0.04514137085621392
9900000000.0 0.006776859422521819 0.04559769586656202 0.9925713049139504 -0.07902333988520521 0.9925713049139502 -0.07902333988520152 0.00677685942252132 0.045597695866567214
10000000000.0 0.006848383428124438 0.04605388830248352 0.9924874838937988 -0.07981718188852505 0.9924874838937984 -0.07981718188852605 0.006848383428124216 0.04605388830248229
10100000000.0 0.006921631062544342 0.04650981884609505 0.9924018246520097 -0.08061076281622828 0.9924018246520097 -0.08061076281622967 0.006921631062543787 0.04650981884609325
10200000000.0 0.006995606696557466 0.04696561161144683 0.9923153230006085 -0.08140420680414767 0.9923153230006085 -0.08140420680414298 0.006995606696557466 0.04696561161145098
10300000000.0 0.007070310013977121 0.04742126524860671 0.9922279792499376 -0.08219751251677007 0.9922279792499384 -0.08219751251676538 0.0070703100139776764 0.04742126524861272
10400000000.0 0.007145740695567726 0.04787677840853599 0.9921397937133312 -0.08299067861948389 0.9921397937133308 -0.08299067861949014 0.007145740695567948 0.04787677840852934
10500000000.0 0.007221898419044526 0.04833214974308066 0.9920507667071095 -0.08378370377859005 0.9920507667071092 -0.08378370377858615 0.007221898419044248 0.04833214974308418
10600000000.0 0.007298782859079644 0.04878737790502684 0.9919608985505792 -0.08457658666125788 0.9919608985505795 -0.08457658666126004 0.0072987828590797 0.04878737790502609
10700000000.0 0.007376393687305638 0.04924246154806583 0.9918701895660282 -0.08536932593561461 0.9918701895660286 -0.08536932593561881 0.007376393687305638 0.04924246154806185
10800000000.0 0.0074547305723163815 0.04969739932681528 0.991778640078723 -0.0861619202706926 0.9917786400787232 -0.08616192027069644 0.007454730572316104 0.04969739932681025
10900000000.0 0.0075337931796727875 0.05015218989684431 0.9916862504169042 -0.08695436833646275 0.9916862504169037 -0.08695436833646707 0.007533793179672121 0.05015218989684078
11000000000.0 0.007613581171902806 0.05060683191465348 0.9915930209117843 -0.08774666880385035 0.9915930209117845 -0.08774666880384666 0.00761358117190325 0.05060683191465713
11100000000.0 0.00769409420850925 0.051061324037718625 0.9914989518975452 -0.08853882034470381 0.9914989518975463 -0.08853882034470006 0.007694094208510027 0.05106132403772258
11200000000.0 0.0077753319459675785 0.05151566492444454 0.991404043711337 -0.08933082163185721 0.9914040437113372 -0.08933082163185072 0.0077753319459679116 0.05151566492445207
