! Created with skrf (http://scikit-rf.org).
# Hz S RI R 50.0 
!freq ReS11 ImS11 ReS21 ImS21 ReS12 ImS12 ReS22 ImS22
100000000.0 0.0024558165447701175 -0.011429494119441767 0.9967959881274255 -0.02446609431359643 0.9967959881274258 -0.024466094313595414 0.002455816544770173 -0.01142949411944032
300299401.1976048 -7.275013486190973e-05 -0.03418245140317748 0.9939591102036679 -0.07334495318147517 0.9939591102036678 -0.07334495318147563 -7.275013486202075e-05 -0.03418245140317743
500598802.3952096 -0.004649984785041583 -0.05655818812724214 0.9880727296690525 -0.12184226627051581 0.9880727296690522 -0.12184226627051598 -0.004649984785041805 -0.056558188127242615
700898203.5928144 -0.011302869931481219 -0.07832704648704084 0.9792865373506259 -0.16971760689778603 0.9792865373506259 -0.1697176068977858 -0.01130286993148144 -0.07832704648704053
901197604.7904192 -0.02000704672436282 -0.09926436846023183 0.9677543372409836 -0.2167487337512699 0.9677543372409833 -0.21674873375126935 -0.020007046724362876 -0.09926436846023141
1101497005.988024 -0.03065284772327015 -0.11916268423113718 0.9535947294509467 -0.2627270822512764 0.9535947294509474 -0.26272708225127683 -0.03065284772326987 -0.11916268423113743
1301796407.185629 -0.04310101299346564 -0.13783385823038125 0.9369406653307586 -0.3074621365928224 0.9369406653307586 -0.30746213659282234 -0.04310101299346575 -0.1378338582303812
1502095808.3832335 -0.05718693351722359 -0.15511246271640092 0.9179364267027391 -0.35078308252094625 0.9179364267027388 -0.35078308252094614 -0.05718693351722359 -0.15511246271640095
1702395209.5808384 -0.07273732832937863 -0.17085564264910155 0.8967470461931413 -0.3925427706920026 0.8967470461931416 -0.39254277069200305 -0.0727373283293784 -0.1708556426491019
1902694610.7784433 -0.08956758235754353 -0.1849450315049353 0.8735476965380258 -0.432617971479371 0.873547696538026 -0.432617971479371 -0.0895675823575437 -0.18494503150493496
2102994011.976048 -0.10748563167195063 -0.19728717803030127 0.8485197991068475 -0.470909714140254 0.8485197991068476 -0.47090971414025395 -0.1074856316719503 -0.19728717803030138
2303293413.1736526 -0.1262956806017223 -0.20781331084942894 0.8218473007844284 -0.5073429587893223 0.8218473007844285 -0.5073429587893228 -0.1262956806017223 -0.20781331084942917
2503592814.371258 -0.1458004240062603 -0.21647890077630086 0.7937119185614461 -0.541865184750842 0.7937119185614461 -0.5418651847508421 -0.1458004240062603 -0.2164789007763011
2703892215.5688624 -0.1657419112819452 -0.22328334869851948 0.7642223799377565 -0.5744165249075504 0.7642223799377568 -0.5744165249075506 -0.1657419112819451 -0.2232833486985195
2904191616.766467 -0.1859992776278192 -0.22820575508985708 0.7336235215884286 -0.6050108267271975 0.7336235215884286 -0.6050108267271974 -0.18599927762781931 -0.22820575508985694
3104491017.964072 -0.2063921888894632 -0.23126355440503277 0.7020792484649405 -0.633655098247559 0.7020792484649406 -0.6336550982475591 -0.20639218888946315 -0.23126355440503282
3304790419.161677 -0.22674964836050354 -0.23249105087490962 0.6697429346980428 -0.6603718984243143 0.6697429346980428 -0.6603718984243145 -0.22674964836050343 -0.23249105087490962
3505089820.3592815 -0.24691129054304417 -0.23193723423662493 0.6367561395854902 -0.6851970163609191 0.6367561395854903 -0.6851970163609191 -0.24691129054304423 -0.23193723423662466
3705389221.5568867 -0.2667282583999412 -0.22966360182578532 0.6032477454479155 -0.7081771469885703 0.6032477454479156 -0.7081771469885703 -0.26672825839994124 -0.22966360182578532
3905688622.7544913 -0.28606370541096415 -0.2257420538271439 0.5693334772787517 -0.7293676292563386 0.5693334772787519 -0.7293676292563388 -0.2860637054109642 -0.22574205382714405
4105988023.952096 -0.3047929709688656 -0.22025291379601603 0.5351157570706158 -0.7488302982238244 0.5351157570706158 -0.7488302982238244 -0.30479297096886576 -0.22025291379601603
4306287425.149701 -0.322803481131198 -0.2132831123923084 0.500683842422904 -0.7666314883101348 0.5006838424229041 -0.7666314883101348 -0.32280348113119783 -0.21328311239230854
4506586826.347305 -0.33999442713732636 -0.2049245593162877 0.4661141988672261 -0.7828402120517186 0.46611419886722605 -0.7828402120517186 -0.33999442713732636 -0.20492455931628764
4706886227.54491 -0.3562762721153824 -0.1952727171422994 0.43147105758222715 -0.797526527504979 0.4314710575822272 -0.797526527504979 -0.35627627211538215 -0.19527271714229927
4907185628.742516 -0.3715701327280144 -0.1844253813292903 0.39680711412134334 -0.8107600981193457 0.3968071141213434 -0.8107600981193457 -0.37157013272801437 -0.18442538132929032
5107485029.94012 -0.3858191283874435 -0.1724738344503942 0.36217622987687637 -0.8226219412422445 0.36217622987687637 -0.8226219412422444 -0.38581912838744353 -0.1724738344503942
5307784431.137725 -0.39896152952069824 -0.15951779897359958 0.32760774966694317 -0.8331772387017194 0.32760774966694317 -0.8331772387017196 -0.39896152952069824 -0.15951779897359958
5508083832.33533 -0.4109354869050298 -0.14566314784537537 0.2931140609181455 -0.842476917230413 0.2931140609181455 -0.842476917230413 -0.41093548690502973 -0.14566314784537537
5708383233.532934 -0.4216973313981451 -0.13100864449697386 0.25871010894205887 -0.8505782449701933 0.2587101089420589 -0.8505782449701933 -0.4216973313981449 -0.1310086444969738
5908682634.730539 -0.43121034720081514 -0.11565210014768448 0.22440373161676366 -0.8575334924941684 0.2244037316167637 -0.8575334924941684 -0.43121034720081536 -0.11565210014768451
6108982035.928144 -0.439444100519246 -0.09969017780240827 0.19019657430431613 -0.8633894345957707 0.19019657430431608 -0.8633894345957703 -0.43944410051924576 -0.09969017780240823
6309281437.125749 -0.4463738301947178 -0.08321830872369236 0.15608498523852535 -0.8681869547764135 0.15608498523852535 -0.8681869547764134 -0.44637383019471794 -0.08321830872369237
6509580838.323354 -0.45197991010423194 -0.06633070398523422 0.12206088697125393 -0.8719607376572744 0.1220608869712539 -0.8719607376572742 -0.4519799101042319 -0.06633070398523419
6709880239.520959 -0.4562473905284327 -0.04912044443224979 0.08811262245430636 -0.8747390361268166 0.08811262245430632 -0.8747390361268164 -0.4562473905284327 -0.04912044443224978
6910179640.718563 -0.45916562359056695 -0.031679633213308044 0.05422577675802101 -0.8765435019058865 0.05422577675802099 -0.876543501905886 -0.45916562359056684 -0.03167963321330804
7110479041.916168 -0.4607279762226747 -0.014099595892397745 0.02038397732730482 -0.8773890702688218 0.02038397732730482 -0.8773890702688216 -0.4607279762226744 -0.014099595892397739
7310778443.113773 -0.46093163283206734 0.0035288860897076885 -0.01343032290591305 -0.8772838918300081 -0.013430322905913046 -0.8772838918300078 -0.4609316328320672 0.0035288860897076846
7511077844.311378 -0.45977748883638636 0.021115322224035185 -0.04723507425830231 -0.8762293065394569 -0.047235074258302326 -0.8762293065394571 -0.4597774888363864 0.021115322224035178
7711377245.508983 -0.4572701354203095 0.03856925321163619 -0.08104786501613909 -0.8742198572932258 -0.08104786501613911 -0.8742198572932263 -0.4572701354203095 0.03856925321163619
7911676646.706588 -0.4534179351519991 0.05579999770841996 -0.11488515609923791 -0.8712433428302795 -0.11488515609923788 -0.8712433428302793 -0.45341793515199874 0.05579999770841988
8111976047.904192 -0.4482331873934738 0.07271641855510033 -0.14876150982264225 -0.867280911838088 -0.14876150982264225 -0.867280911838088 -0.448233187393474 0.07271641855510039
8312275449.101797 -0.441732381658119 0.0892267217474744 -0.1826888074872109 -0.8623072024065186 -0.18268880748721092 -0.8623072024065186 -0.4417323816581189 0.08922672174747438
8512574850.299402 -0.43393653612376526 0.10523830182832603 -0.21667545149900308 -0.8562905331307366 -0.21667545149900297 -0.8562905331307362 -0.43393653612376537 0.105238301828326
8712874251.497007 -0.42487161731688206 0.12065764795417776 -0.250725549102084 -0.8491931542367428 -0.25072554910208406 -0.8491931542367428 -0.4248716173168822 0.1206576479541778
8913173652.69461 -0.41456903546203994 0.1353903255448098 -0.2848380766406321 -0.8409715690415233 -0.2848380766406322 -0.8409715690415236 -0.4145690354620401 0.13539032554480981
9113473053.892216 -0.4030662080674641 0.149341049076201 -0.3190060255778356 -0.8315769377983677 -0.31900602557783586 -0.8315769377983684 -0.403066208067464 0.14934104907620105
9313772455.08982 -0.39040718192962354 0.16241386211940737 -0.353215534322254 -0.8209555774288839 -0.353215534322254 -0.8209555774288838 -0.3904071819296234 0.16241386211940734
9514071856.287426 -0.37664330084199726 0.17451244102395366 -0.38744501326851377 -0.8090495716924528 -0.3874450132685139 -0.8090495716924531 -0.37664330084199743 0.17451244102395386
9714371257.485031 -0.3618339028649268 0.18554053853257924 -0.4216642743507517 -0.7957975068496579 -0.42166427435075143 -0.7957975068496576 -0.36183390286492695 0.18554053853257918
9914670658.682636 -0.34604702706958224 0.19540258290669796 -0.45583368080619197 -0.7811353476693139 -0.455833680806192 -0.781135347669314 -0.3460470270695822 0.19540258290669793
10114970059.88024 -0.3293611026648416 0.20401891650396345 -0.4899099592365973 -0.7650171052999518 -0.48990995923659714 -0.7650171052999517 -0.3293611026648417 0.20401891650396337
10315269461.077845 -0.3118611724770488 0.21129417715612014 -0.5238334556876071 -0.747371391203192 -0.5238334556876072 -0.7473713912031922 -0.31186117247704875 0.21129417715612003
10515568862.27545 -0.293643879014157 0.21712919217904442 -0.5575276006145051 -0.7281181949563509 -0.5575276006145049 -0.7281181949563507 -0.293643879014157 0.21712919217904444
10715868263.473055 -0.27481826445450147 0.22144028918278946 -0.5909077672300048 -0.7071946026121736 -0.5909077672300047 -0.7071946026121736 -0.27481826445450147 0.22144028918278957
10916167664.67066 -0.255504762939752 0.2241501425573394 -0.6238767919462928 -0.684541906801911 -0.6238767919462929 -0.6845419068019112 -0.2555047629397522 0.2241501425573393
11116467065.868265 -0.23583529372590262 0.22518946785781302 -0.6563248464457343 -0.6601074887345315 -0.6563248464457344 -0.6601074887345315 -0.23583529372590273 0.22518946785781305
11316766467.065868 -0.21595309996310735 0.22449886846175393 -0.6881295737893167 -0.6338468395776563 -0.6881295737893165 -0.6338468395776562 -0.21595309996310758 0.224498868461754
11517065868.263474 -0.19601228526628717 0.22203079967650463 -0.7191565347369493 -0.6057256871763601 -0.7191565347369495 -0.6057256871763601 -0.196012285266287 0.22203079967650455
11717365269.461079 -0.17617700337831627 0.21775160261794446 -0.7492600075278228 -0.5757221812333071 -0.7492600075278227 -0.575722181233307 -0.17617700337831604 0.21775160261794457
11917664670.658684 -0.15662026272081414 0.21164354685149078 -0.7782841780661749 -0.5438290767520875 -0.7782841780661751 -0.5438290767520879 -0.15662026272081409 0.21164354685149106
12117964071.856289 -0.13752231793680042 0.20370680784787476 -0.8060647473172684 -0.510055842604537 -0.8060647473172682 -0.5100558426045365 -0.1375223179368003 0.20370680784787465
12318263473.053894 -0.11906863489964797 0.19396129385414448 -0.8324309684973364 -0.47443061061950115 -0.8324309684973367 -0.4744306106195013 -0.11906863489964792 0.19396129385414454
12518562874.251497 -0.10144743402148543 0.18244822808679473 -0.8572081084140487 -0.4370018718797395 -0.8572081084140488 -0.4370018718797393 -0.10144743402148498 0.18244822808679467
12718862275.449102 -0.08484683856129227 0.16923138757641143 -0.8802203055627031 -0.39783982231489007 -0.8802203055627033 -0.3978398223148901 -0.08484683856129238 0.16923138757641143
12919161676.646708 -0.06945167905686733 0.15439790083933455 -0.9012937732612706 -0.3570372605009424 -0.9012937732612706 -0.3570372605009423 -0.06945167905686717 0.1543979008393344
13119461077.844313 -0.05544003054552732 0.1380585139086314 -0.9202602706562336 -0.314709947908776 -0.9202602706562337 -0.3147099479087757 -0.055440030545527486 0.13805851390863116
13319760479.041918 -0.042979584015570726 0.12034724880230274 -0.9369607397328339 -0.27099635636526226 -0.9369607397328337 -0.2709963563652621 -0.04297958401557078 0.12034724880230266
13520059880.239521 -0.03222397534769511 0.10142040032930041 -0.9512489847156252 -0.2260567492891936 -0.9512489847156256 -0.22605674928919364 -0.03222397534769528 0.1014204003293004
13720359281.437126 -0.023309211552015596 0.08145484559230116 -0.9629952537603188 -0.1800715717001816 -0.9629952537603188 -0.18007157170018157 -0.023309211552015374 0.08145484559230111
13920658682.634731 -0.01635034322038209 0.060645674204543115 -0.9720895737785392 -0.1332391576365429 -0.9720895737785393 -0.13323915763654307 -0.016350343220381924 0.060645674204543525
14120958083.832336 -0.011438532078218155 0.03920318390549496 -0.9784446893217065 -0.08577280026736323 -0.9784446893217069 -0.08577280026736425 -0.0114385320782176 0.03920318390549561
14321257485.029942 -0.008638652344653164 0.017349323147833356 -0.9819984666701504 -0.03789726685607003 -0.9819984666701502 -0.03789726685607045 -0.00863865234465333 0.017349323147832968
14521556886.227547 -0.007987544249293738 -0.004686303780902318 -0.9827156446748574 0.01015512528915924 -0.982715644674861 0.010155125289161043 -0.007987544249292516 -0.004686303780904982
14721856287.42515 -0.00949300851662166 -0.026670725536847142 -0.9805888434747526 0.05814872775097002 -0.9805888434747531 0.05814872775097149 -0.009493008516621437 -0.02667072553684835
14922155688.622755 -0.013133593940418409 -0.04837202350261504 -0.9756387789372702 0.10584891137330357 -0.97563877893727 0.10584891137330281 -0.01313359394041852 -0.04837202350261431
15122455089.82036 -0.018859189186637648 -0.06956371093262081 -0.9679136716893642 0.153026375873663 -0.9679136716893642 0.1530263758736627 -0.018859189186637537 -0.06956371093262051
15322754491.017965 -0.026592388052973648 -0.0900289025400548 -0.9574878815513298 0.19946124922584596 -0.9574878815513295 0.19946124922584507 -0.026592388052973592 -0.090028902540054
15523053892.21557 -0.03623055805755415 -0.10956411951680177 -0.9444598375775208 0.24494682125165917 -0.9444598375775204 0.24494682125165923 -0.03623055805755415 -0.10956411951680202
15723353293.413176 -0.04764850860122205 -0.12798259868740722 -0.9289493675733148 0.2892927795648485 -0.9289493675733145 0.28929277956484883 -0.04764850860122216 -0.12798259868740752
15923652694.610779 -0.06070162954449776 -0.14511700568960462 -0.911094556400656 0.33232784719390474 -0.9110945564006561 0.33232784719390474 -0.06070162954449776 -0.14511700568960456
16123952095.808384 -0.07522935542161219 -0.1608214878238548 -0.891048278046086 0.3739017569498587 -0.891048278046086 0.3739017569498587 -0.07522935542161213 -0.16082148782385508
16324251497.00599 -0.09105880518655879 -0.17497303937132502 -0.8689745517995566 0.4138865347491337 -0.8689745517995565 0.4138865347491337 -0.09105880518655896 -0.1749730393713251
16524550898.203594 -0.10800845183803687 -0.18747218774165433 -0.845044868492456 0.45217709964854463 -0.8450448684924562 0.452177099648545 -0.10800845183803681 -0.1874721877416547
16724850299.4012 -0.12589168913595866 -0.19824304024468997 -0.8194346199356453 0.4886912197656579 -0.8194346199356454 0.4886912197656578 -0.12589168913595855 -0.19824304024468997
16925149700.598804 -0.1445201819380923 -0.2072327567369977 -0.7923197454478028 0.5233688886966141 -0.792319745447803 0.5233688886966141 -0.1445201819380923 -0.20723275673699793
17125449101.796408 -0.16370691018368094 -0.21441053181529202 -0.7638736859398995 0.5561712054465855 -0.7638736859398998 0.5561712054465856 -0.16370691018368094 -0.21441053181529207
17325748502.994015 -0.18326884194511744 -0.21976618133090464 -0.7342647107108711 0.5870788519720689 -0.7342647107108708 0.5870788519720689 -0.1832688419451176 -0.21976618133090475
17526047904.19162 -0.20302919619105997 -0.22330843216916893 -0.7036536569817587 0.6160902665874142 -0.7036536569817589 0.6160902665874142 -0.2030291961910599 -0.223308432169169
17726347305.38922 -0.22281927927128298 -0.22506301236959309 -0.6721920989357035 0.6432196096059976 -0.6721920989357038 0.6432196096059977 -0.22281927927128298 -0.22506301236959292
17926646706.586826 -0.24247989943369358 -0.22507063197085025 -0.6400209428520578 0.6684946108847869 -0.640020942852058 0.6684946108847871 -0.24247989943369352 -0.22507063197085048
18126946107.78443 -0.26186238019332586 -0.22338493479925448 -0.607269428550185 0.691954378771936 -0.6072694285501848 0.6919543787719358 -0.26186238019332597 -0.2233849347992544
18327245508.982037 -0.2808292058137697 -0.22007048911203164 -0.5740545050718512 0.713647237654323 -0.574054505071851 0.7136472376543228 -0.2808292058137697 -0.22007048911203136
18527544910.17964 -0.2992543406226034 -0.21520087175449232 -0.5404805402429389 0.7336286480655432 -0.5404805402429389 0.733628648065543 -0.29925434062260325 -0.2152008717544922
18727844311.377247 -0.31702326872372705 -0.20885688728344415 -0.5066393191075047 0.7519592501385104 -0.506639319107505 0.7519592501385106 -0.3170232687237269 -0.20885688728344415
18928143712.574852 -0.3340328024227858 -0.20112495109890793 -0.47261028468969646 0.7687030588255787 -0.4726102846896964 0.7687030588255788 -0.3340328024227858 -0.20112495109890782
19128443113.772457 -0.3501907069624964 -0.19209565452363153 -0.43846097549778773 0.7839258282790627 -0.43846097549778773 0.7839258282790627 -0.3501907069624965 -0.19209565452363148
19328742514.970062 -0.3654151865999129 -0.1818625202690017 -0.4042476170134063 0.7976935933858537 -0.4042476170134063 0.797693593385854 -0.3654151865999131 -0.18186252026900185
19529041916.167667 -0.37963427323466864 -0.17052094893918773 -0.3700158285212851 0.8100713888007991 -0.37001582852128506 0.8100713888007992 -0.37963427323466864 -0.17052094893918773
19729341317.365273 -0.3927851542293905 -0.15816735112534008 -0.3358014115171957 0.821122139904976 -0.33580141151719556 0.8211221399049757 -0.3927851542293904 -0.15816735112534006
19929640718.562874 -0.404813471173848 -0.1448984551021171 -0.3016311911600249 0.8309057158099205 -0.3016311911600249 0.8309057158099202 -0.404813471173848 -0.14489845510211707
20129940119.76048 -0.4156726164607876 -0.13081077697157995 -0.2675238874782297 0.8394781316594556 -0.26752388747822964 0.8394781316594555 -0.41567261646078757 -0.13081077697157983
20330239520.958084 -0.4253230499014481 -0.11600023808487406 -0.23349099805958357 0.846890885839203 -0.2334909980595836 0.8468908858392032 -0.4253230499014483 -0.11600023808487424
20530538922.15569 -0.433731653369717 -0.1005619134823483 -0.19953767858299257 0.8531904170756356 -0.1995376785829926 0.8531904170756357 -0.43373165336971714 -0.10056191348234834
20730838323.353294 -0.44087113771580216 -0.0845898947084524 -0.1656636116933392 0.8584176665869725 -0.16566361169333932 0.8584176665869727 -0.440871137715802 -0.0845898947084524
20931137724.5509 -0.4467195129692192 -0.06817725047878373 -0.13186385832667524 0.8626077312530278 -0.13186385832667524 0.8626077312530279 -0.4467195129692192 -0.06817725047878377
21131437125.748505 -0.4512596301519876 -0.0514160691278329 -0.09812968865207629 0.8657895950419361 -0.09812968865207633 0.8657895950419363 -0.45125963015198783 -0.051416069127832933
21331736526.94611 -0.4544788008113556 -0.034397567399565926 -0.06444939232136747 0.8679859275381052 -0.06444939232136748 0.8679859275381052 -0.45447880081135555 -0.03439756739956591
21532035928.143715 -0.4563684986017342 -0.017212250838619825 -0.030809069736620533 0.8692129402542502 -0.030809069736620526 0.8692129402542499 -0.4563684986017339 -0.01721225083861981
21732335329.34132 -0.4569241458288756 4.9888297105229844e-05 0.002806592408188864 0.8694802934020072 0.002806592408188865 0.8694802934020078 -0.4569241458288756 4.9888297105230115e-05
21932634730.538925 -0.4561449867385324 0.017299149122334313 0.03641355694650632 0.868791047882012 0.03641355694650629 0.8687910478820112 -0.45614498673853215 0.01729914912233429
