! Created with skrf (http://scikit-rf.org).
# Hz S RI R 50.0 
!freq ReS11 ImS11 ReS21 ImS21 ReS12 ImS12 ReS22 ImS22
100000000.0 0.0024397342554394186 -0.011838166256923119 0.9967798957469718 -0.024874775825655917 0.996779895746972 -0.024874775825656142 0.002439734255439585 -0.01183816625692373
300299401.1976048 -0.0002097554243388755 -0.03540009289615419 0.9938220082523386 -0.07456290119833067 0.9938220082523394 -0.07456290119833013 -0.0002097554243383204 -0.03540009289615344
500598802.3952096 -0.005023221063742533 -0.058557189609561876 0.9876991645477236 -0.12384270415684806 0.9876991645477242 -0.123842704156849 -0.005023221063742478 -0.05855718960956294
700898203.5928144 -0.012021450277106216 -0.08106289821498552 0.9785671221911197 -0.17245740890378308 0.9785671221911196 -0.17245740890378242 -0.01202145027710605 -0.08106289821498475
901197604.7904192 -0.02117121017462309 -0.10267714330769698 0.9665883784563002 -0.22016990454927 0.9665883784563005 -0.2201699045492702 -0.02117121017462309 -0.1026771433076972
1101497005.988024 -0.03235166982575871 -0.12317897844085653 0.9518924559211643 -0.2667586915706943 0.9518924559211641 -0.266758691570695 -0.03235166982575888 -0.12317897844085701
1301796407.185629 -0.04541058134971593 -0.14236908333321774 0.934624990849529 -0.3120226032347463 0.934624990849529 -0.3120226032347464 -0.045410581349715984 -0.1423690833332178
1502095808.3832335 -0.060169039936434854 -0.16007336572485242 0.9149441896248549 -0.3557826830426151 0.9149441896248551 -0.3557826830426152 -0.060169039936434965 -0.1600733657248523
1702395209.5808384 -0.07643868920050007 -0.17614293876364318 0.8930297248413048 -0.3978862595725766 0.8930297248413043 -0.3978862595725764 -0.07643868920050012 -0.176142938763643
1902694610.7784433 -0.09401958017487722 -0.19045602646997553 0.8690715992318203 -0.4382071876440739 0.8690715992318205 -0.4382071876440743 -0.09401958017487716 -0.19045602646997578
2102994011.976048 -0.11270453748863402 -0.20291827531602996 0.8432657706266844 -0.47664606903440865 0.8432657706266844 -0.47664606903440854 -0.11270453748863385 -0.2029182753160299
2303293413.1736526 -0.13228329777636683 -0.2134623156844585 0.8158100046127501 -0.5131297175371272 0.8158100046127501 -0.5131297175371274 -0.13228329777636677 -0.21346231568445867
2503592814.371258 -0.1525450788937009 -0.22204705183007659 0.786898766312183 -0.547609469104992 0.7868987663121829 -0.5476094691049918 -0.15254507889370084 -0.2220470518300762
2703892215.5688624 -0.17321966011172324 -0.22867689219932597 0.7566520808986129 -0.5800307523951631 0.7566520808986128 -0.580030752395163 -0.1732196601117233 -0.22867689219932602
2904191616.766467 -0.19417539081849905 -0.23333759924766295 0.7253248026063205 -0.6104144862640499 0.7253248026063204 -0.6104144862640498 -0.1941753908184991 -0.233337599247663
3104491017.964072 -0.21522268903757524 -0.23605420031198934 0.6930891034703499 -0.6387755701529167 0.6930891034703501 -0.638775570152917 -0.21522268903757502 -0.23605420031198948
3304790419.161677 -0.2361828892701045 -0.23686931231260938 0.660104954713548 -0.6651451210474135 0.660104954713548 -0.6651451210474135 -0.2361828892701046 -0.23686931231260921
3505089820.3592815 -0.256889508542577 -0.2358406564147101 0.6265188666283701 -0.6895678430512922 0.6265188666283704 -0.6895678430512924 -0.2568895085425767 -0.23584065641471014
3705389221.5568867 -0.27718904654020093 -0.2330386138861193 0.5924630997903629 -0.7120994270649619 0.5924630997903626 -0.7120994270649614 -0.2771890465402009 -0.23303861388611924
3905688622.7544913 -0.2969413732427111 -0.2285438953158454 0.5580552955310409 -0.7328040518667717 0.5580552955310409 -0.7328040518667716 -0.29694137324271125 -0.22854389531584562
4105988023.952096 -0.31601976420362654 -0.22244537754262117 0.5233984670777692 -0.7517520400884872 0.523398467077769 -0.751752040088487 -0.31601976420362665 -0.22244537754262117
4306287425.149701 -0.33431064599189847 -0.2148381459172804 0.4885812906204433 -0.7690177058764097 0.4885812906204432 -0.7690177058764096 -0.33431064599189836 -0.2148381459172803
4506586826.347305 -0.351713113237852 -0.20582176463477894 0.4536786368999711 -0.7846774161883286 0.45367863689997107 -0.7846774161883285 -0.35171311323785215 -0.20582176463477891
4706886227.54491 -0.3681382751028524 -0.19549878524181794 0.41875228782434404 -0.7988078751207506 0.4187522878243438 -0.7988078751207504 -0.3681382751028524 -0.1954987852418179
4907185628.742516 -0.38350848367066925 -0.18397349320491924 0.38385178825964006 -0.8114846305482861 0.38385178825964017 -0.8114846305482861 -0.3835084836706693 -0.18397349320491924
5107485029.94012 -0.39776864826902375 -0.17134304649003002 0.34902726069419665 -0.8227939304486382 0.3490272606941967 -0.8227939304486385 -0.39776864826902375 -0.17134304649003007
5307784431.137725 -0.41085904600441636 -0.15771243049075817 0.31430389860290725 -0.832805251856333 0.3143038986029072 -0.8328052518563327 -0.41085904600441636 -0.15771243049075817
5508083832.33533 -0.4227199455071268 -0.14319225014955472 0.2796896631323604 -0.8415729148982879 0.2796896631323604 -0.8415729148982878 -0.42271994550712694 -0.1431922501495547
5708383233.532934 -0.43330999178888396 -0.12788549453552295 0.24519484732122088 -0.8491569212030867 0.24519484732122085 -0.8491569212030865 -0.43330999178888385 -0.1278854945355229
5908682634.730539 -0.4425948145010774 -0.11189375081225272 0.21082252152457553 -0.8556115284101387 0.21082252152457548 -0.8556115284101384 -0.4425948145010773 -0.11189375081225267
6108982035.928144 -0.45054629395357554 -0.0953170727887859 0.1765695265485625 -0.8609847820650544 0.17656952654856253 -0.8609847820650546 -0.4505462939535757 -0.09531707278878593
6309281437.125749 -0.45714190475025707 -0.07825396619958672 0.14242743647421263 -0.8653181520314399 0.14242743647421263 -0.8653181520314401 -0.4571419047502573 -0.07825396619958674
6509580838.323354 -0.4623641460088598 -0.06080147115252488 0.10838348847072243 -0.8686462566896398 0.10838348847072243 -0.8686462566896398 -0.4623641460088598 -0.06080147115252482
6709880239.520959 -0.46620006447161205 -0.04305532329982326 0.07442148003846402 -0.870996660313168 0.07442148003846405 -0.8709966603131685 -0.466200064471612 -0.04305532329982327
6910179640.718563 -0.46864087474935917 -0.025110176448153818 0.04052263661132492 -0.8723897313772768 0.040522636611324936 -0.8723897313772773 -0.46864087474935934 -0.025110176448153824
7110479041.916168 -0.46968167937900895 -0.007059870408930699 0.006666454347349806 -0.8728385520633388 0.006666454347349804 -0.8728385520633385 -0.4696816793790088 -0.007059870408930694
7310778443.113773 -0.4693212902079328 0.011002271191889144 -0.027168475695414245 -0.8723488718094221 -0.027168475695414248 -0.8723488718094223 -0.46932129020793273 0.011002271191889151
7511077844.311378 -0.46756215174226157 0.02898312773654821 -0.06100365491426706 -0.8709191003771959 -0.06100365491426706 -0.8709191003771959 -0.4675621517422616 0.028983127736548212
7711377245.508983 -0.4644103664010587 0.0467894672435208 -0.09485986852175735 -0.8685403385307251 -0.09485986852175732 -0.868540338530725 -0.4644103664010585 0.0467894672435208
7911676646.706588 -0.45987582099822494 0.06432764484274989 -0.12875637336144402 -0.8651964470371104 -0.12875637336144402 -0.8651964470371102 -0.4598758209982248 0.06432764484274985
8111976047.904192 -0.4539724131227838 0.08150332829799904 -0.16271007502339524 -0.8608641572896923 -0.16271007502339527 -0.8608641572896925 -0.4539724131227837 0.08150332829799903
8312275449.101797 -0.4467183753012994 0.09822126520496174 -0.19673468792014334 -0.8555132294072981 -0.19673468792014331 -0.855513229407298 -0.44671837530129965 0.09822126520496186
8512574850.299402 -0.4381366938002439 0.11438510715599913 -0.23083987324965893 -0.8491066661551747 -0.23083987324965888 -0.8491066661551747 -0.4381366938002439 0.11438510715599912
8712874251.497007 -0.42825561756014036 0.12989730699972984 -0.2650303515240265 -0.8416009934281703 -0.2650303515240265 -0.8416009934281703 -0.4282556175601403 0.12989730699972984
8913173652.69461 -0.41710925095046864 0.14465910625380723 -0.2993049886269561 -0.8329466202775013 -0.29930498862695615 -0.8329466202775013 -0.41710925095046875 0.14465910625380723
9113473053.892216 -0.40473822170574447 0.1585706306422999 -0.33365585722942825 -0.8230882934663549 -0.33365585722942825 -0.8230882934663551 -0.40473822170574464 0.1585706306423
9313772455.08982 -0.39119041247370195 0.17153111248431985 -0.3680672788856322 -0.8119656631927608 -0.3680672788856323 -0.8119656631927611 -0.39119041247370206 0.1715311124843199
9514071856.287426 -0.37652174082286793 0.18343925908319442 -0.40251485628183603 -0.799513977771695 -0.4025148562818361 -0.7995139777716953 -0.37652174082286793 0.18343925908319458
9714371257.485031 -0.36079696829884816 0.19419378614541946 -0.4369645099227758 -0.785664925536207 -0.4369645099227758 -0.7856649255362071 -0.3607969682988483 0.19419378614541963
9914670658.682636 -0.3440905142131453 0.20369413435194283 -0.4713715389757379 -0.7703476417773176 -0.4713715389757382 -0.7703476417773178 -0.34409051421314507 0.2036941343519428
10114970059.88024 -0.32648795824891264 0.2118561655574423 -0.5056868456223904 -0.753509723418724 -0.5056868456223904 -0.7535097234187242 -0.3264879582489127 0.2118561655574424
10315269461.077845 -0.3080828643550851 0.2185799848964018 -0.5398431282849969 -0.7350734850284772 -0.539843128284997 -0.7350734850284774 -0.3080828643550852 0.21857998489640185
10515568862.27545 -0.28898180884885893 0.2237623222339672 -0.5737544934521539 -0.7149531763097924 -0.5737544934521539 -0.7149531763097924 -0.288981808848859 0.22376232223396714
10715868263.473055 -0.26930480869011947 0.2273164646814156 -0.6073259527882419 -0.6930811669133035 -0.6073259527882418 -0.693081166913303 -0.2693048086901196 0.22731646468141542
10916167664.67066 -0.24918447620727696 0.22916313289717904 -0.6404486372109771 -0.6693951743951597 -0.6404486372109772 -0.66939517439516 -0.24918447620727685 0.229163132897179
11116467065.868265 -0.22876604472818735 0.22923246253381913 -0.672999748185487 -0.6438404360460395 -0.6729997481854869 -0.6438404360460394 -0.2287660447281874 0.22923246253381901
11316766467.065868 -0.20820707952874545 0.22746615000640208 -0.7048428322947977 -0.6163720312280123 -0.7048428322947976 -0.6163720312280122 -0.20820707952874534 0.22746615000640197
11517065868.263474 -0.18767681817070397 0.2238197159228828 -0.7358284333901122 -0.5869573085100281 -0.7358284333901122 -0.586957308510028 -0.18767681817070392 0.22381971592288283
11717365269.461079 -0.16735508952552763 0.21826482350721865 -0.765795171619188 -0.5555783558854186 -0.7657951716191884 -0.5555783558854188 -0.16735508952552763 0.2182648235072189
11917664670.658684 -0.1474307704538727 0.21079157311232766 -0.7945712891524646 -0.5222344361109873 -0.7945712891524648 -0.5222344361109874 -0.14743077045387254 0.2107915731123276
12117964071.856289 -0.12809975373161048 0.2014106786959871 -0.8219766879758456 -0.4869442939638112 -0.8219766879758453 -0.4869442939638109 -0.12809975373161042 0.201410678695987
12318263473.053894 -0.10956242054341286 0.19015541943251166 -0.847825465538512 -0.4497482294859536 -0.8478254655385126 -0.44974822948595394 -0.10956242054341275 0.19015541943251185
12518562874.251497 -0.09202063539113825 0.177083251159827 -0.871928929648767 -0.41070982278435697 -0.8719289296487668 -0.41070982278435686 -0.09202063539113814 0.1770832511598271
12718862275.449102 -0.07567430969152855 0.16227695985619633 -0.8940990456979834 -0.36991719341601426 -0.8940990456979833 -0.3699171934160141 -0.07567430969152866 0.1622769598561961
12919161676.646708 -0.060717611128782545 0.14584524437416252 -0.9141522386015721 -0.3274836823893449 -0.9141522386015724 -0.3274836823893447 -0.060717611128782434 0.14584524437416238
13119461077.844313 -0.04733492682110102 0.12792262938538 -0.9319134409395635 -0.2835478585067871 -0.9319134409395635 -0.28354785850678743 -0.047334926821100964 0.12792262938538013
13319760479.041918 -0.035696716889102253 0.10866863239171601 -0.9472202503269876 -0.2382727736447288 -0.9472202503269879 -0.23827277364472904 -0.03569671688910209 0.10866863239171641
13520059880.239521 -0.025955418131536845 0.08826614032662083 -0.9599270359937042 -0.19184442320690026 -0.9599270359937048 -0.1918444232069003 -0.02595541813153679 0.08826614032662086
13720359281.437126 -0.018241572319579236 0.06691899027021321 -0.9699088198065986 -0.14446940696091526 -0.9699088198065988 -0.14446940696091395 -0.01824157231957879 0.06691899027021225
13920658682.634731 -0.012660357649073362 0.044848792661763795 -0.9770647529914878 -0.09637182930483565 -0.9770647529914877 -0.09637182930483626 -0.012660357649073195 0.044848792661764385
14120958083.832336 -0.009288693505492274 0.022291080762746468 -0.9813210182438423 -0.04778952336044667 -0.9813210182438429 -0.04778952336044734 -0.009288693505491719 0.022291080762748328
14321257485.029942 -0.008173067428193003 -0.0005090869152596031 -0.9826330082284847 0.0010302737651442552 -0.9826330082284901 0.0010302737651444044 -0.008173067428187845 -0.0005090869152597766
14521556886.227547 -0.00932819990207312 -0.023301907986965964 -0.9809866647665986 0.04983563070409644 -0.980986664766599 0.04983563070409783 -0.009328199902073009 -0.023301907986968295
14721856287.42515 -0.01273661962465611 -0.04583781170898553 -0.976398906025848 0.09837482626761593 -0.9763989060258482 0.09837482626761627 -0.01273661962465622 -0.04583781170898521
14922155688.622755 -0.018349172640008238 -0.067872425354275 -0.9689171183223682 0.146401244720051 -0.9689171183223684 0.14640124472005073 -0.018349172640007905 -0.06787242535427472
15122455089.82036 -0.026086437427627007 -0.08917132881005885 -0.9586177404823204 0.19367805865253598 -0.9586177404823211 0.19367805865253618 -0.026086437427626674 -0.08917132881005892
15322754491.017965 -0.03584096917404983 -0.10951440959970224 -0.9456040176076812 0.2399825110553054 -0.9456040176076814 0.23998251105530538 -0.035840969174049886 -0.10951440959970221
15523053892.21557 -0.047480254217238116 -0.12869965798796207 -0.9300030433664688 0.2851096356405724 -0.9300030433664683 0.28510963564057223 -0.04748025421723806 -0.12869965798796185
15723353293.413176 -0.06085022339216928 -0.14654627907498105 -0.9119622422296481 0.3288752917045569 -0.9119622422296476 0.328875291704557 -0.06085022339216917 -0.14654627907498113
15923652694.610779 -0.07577915287149306 -0.16289704212326864 -0.891645463255298 0.3711184331433286 -0.8916454632552981 0.3711184331433282 -0.07577915287149278 -0.16289704212326822
16123952095.808384 -0.09208177385551963 -0.17761983274732723 -0.8692288643084596 0.411702576606724 -0.8692288643084597 0.411702576606724 -0.09208177385551969 -0.1776198327473273
16324251497.00599 -0.10956341753602084 -0.19060841714399376 -0.8448967605886266 0.4505164773043442 -0.8448967605886268 0.4505164773043442 -0.10956341753602067 -0.1906084171439938
16524550898.203594 -0.12802403741414814 -0.2017824659695338 -0.8188375957414916 0.48747405938457344 -0.8188375957414913 0.48747405938457306 -0.12802403741414808 -0.20178246596953356
16724850299.4012 -0.14726197477311098 -0.2110869163956024 -0.7912401701796496 0.5225136787106669 -0.7912401701796494 0.522513678710667 -0.14726197477311093 -0.21108691639560245
16925149700.598804 -0.16707736197127765 -0.21849077295830038 -0.7622902324496948 0.5555968179158586 -0.762290232449695 0.5555968179158586 -0.1670773619712777 -0.2184907729583005
17125449101.796408 -0.18727508929775333 -0.22398546073070236 -0.7321675084952877 0.5867063265109416 -0.7321675084952879 0.5867063265109418 -0.18727508929775327 -0.22398546073070236
17325748502.994015 -0.20766729179044346 -0.2275828486516945 -0.701043213108776 0.6158443230961981 -0.7010432131087765 0.6158443230961983 -0.20766729179044335 -0.22758284865169473
17526047904.19162 -0.2280753405473882 -0.22931305773450594 -0.6690780598482079 0.6430298735979616 -0.669078059848208 0.6430298735979618 -0.22807534054738837 -0.22931305773450616
17726347305.38922 -0.24833134718628597 -0.22922215995231257 -0.6364207617034486 0.6682965505055071 -0.6364207617034486 0.6682965505055072 -0.24833134718628586 -0.22922215995231243
17926646706.586826 -0.26827920938475697 -0.2273698606007835 -0.6032069956664141 0.6916899650734082 -0.6032069956664139 0.6916899650734081 -0.2682792093847569 -0.22736986060078343
18126946107.78443 -0.2877752395993891 -0.22382724155990774 -0.5695587903638241 0.7132653490719687 -0.5695587903638238 0.7132653490719684 -0.2877752395993891 -0.22382724155990757
18327245508.982037 -0.3066884283108822 -0.2186746266117513 -0.5355842868525909 0.7330852464087603 -0.5355842868525906 0.73308524640876 -0.3066884283108821 -0.2186746266117513
18527544910.17964 -0.32490039800019116 -0.21199961402256165 -0.501377818035636 0.7512173590169355 -0.5013778180356357 0.7512173590169354 -0.3249003980001909 -0.21199961402256146
18727844311.377247 -0.3423051052482334 -0.20389530685305574 -0.4670202512098317 0.7677325767016453 -0.4670202512098317 0.7677325767016452 -0.34230510524823327 -0.20389530685305568
18928143712.574852 -0.3588083466738528 -0.19445875849523772 -0.43257954020554046 0.7827032077352891 -0.43257954020554057 0.7827032077352893 -0.35880834667385303 -0.19445875849523792
19128443113.772457 -0.3743271206786281 -0.18378964004885118 -0.3981114376232171 0.7962014162032545 -0.3981114376232171 0.7962014162032542 -0.37432712067862806 -0.18378964004885112
19328742514.970062 -0.3887888918804029 -0.17198912742463218 -0.36366032309035146 0.8082978635108424 -0.3636603230903513 0.808297863510842 -0.3887888918804029 -0.1719891274246321
19529041916.167667 -0.40213079931068224 -0.15915899940845207 -0.32926010963167407 0.8190605449919948 -0.32926010963167407 0.8190605449919948 -0.40213079931068196 -0.15915899940845196
19729341317.365273 -0.4142988434216301 -0.14540093314247526 -0.2949351966691941 0.8285538080240102 -0.2949351966691941 0.8285538080240104 -0.41429884342163 -0.1454009331424752
19929640718.562874 -0.4252470810698084 -0.13081598031437014 -0.26070144447109145 0.836837535199734 -0.26070144447109145 0.836837535199734 -0.4252470810698081 -0.13081598031437006
20129940119.76048 -0.43493685217544276 -0.11550420550387235 -0.2265671507866865 0.8439664746642854 -0.2265671507866865 0.8439664746642854 -0.43493685217544287 -0.1155042055038723
20330239520.958084 -0.44333605685936023 -0.09956446732836208 -0.19253401577117318 0.849989699414003 -0.19253401577117318 0.849989699414003 -0.4433360568593602 -0.09956446732836208
20530538922.15569 -0.45041849761612895 -0.08309432298513728 -0.15859808602811923 0.8549501779282687 -0.15859808602811926 0.8549501779282687 -0.4504184976161289 -0.08309432298513728
20730838323.353294 -0.45616329751114615 -0.06619003726697884 -0.12475067264697046 0.8588844397391354 -0.12475067264697046 0.8588844397391355 -0.4561632975111463 -0.06619003726697884
20931137724.5509 -0.4605544024655446 -0.0489466779236951 -0.090979241494806 0.8618223212545086 -0.09097924149480599 0.8618223212545084 -0.46055440246554447 -0.04894667792369506
21131437125.748505 -0.4635801733585058 -0.03145828018584822 -0.05726827676949294 0.863786779190321 -0.057268276769492935 0.8637867791903209 -0.463580173358506 -0.03145828018584823
21331736526.94611 -0.46523307185374163 -0.01381806422250006 -0.023600120981648202 0.8647937612225233 -0.023600120981648202 0.8647937612225233 -0.46523307185374163 -0.013818064222500067
21532035928.143715 -0.4655094424549737 0.0038813098313939787 0.010044203844491971 0.8648521258578962 0.010044203844491971 0.8648521258578961 -0.46550944245497355 0.0038813098313939783
21732335329.34132 -0.46440939221679894 0.021547463946506678 0.04368418782939133 0.8639636059856867 0.04368418782939134 0.8639636059856869 -0.46440939221679906 0.021547463946506695
21932634730.538925 -0.46193676868189915 0.039088015562284854 0.07733903115509387 0.8621228130709764 0.07733903115509388 0.8621228130709766 -0.46193676868189903 0.03908801556228484
