! Created with skrf (http://scikit-rf.org).
# Hz S RI R 50.0 
!freq ReS11 ImS11 ReS21 ImS21 ReS12 ImS12 ReS22 ImS22
100000000.0 0.06723112617701454 0.03162205116279055 0.9324866460908703 -0.05271035104870195 0.9324866460908705 -0.05271035104870854 0.06723112617701488 0.03162205116278896
200000000.0 0.07039626045948089 0.06316520609433351 0.9285842382940637 -0.1053462592045103 0.9285842382940638 -0.10534625920451363 0.070396260459481 0.06316520609433127
300000000.0 0.07714791630096102 0.09414274979398393 0.9206395660757561 -0.1574278776874008 0.9206395660757565 -0.1574278776874003 0.07714791630096107 0.09414274979398439
400000000.0 0.087364420230712 0.1240834937664577 0.9087723665265371 -0.2084909201466683 0.9087723665265374 -0.2084909201466681 0.08736442023071239 0.12408349376645793
500000000.0 0.10085015396869701 0.15254741749768197 0.8931750704117789 -0.2581022732477416 0.8931750704117785 -0.25810227324774226 0.10085015396869645 0.15254741749768105
600000000.0 0.11864204330005851 0.178359002570735 0.8728014705829641 -0.3050926444208245 0.8728014705829636 -0.3050926444208262 0.11864204330005779 0.17835900257073328
700000000.0 0.1389367710766351 0.20177231359181597 0.8494504695891618 -0.3497228136152688 0.8494504695891623 -0.34972281361526886 0.13893677107663532 0.2017723135918154
800000000.0 0.16135832379039644 0.2225542784262626 0.8234901993705734 -0.39176606055387153 0.8234901993705741 -0.3917660605538703 0.16135832379039716 0.22255427842626313
900000000.0 0.1855158334698795 0.2405394712227853 0.7953022868971311 -0.4310631057284421 0.7953022868971311 -0.4310631057284417 0.1855158334698797 0.24053947122278535
1000000000.0 0.21101678837105498 0.2556277853988677 0.7652686022313342 -0.46751974002435503 0.7652686022313339 -0.4675197400243549 0.2110167883710548 0.25562778539886777
1100000000.0 0.23804696827668098 0.26697191701879985 0.7331791468415136 -0.5002912112302071 0.7331791468415128 -0.5002912112302069 0.23804696827668037 0.2669719170188001
1200000000.0 0.26551232795338 0.2753674401675232 0.7001218713725589 -0.5301795246668182 0.700121871372559 -0.5301795246668178 0.2655123279533798 0.27536744016752346
1300000000.0 0.29308428511837137 0.2809005634720395 0.6664095941989769 -0.55727517735219 0.6664095941989768 -0.5572751773521901 0.29308428511837126 0.2809005634720396
1400000000.0 0.32046867099867543 0.2836908424634792 0.6323190939225705 -0.5817014507418983 0.63231909392257 -0.5817014507418984 0.32046867099867515 0.283690842463479
1500000000.0 0.34740721118176 0.2838827441473639 0.5980895580434796 -0.6036058907841364 0.5980895580434796 -0.6036058907841366 0.34740721118176 0.2838827441473637
1600000000.0 0.37367736152237735 0.28163796791113027 0.5639226707589171 -0.6231525330511012 0.5639226707589174 -0.6231525330511005 0.3736773615223777 0.2816379679111307
1700000000.0 0.3990908773353042 0.27712873408489896 0.5299839617909815 -0.6405150826833201 0.5299839617909818 -0.6405150826833201 0.3990908773353045 0.27712873408489913
1800000000.0 0.4234914764369601 0.27053213674471205 0.49640505590454453 -0.6558711439673731 0.49640505590454476 -0.6558711439673734 0.4234914764369602 0.2705321367447117
1900000000.0 0.4467519160104572 0.2620255682220358 0.4632865034858189 -0.6693975050299871 0.4632865034858189 -0.669397505029987 0.4467519160104573 0.262025568222036
2000000000.0 0.468770750819539 0.25178315946879737 0.43070092515722425 -0.6812664195810052 0.43070092515722447 -0.681266419581005 0.468770750819539 0.25178315946879765
2100000000.0 0.4894689845300155 0.23997314024282979 0.3986962593692905 -0.6916427871923625 0.39869625936929054 -0.6916427871923627 0.4894689845300155 0.23997314024282976
2200000000.0 0.5087867727024029 0.2267560018660359 0.3672989553551046 -0.7006821121011055 0.3672989553551046 -0.7006821121011053 0.5087867727024028 0.2267560018660359
2300000000.0 0.5266802889296754 0.21228333849092665 0.33651700123504485 -0.7085291133960523 0.336517001235045 -0.7085291133960524 0.5266802889296757 0.2122833384909268
2400000000.0 0.5431188262839877 0.19669724608525455 0.30634271675776875 -0.7153168623860005 0.3063427167577687 -0.7153168623860002 0.5431188262839877 0.1966972460852546
2500000000.0 0.5580821750593736 0.18013016804504672 0.2767552718196564 -0.7211663322912605 0.2767552718196564 -0.7211663322912605 0.5580821750593735 0.18013016804504678
2600000000.0 0.5715582942670308 0.16270508958745883 0.24772291602427643 -0.72618625826896 0.24772291602427637 -0.7261862582689599 0.5715582942670308 0.16270508958745866
2700000000.0 0.5835412775106756 0.14453599773439507 0.21920492209237075 -0.7304732200621672 0.21920492209237083 -0.7304732200621673 0.5835412775106756 0.14453599773439507
2800000000.0 0.594029602613072 0.12572853832120964 0.19115325806471653 -0.7341118738112871 0.19115325806471645 -0.7341118738112868 0.594029602613072 0.12572853832120967
2900000000.0 0.603024647549455 0.1063808151343408 0.16351401111497496 -0.7371752728835956 0.16351401111497496 -0.7371752728835956 0.6030246475494548 0.10638081513434078
3000000000.0 0.6105294518389155 0.08658428848362046 0.1362285904695544 -0.7397252294745267 0.13622859046955443 -0.7397252294745267 0.6105294518389154 0.08658428848362054
3100000000.0 0.6165477016727527 0.06642474101984303 0.10923473933008818 -0.7418126790174705 0.10923473933008818 -0.7418126790174705 0.6165477016727527 0.06642474101984301
3200000000.0 0.6210829180075461 0.04598328737301011 0.08246738656143557 -0.7434780181110032 0.08246738656143561 -0.7434780181110037 0.6210829180075461 0.04598328737301007
3300000000.0 0.6241378290673538 0.025337411278989995 0.055859368837038126 -0.7447513938629657 0.05585936883703811 -0.7447513938629656 0.6241378290673539 0.02533741127898998
3400000000.0 0.6257139117706085 0.004562019404289163 0.02934205337708983 -0.745652928462853 0.029342053377089828 -0.7456529284628532 0.6257139117706084 0.0045620194042891565
3500000000.0 0.6258110902246945 -0.016269494792280598 0.002845890707730621 -0.7461928676698297 0.002845890707730621 -0.7461928676698295 0.6258110902246945 -0.016269494792280598
3600000000.0 0.6244275834061329 -0.037084180979753786 -0.023699073752223018 -0.7463716460032611 -0.023699073752223004 -0.746371646003261 0.6244275834061327 -0.037084180979753786
3700000000.0 0.6215598983228579 -0.05780845782177896 -0.050362700850673056 -0.7461798650119775 -0.05036270085067304 -0.7461798650119775 0.6215598983228579 -0.05780845782177897
3800000000.0 0.6172029692350344 -0.0783670364302129 -0.07721424323168424 -0.7455981843447317 -0.07721424323168422 -0.7455981843447315 0.6172029692350343 -0.07836703643021287
3900000000.0 0.6113504478096699 -0.09868184363548227 -0.1043217865505911 -0.7445971287152462 -0.10432178655059106 -0.7445971287152462 0.6113504478096696 -0.09868184363548228
4000000000.0 0.6039951533180536 -0.11867094903888448 -0.13175161705257818 -0.7431368175204215 -0.13175161705257823 -0.7431368175204218 0.6039951533180539 -0.11867094903888445
4100000000.0 0.5951296960469996 -0.13824750276845288 -0.15956748531542703 -0.7411666281021181 -0.15956748531542714 -0.7411666281021181 0.595129696047 -0.13824750276845282
4200000000.0 0.584747290832788 -0.15731869515269503 -0.1878297350013826 -0.7386248087159795 -0.18782973500138267 -0.7386248087159795 0.5847472908327879 -0.15731869515269498
4300000000.0 0.5728427808189012 -0.17578475529900117 -0.21659426467424947 -0.735438063455867 -0.21659426467424958 -0.735438063455867 0.5728427808189014 -0.1757847552990012
4400000000.0 0.5594138938674208 -0.19353801297031087 -0.2459112904658145 -0.7315211389343486 -0.24591129046581436 -0.7315211389343486 0.5594138938674206 -0.19353801297031076
4500000000.0 0.5444627550788053 -0.21046205733203446 -0.2758238780971204 -0.7267764516534618 -0.2758238780971204 -0.7267764516534616 0.5444627550788054 -0.21046205733203446
4600000000.0 0.5279976780058523 -0.22643103716962876 -0.3063662151015142 -0.7210938058537315 -0.306366215101514 -0.7210938058537315 0.527997678005852 -0.22643103716962876
4700000000.0 0.5100352536254156 -0.24130916001525252 -0.3375615988527222 -0.7143502642079103 -0.3375615988527221 -0.7143502642079103 0.5100352536254156 -0.2413091600152525
4800000000.0 0.4906027490185738 -0.25495046202907434 -0.36942012414271874 -0.706410247822329 -0.36942012414271896 -0.7064102478223291 0.4906027490185738 -0.2549504620290744
4900000000.0 0.4697408159073511 -0.26719893591098126 -0.40193606670978127 -0.6971259571016859 -0.401936066709781 -0.6971259571016853 0.4697408159073509 -0.2671989359109813
5000000000.0 0.44750649149824295 -0.277889119592083 -0.4350849775189881 -0.6863382201607737 -0.4350849775189881 -0.6863382201607735 0.447506491498243 -0.27788911959208307
5100000000.0 0.4239663564111695 -0.28683665909657025 -0.46880742630440453 -0.6738556864070862 -0.46880742630440464 -0.6738556864070867 0.4239663564111696 -0.28683665909656997
5200000000.0 0.3992329973138909 -0.2938692280243138 -0.5030429977159692 -0.6595225263490825 -0.5030429977159689 -0.6595225263490826 0.3992329973138909 -0.2938692280243138
5300000000.0 0.3734332085237277 -0.29880317777854454 -0.5376910330212512 -0.6431567603402386 -0.5376910330212503 -0.6431567603402388 0.3734332085237271 -0.29880317777854415
5400000000.0 0.34672373037025445 -0.30145490951494036 -0.5726189562522634 -0.6245753275290256 -0.5726189562522636 -0.6245753275290253 0.3467237303702546 -0.30145490951494053
5500000000.0 0.3192942761895542 -0.30164561286945607 -0.6076593343960485 -0.6035989648131053 -0.6076593343960484 -0.603598964813105 0.319294276189554 -0.3016456128694563
5600000000.0 0.29136994136156114 -0.2992071168616266 -0.6426075509615674 -0.5800581817839702 -0.6426075509615676 -0.5800581817839702 0.2913699413615611 -0.2992071168616266
5700000000.0 0.26321265904501245 -0.29398884031844125 -0.6772204278991067 -0.5538003209300406 -0.6772204278991067 -0.5538003209300407 0.2632126590450123 -0.2939888403184416
5800000000.0 0.23512132661890928 -0.28586573420394523 -0.7112161716157182 -0.5246975972040753 -0.7112161716157179 -0.5246975972040757 0.2351213266189089 -0.28586573420394523
5900000000.0 0.2074302113472059 -0.27474698690592336 -0.7442760344166444 -0.4926558895460878 -0.7442760344166449 -0.4926558895460872 0.2074302113472064 -0.2747469869059238
6000000000.0 0.18050526681992896 -0.26058512139509005 -0.7760480597378917 -0.457623914656172 -0.776048059737892 -0.4576239146561727 0.18050526681992907 -0.26058512139509
6100000000.0 0.15473806624760789 -0.24338496221350292 -0.8061532050648619 -0.41960226221071373 -0.806153205064862 -0.41960226221071323 0.1547380662476081 -0.24338496221350336
6200000000.0 0.13053719417526882 -0.22321180955997683 -0.8341940009812526 -0.378651629901346 -0.8341940009812521 -0.3786516299013455 0.1305371941752685 -0.2232118095599769
6300000000.0 0.10831713679689431 -0.20019805273557537 -0.8597657062043909 -0.33489949156209964 -0.8597657062043904 -0.3348994915621008 0.10831713679689386 -0.20019805273557495
6400000000.0 0.0884849637756202 -0.17454741471509214 -0.8824696657558854 -0.2885443910581287 -0.8824696657558859 -0.2885443910581292 0.08848496377562048 -0.17454741471509158
6500000000.0 0.07142537847252872 -0.14653607059715257 -0.9019282954282111 -0.23985710551466555 -0.9019282954282113 -0.23985710551466577 0.07142537847252906 -0.146536070597153
6600000000.0 0.057484992129135215 -0.11651004321744808 -0.91780083706886 -0.18917808192755142 -0.9178008370688598 -0.18917808192755056 0.05748499212913544 -0.11651004321744932
6700000000.0 0.04695690433035732 -0.08487855104492373 -0.9297988024204555 -0.1369108229740606 -0.9297988024204558 -0.13691082297406176 0.04695690433035726 -0.084878551044923
6800000000.0 0.04006679870699115 -0.05210334666845762 -0.9376998966177128 -0.08351126098323211 -0.9376998966177112 -0.08351126098323014 0.04006679870698954 -0.05210334666846089
6900000000.0 0.036961750340762725 -0.01868449613235154 -0.9413592249299993 -0.029473570938072374 -0.9413592249300008 -0.02947357093807615 0.036961750340765584 -0.018684496132348766
7000000000.0 0.03770277139864074 0.01485654991238225 -0.9407167562645883 0.02468672593722515 -0.9407167562645798 0.02468672593722293 0.037702771398632776 0.014856549912383943
7100000000.0 0.04226180446291722 0.04799541899882834 -0.9358003339941872 0.07845119319628055 -0.9358003339941872 0.07845119319627988 0.042261804462917496 0.04799541899882989
7200000000.0 0.05052344908176504 0.08022345107846171 -0.9267239486023204 0.13131708174080525 -0.9267239486023202 0.13131708174080636 0.050523449081765426 0.08022345107846005
7300000000.0 0.06229123962055866 0.11106512328898627 -0.9136814540713437 0.18281472247819378 -0.9136814540713435 0.18281472247819316 0.06229123962055899 0.11106512328898599
7400000000.0 0.07729785454092869 0.14009303888260247 -0.8969363478798442 0.23252248213296609 -0.8969363478798447 0.23252248213296764 0.07729785454092886 0.14009303888260105
7500000000.0 0.09521829497156425 0.16693955205745575 -0.8768085767271647 0.2800783533797386 -0.8768085767271652 0.2800783533797373 0.09521829497156487 0.16693955205745703
7600000000.0 0.11568486896388636 0.19130448800243663 -0.8536595315641493 0.32518763800932715 -0.8536595315641493 0.3251876380093266 0.11568486896388624 0.1913044880024376
7700000000.0 0.13830277307746747 0.21295882911856662 -0.8278764402495187 0.3676265934603973 -0.8278764402495182 0.3676265934603972 0.13830277307746686 0.21295882911856695
7800000000.0 0.16266516162994915 0.23174461244181643 -0.7998572674564789 0.4072422870687312 -0.799857267456479 0.4072422870687313 0.1626651616299491 0.23174461244181643
7900000000.0 0.18836680053938787 0.24757157374818167 -0.7699970248596523 0.44394919279048534 -0.7699970248596526 0.44394919279048495 0.18836680053938787 0.24757157374818184
8000000000.0 0.215015670330993 0.2604112565912494 -0.7386761269917927 0.4777232478628284 -0.7386761269917927 0.4777232478628287 0.21501567033099295 0.26041125659124903
8100000000.0 0.24224216464378256 0.2702893775144342 -0.7062511464055328 0.5085941597834736 -0.706251146405533 0.5085941597834738 0.24224216464378262 0.27028937751443416
8200000000.0 0.26970578807651957 0.2772772170701608 -0.6730480642883103 0.5366367322946533 -0.6730480642883105 0.5366367322946539 0.2697057880765198 0.2772772170701604
8300000000.0 0.29709946522903896 0.2814827154028256 -0.6393579046878475 0.5619618880822871 -0.6393579046878481 0.561961888082287 0.2970994652290394 0.28148271540282593
8400000000.0 0.32415171989554903 0.2830418193742527 -0.605434493442433 0.5847079340092189 -0.605434493442433 0.5847079340092189 0.324151719895549 0.2830418193742527
8500000000.0 0.3506270696995131 0.28211048137692785 -0.5714939966286186 0.6050324677387824 -0.5714939966286188 0.6050324677387826 0.35062706969951307 0.28211048137692785
8600000000.0 0.37632501509814964 0.27885756814556273 -0.5377158597691145 0.6231051826242776 -0.5377158597691147 0.6231051826242775 0.3763250150981496 0.27885756814556295
8700000000.0 0.4010779948034593 0.2734588141762213 -0.5042447760144235 0.6391017038749356 -0.5042447760144237 0.6391017038749358 0.4010779948034595 0.2734588141762209
8800000000.0 0.424748645378035 0.2660918554695655 -0.47119334591578466 0.6531984899336543 -0.47119334591578477 0.6531984899336543 0.424748645378035 0.2660918554695655
8900000000.0 0.44722665296444175 0.25693230679770157 -0.43864514135305316 0.6655687602823286 -0.43864514135305366 0.6655687602823284 0.4472266529644421 0.25693230679770174
9000000000.0 0.46842542933402953 0.2461507976539558 -0.406657942138632 0.6763793626277801 -0.40665794213863193 0.6763793626277799 0.46842542933402953 0.24615079765395598
9100000000.0 0.4882787895297888 0.23391085464438627 -0.37526696896022443 0.6857884647776336 -0.37526696896022427 0.6857884647776336 0.4882787895297888 0.23391085464438627
9200000000.0 0.5067377586454598 0.22036750674392086 -0.34448798634337596 0.6939439449167749 -0.34448798634337585 0.693943944916775 0.5067377586454598 0.22036750674392064
9300000000.0 0.5237675929877897 0.20566649007510146 -0.31432019196235916 0.7009823539492337 -0.31432019196235905 0.7009823539492336 0.5237675929877899 0.2056664900751014
9400000000.0 0.5393450667550921 0.18994393673400783 -0.28474884317367977 0.7070283311412371 -0.2847488431736797 0.7070283311412371 0.5393450667550921 0.18994393673400772
9500000000.0 0.5534560491765981 0.17332644450799384 -0.25574759836214456 0.7121943663158379 -0.2557475983621448 0.7121943663158382 0.5534560491765983 0.17332644450799384
9600000000.0 0.5660933779579781 0.15593143871402376 -0.22728057042842498 0.7165808159264605 -0.22728057042842495 0.7165808159264606 0.566093377957978 0.15593143871402376
9700000000.0 0.5772550217672395 0.13786775215751496 -0.19930410363137435 0.7202760948102731 -0.19930410363137435 0.7202760948102733 0.5772550217672395 0.1378677521575149
9800000000.0 0.5869425162161194 0.11923636327983739 -0.17176829420717551 0.7233569792187393 -0.1717682942071755 0.7233569792187394 0.5869425162161194 0.11923636327983733
9900000000.0 0.5951596532632074 0.10013124528914849 -0.14461828082839256 0.7258889692255853 -0.14461828082839262 0.7258889692255852 0.5951596532632074 0.10013124528914852
10000000000.0 0.6019114022454146 0.08064029014025093 -0.11779533400869786 0.727926669537995 -0.11779533400869789 0.7279266695379951 0.6019114022454148 0.08064029014025095
10100000000.0 0.60724137168778 0.060867293926317546 -0.09123292729466775 0.7295683562792368 -0.09123292729466778 0.729568356279237 0.6072413716877799 0.06086729392631758
10200000000.0 0.6111172775931821 0.04086396415823369 -0.0648703468903408 0.7307918642833708 -0.06487034689034075 0.7307918642833707 0.6111172775931821 0.04086396415823367
10300000000.0 0.6135426857153207 0.020705917835670096 -0.03864249852911667 0.7316215511744057 -0.03864249852911667 0.7316215511744057 0.6135426857153207 0.020705917835670103
10400000000.0 0.6145199662168621 0.0004666956007173149 -0.012483290930308272 0.7320720789904291 -0.01248329093030827 0.7320720789904289 0.6145199662168622 0.0004666956007173201
10500000000.0 0.6140500873806249 -0.019781217088330014 0.01367382925747007 0.7321485419424902 0.013673829257470065 0.73214854194249 0.6140500873806249 -0.019781217088330017
10600000000.0 0.6121325524648741 -0.03996536874379135 0.039895369017144605 0.7318465156967113 0.03989536901714459 0.7318465156967112 0.612132552464874 -0.039965368743791335
10700000000.0 0.6087654775364231 -0.0600123230764842 0.06624728007235937 0.7311520270570372 0.06624728007235936 0.7311520270570371 0.6087654775364232 -0.060012323076484186
10800000000.0 0.6039458120603892 -0.07984664522370685 0.09279442269220964 0.7300414461969769 0.09279442269220967 0.730041446196977 0.6039458120603892 -0.07984664522370687
10900000000.0 0.5976697078948484 -0.09938989667325357 0.11959997515544427 0.728481306985078 0.11959997515544425 0.7284813069850781 0.5976697078948483 -0.09938989667325357
11000000000.0 0.5899330460364551 -0.11855964480967296 0.14672476143212287 0.7264280647150486 0.14672476143212293 0.726428064715049 0.5899330460364551 -0.11855964480967293
11100000000.0 0.580732133862918 -0.13726849640267508 0.17422646913622486 0.723827804928909 0.17422646913622497 0.7238278049289093 0.5807321338629181 -0.13726849640267508
11200000000.0 0.5700645885426172 -0.15542316901153524 0.2021587293938109 0.7206159222448647 0.2021587293938109 0.7206159222448649 0.5700645885426171 -0.15542316901153513
11300000000.0 0.5579304244807333 -0.17292362030304217 0.23057003023580236 0.7167167943895345 0.23057003023580247 0.7167167943895345 0.5579304244807335 -0.17292362030304226
11400000000.0 0.5443333638010514 -0.18966226277423637 0.25950243583962473 0.7120434841725329 0.2595024358396247 0.7120434841725327 0.5443333638010514 -0.18966226277423645
11500000000.0 0.5292823884638118 -0.20552330039427663 0.28899008590466735 0.7064975110555847 0.28899008590466735 0.7064975110555849 0.5292823884638116 -0.20552330039427663
11600000000.0 0.512793550101507 -0.22038223420522784 0.3190574532788313 0.699968744281673 0.31905745327883134 0.699968744281673 0.5127935501015072 -0.22038223420522787
