! Created with skrf (http://scikit-rf.org).
# Hz S RI R 50.0 
!freq ReS11 ImS11 ReS21 ImS21 ReS12 ImS12 ReS22 ImS22
100000000.0 0.000945883414940174 5.290150803896718e-05 0.9990416911286861 -0.002955771189399574 0.9990416911286859 -0.002955771189337944 0.0009458834149400075 5.2901508089485145e-05
775757575.7575758 0.0009287145518201978 0.0004108399504448295 0.9987539770007261 -0.02292698423058636 0.9987539770007261 -0.02292698423058912 0.0009287145518203088 0.00041083995044284734
1451515151.5151515 0.0009634094286710693 0.0007675143542951893 0.9980296462609399 -0.042886250515246596 0.9980296462609399 -0.04288625051524419 0.0009634094286712358 0.00076751435429712
2127272727.2727273 0.0010310564933360133 0.0011212665256449964 0.9968878835680547 -0.06282450619853382 0.9968878835680547 -0.06282450619853562 0.0010310564933356803 0.0011212665256432695
2803030303.030303 0.0011130024118186088 0.0014719515634692886 0.9953477584729946 -0.08273420655607823 0.9953477584729944 -0.08273420655607924 0.0011130024118182757 0.001471951563468598
3478787878.787879 0.0012091101401472404 0.0018189963640454095 0.9934099595371223 -0.10260738657804604 0.9934099595371222 -0.10260738657804566 0.001209110140147518 0.0018189963640455802
4154545454.5454545 0.0013192197441060927 0.002161833879456383 0.9910753349863903 -0.12243609758369967 0.9910753349863903 -0.12243609758369964 0.0013192197441063147 0.0021618338794566205
4830303030.30303 0.0014431486646445113 0.0024999040303491354 0.9883448923199101 -0.14221241044749933 0.9883448923199101 -0.14221241044749944 0.0014431486646447333 0.002499904030348963
5506060606.060606 0.001591766966001662 0.0028308011028083733 0.9852086754759841 -0.16192655738545017 0.9852086754759839 -0.1619265573854487 0.001591766966001662 0.0028308011028095707
6181818181.818182 0.001757358978013046 0.003154694846504489 0.9816755010625814 -0.18157136893904746 0.9816755010625808 -0.18157136893904668 0.001757358978012935 0.003154694846504752
6857575757.575758 0.0019359222974805745 0.0034716050621091846 0.9777506123976839 -0.20113954626292468 0.977750612397684 -0.20113954626292513 0.001935922297480408 0.0034716050621089933
7533333333.333333 0.002127163711048985 0.0037810164946145085 0.9734356673525936 -0.2206232750849364 0.973435667352593 -0.2206232750849365 0.0021271637110487074 0.0037810164946146235
8209090909.090909 0.002330769612051198 0.004082426163604707 0.968732479959482 -0.24001477717171166 0.9687324799594816 -0.24001477717171177 0.0023307696120510313 0.0040824261636046594
8884848484.848484 0.002546406513440236 0.004375344168725356 0.963643019609213 -0.25930631346657057 0.9636430196092126 -0.2593063134665702 0.002546406513440125 0.0043753441687254865
9560606060.60606 0.0027737215924886205 0.004659294473729571 0.9581694101850988 -0.2784901872082887 0.9581694101850988 -0.27849018720828933 0.0027737215924882874 0.00465929447372902
10236363636.363636 0.003001187718039422 0.004937366633710569 0.9523252516054102 -0.2975623501867024 0.9523252516054102 -0.2975623501867022 0.003001187718039422 0.0049373666337109556
10912121212.121212 0.0032192181008597887 0.005213003776703272 0.9461223971247585 -0.3165191751776485 0.946122397124759 -0.31651917517764805 0.0032192181008597887 0.005213003776703897
11587878787.878788 0.003448367262705254 0.005479557782997679 0.9395422030159788 -0.33534682484730605 0.9395422030159788 -0.33534682484730627 0.0034483672627050876 0.005479557782997621
12263636363.636364 0.0036882589745169114 0.005736586813795314 0.9325873616002736 -0.35403778608492176 0.932587361600274 -0.3540377860849221 0.003688258974516967 0.005736586813795275
12939393939.39394 0.003938499560745823 0.005983664565351865 0.9252607149635067 -0.372584602222528 0.9252607149635068 -0.3725846022225279 0.003938499560745934 0.005983664565351813
13615151515.151516 0.004198678539782175 0.006220380955361118 0.9175652537491756 -0.39097987603114176 0.9175652537491754 -0.39097987603114137 0.00419867853978223 0.0062203809553615114
14290909090.90909 0.004468369291317609 0.006446342782947907 0.909504115890825 -0.4092162726896345 0.909504115890825 -0.40921627268963434 0.004468369291317498 0.006446342782947994
14966666666.666666 0.00474712974955227 0.00666117436120423 0.9010805852845997 -0.42728652272503354 0.9010805852845996 -0.4272865227250336 0.004747129749552381 0.006661174361204067
15642424242.424242 0.005034503121113643 0.006864518121269134 0.8922980904026787 -0.4451834249230028 0.8922980904026792 -0.44518342492300267 0.00503450312111392 0.006864518121269656
16318181818.181818 0.005330018626514832 0.007056035186987187 0.8831602028483585 -0.46289984920729943 0.8831602028483586 -0.4628998492072991 0.005330018626514776 0.0070560351869875665
16993939393.939394 0.0056331922639474286 0.00723540591922548 0.873670635853562 -0.480428739487022 0.8736706358535625 -0.48042873948702236 0.005633192263947651 0.007235405919225229
17669696969.696968 0.005943527594170606 0.007402330428998335 0.863833242719604 -0.49776311647049 0.863833242719604 -0.4977631164704902 0.005943527594170495 0.007402330428998037
18345454545.454544 0.006260516545204042 0.0075565290585719955 0.8536520152020382 -0.5148960804446054 0.8536520152020386 -0.5148960804446054 0.006260516545204264 0.0075565290585719695
19021212121.21212 0.006583640235541366 0.007697742829801436 0.8431310818404592 -0.5318208140186103 0.8431310818404595 -0.5318208140186103 0.006583640235541588 0.007697742829801266
19696969696.969696 0.006912369814525476 0.007825733858981162 0.8322747062341282 -0.5485305848311431 0.8322747062341282 -0.5485305848311431 0.006912369814525532 0.007825733858981106
20372727272.727272 0.007246167318535557 0.007940285737569854 0.8210872852643399 -0.565018748219543 0.8210872852643398 -0.565018748219543 0.007246167318535612 0.007940285737569847
21048484848.484848 0.007584486541599322 0.008041203878180355 0.8095733472644419 -0.5812787498503804 0.8095733472644417 -0.5812787498503802 0.007584486541599544 0.008041203878180088
21724242424.242424 0.007926773919011532 0.00812831582530115 0.7977375501384569 -0.5973041283102076 0.7977375501384567 -0.5973041283102074 0.007926773919011199 0.008128315825301304
22400000000.0 0.008272469422537565 0.008201471530269911 0.7855846794292567 -0.6130885176555669 0.7855846794292567 -0.6130885176555674 0.008272469422537121 0.008201471530269967
23075757575.757576 0.008621007465756614 0.008260543590064898 0.7731196463372705 -0.6286256499213101 0.7731196463372706 -0.6286256499213103 0.008621007465756725 0.00826054359006486
23751515151.515152 0.008971817818074823 0.008305427449554257 0.7603474856907095 -0.6439093575863138 0.7603474856907096 -0.643909357586314 0.008971817818074879 0.008305427449554066
24427272727.272728 0.009324326525939564 0.008336041566896591 0.7472733538683174 -0.6589335759957087 0.7472733538683173 -0.6589335759957086 0.009324326525939619 0.008336041566896739
25103030303.030304 0.009677956839769797 0.008352327541845093 0.7339025266756545 -0.6736923457387677 0.7339025266756545 -0.6736923457387679 0.009677956839769686 0.008352327541845202
25778787878.78788 0.010032130145106288 0.008354250206761074 0.7202403971759528 -0.6881798149816192 0.720240397175953 -0.6881798149816193 0.0100321301451064 0.008354250206761197
26454545454.545456 0.01038626689648886 0.00834179768021942 0.7062924734765703 -0.7023902417539898 0.7062924734765701 -0.7023902417539897 0.01038626689648886 0.008341797680219526
27130303030.303032 0.010739787552551228 0.008314981383131356 0.6920643764720981 -0.716317996189203 0.692064376472098 -0.716317996189203 0.010739787552551228 0.008314981383131501
27806060606.060604 0.011092113510840662 0.008273836017380297 0.6775618375451764 -0.7299575627166899 0.6775618375451766 -0.7299575627166903 0.011092113510840551 0.008273836017380187
28481818181.81818 0.011442668040852477 0.00821841950702069 0.6627906962260806 -0.7433035422063001 0.6627906962260806 -0.7433035422063001 0.011442668040852644 0.008218419507020807
29157575757.575756 0.011790877213792128 0.008148812902159377 0.6477568978121528 -0.7563506540637138 0.6477568978121526 -0.7563506540637135 0.011790877213792017 0.00814881290215955
29833333333.333332 0.012136170827566017 0.008065120245682057 0.6324664909481499 -0.7690937382763072 0.6324664909481503 -0.7690937382763074 0.012136170827566073 0.008065120245682128
30509090909.090908 0.012477983325528907 0.007967468403064556 0.6169256251685977 -0.7815277574088273 0.6169256251685977 -0.7815277574088275 0.01247798332552863 0.007967468403064488
31184848484.848484 0.01281575470750912 0.007856006855557646 0.6011405484032296 -0.7936477985482684 0.6011405484032296 -0.7936477985482684 0.012815754707509175 0.007856006855557924
31860606060.60606 0.013148931431665678 0.0077309074570921016 0.5851176044466029 -0.8054490751973753 0.5851176044466027 -0.8054490751973749 0.013148931431665623 0.007730907457092138
32536363636.363636 0.013476967305724286 0.007592364155310504 0.5688632303929886 -0.8169269291162047 0.5688632303929886 -0.8169269291162048 0.01347696730572423 0.007592364155310426
33212121212.121212 0.01379932436618353 0.007440592677194545 0.55238395403762 -0.8280768321112273 0.55238395403762 -0.8280768321112273 0.013799324366183696 0.007440592677194642
33887878787.878788 0.014115473744078677 0.007275830179801403 0.5356863912454051 -0.8388943877714494 0.535686391245405 -0.8388943877714494 0.014115473744078788 0.00727583017980144
34563636363.63636 0.014424896515927155 0.007098334866684887 0.5187772432881923 -0.8493753331510808 0.5187772432881922 -0.8493753331510806 0.01442489651592721 0.007098334866685014
35239393939.393936 0.014727084538504243 0.006908385570634758 0.5016632941516892 -0.8595155403982864 0.501663294151689 -0.8595155403982864 0.014727084538504187 0.006908385570634719
35915151515.15151 0.015021541266114435 0.006706281303409776 0.4843514078131276 -0.8693110183295824 0.4843514078131278 -0.8693110183295825 0.015021541266114546 0.0067062813034097
36590909090.90909 0.01530778254906695 0.006492340773206043 0.46684852549077577 -0.8787579139494668 0.4668485254907758 -0.878757913949467 0.01530778254906684 0.006492340773205849
37266666666.666664 0.01558533741207968 0.006266901870638715 0.44916166286638065 -0.8878525139148866 0.4491616628663808 -0.8878525139148871 0.015585337412079625 0.0062669018706386645
37942424242.42424 0.015853748811379742 0.006030321124075663 0.4312979072816431 -0.8965912459441778 0.43129790728164313 -0.896591245944178 0.015853748811379742 0.006030321124075725
38618181818.181816 0.016112574369301913 0.005782973125203775 0.4132644149098096 -0.9049706801701148 0.4132644149098098 -0.9049706801701154 0.016112574369301913 0.0057829731252038285
39293939393.93939 0.016361387085217338 0.005525249925759858 0.3950684079034704 -0.9129875304367541 0.3950684079034703 -0.9129875304367538 0.016361387085217394 0.0055252499257599855
39969696969.69697 0.01659977602166529 0.005257560406394808 0.3767171715196418 -0.9206386555397443 0.3767171715196418 -0.9206386555397443 0.016599776021665458 0.005257560406394775
40645454545.454544 0.01682734696460808 0.004980329618694591 0.35821805122322903 -0.9279210604098248 0.3582180512232288 -0.9279210604098242 0.016827346964608247 0.0049803296186947885
41321212121.21212 0.01704372305675894 0.0046939981014168354 0.33957844976993 -0.934831897239224 0.3395784497699299 -0.9348318972392236 0.017043723056758997 0.004693998101416835
41996969696.969696 0.01724854540298676 0.004399021172038101 0.320805824269671 -0.941368466550711 0.32080582426967097 -0.9413684665507109 0.017248545402986815 0.004399021172038229
42672727272.72727 0.01744147364683729 0.004095868194757744 0.3019076832316352 -0.9475282182090552 0.30190768323163525 -0.9475282182090554 0.017441473646837236 0.004095868194757746
43348484848.48485 0.01762218651726294 0.0037850218261261956 0.28289158359195915 -0.9533087523746704 0.2828915835919591 -0.9533087523746706 0.017622186517262883 0.003785021826126219
44024242424.242424 0.017790382344704814 0.0034669772395139547 0.2637651277251602 -0.9587078203992359 0.26376512772516025 -0.9587078203992362 0.017790382344704703 0.003466977239513891
44700000000.0 0.01794577954570037 0.003142241329658257 0.24453596044035725 -0.963723325663105 0.2445359604403572 -0.9637233256631048 0.017945779545700424 0.0031422413296582773
45375757575.757576 0.01808811707526775 0.0028113318985646847 0.22521176596334005 -0.9683533243543176 0.22521176596334008 -0.9683533243543179 0.01808811707526775 0.0028113318985647333
46051515151.51515 0.018217154846348727 0.00247477682406512 0.20580026490555442 -0.9725960261890616 0.20580026490555436 -0.9725960261890616 0.018217154846348727 0.002474776824065149
46727272727.27273 0.01833267411564643 0.0021331132123589445 0.1863092112210341 -0.9764497950734246 0.18630921122103405 -0.9764497950734246 0.01833267411564654 0.002133113212359019
47403030303.030304 0.01843447783526664 0.0017868865358968045 0.16674638915235532 -0.9799131497063112 0.1667463891523552 -0.9799131497063107 0.018434477835266527 0.0017868865358967902
48078787878.78788 0.01852239096958974 0.001436649757975647 0.1471196101666351 -0.9829847641233929 0.1471196101666351 -0.9829847641233931 0.01852239096958974 0.0014366497579756192
48754545454.545456 0.018596260776899465 0.0010829624454502184 0.12743670988263978 -0.9856634681819938 0.12743670988263978 -0.9856634681819938 0.018596260776899298 0.001082962445450173
49430303030.30303 0.018655957055306815 0.0007263898709694288 0.10770554499002927 -0.9879482479867998 0.1077055449900293 -0.9879482479868001 0.018655957055306704 0.0007263898709693928
50106060606.06061 0.01870137235260383 0.00036750210617329636 0.08793399016178528 -0.9898382462563233 0.08793399016178532 -0.9898382462563237 0.018701372352603718 0.0003675021061732941
50781818181.818184 0.018732422139704108 6.873107293130665e-06 0.06812993496086142 -0.991332762630038 0.06812993496086142 -0.9913327626300379 0.01873242213970422 6.87310729314991e-06
51457575757.57576 0.018749044947411364 -0.00035492020538734065 0.048301280742087976 -0.9924312539161291 0.04830128074208796 -0.9924312539161289 0.018749044947411364 -0.0003549202053873368
52133333333.333336 0.01875120246629669 -0.0007172988727444747 0.028455937550372713 -0.9931333342798121 0.028455937550372703 -0.9931333342798119 0.0187512024662968 -0.0007172988727444662
52809090909.09091 0.018738879609539294 -0.0010796828252270952 0.008601821016225784 -0.9934387753721771 0.008601821016225784 -0.993438775372177 0.018738879609539072 -0.0010796828252270933
53484848484.84849 0.018712084538625662 -0.001441491812991925 -0.01125315075035082 -0.9933475063995338 -0.011253150750350823 -0.9933475063995345 0.01871208453862594 -0.0014414918129919204
54160606060.606064 0.018670848651879346 -0.0018021463362810173 -0.03110106026657644 -0.9928596141332512 -0.031101060266576466 -0.992859614133252 0.018670848651879124 -0.0018021463362810077
54836363636.36363 0.018615226535840912 -0.0021610685745614222 -0.050933993783178144 -0.9919753428600708 -0.050933993783178116 -0.9919753428600704 0.018615226535841023 -0.0021610685745614374
55512121212.12121 0.01854529587957393 -0.0025176833129484104 -0.0707440443892074 -0.9906950942729195 -0.0707440443892074 -0.9906950942729196 0.01854529587957393 -0.002517683312948415
56187878787.878784 0.018461157352043123 -0.002871418864438531 -0.09052331511435896 -0.9890194273022364 -0.09052331511435899 -0.9890194273022369 0.018461157352043067 -0.0028714188644384854
56863636363.63636 0.01836293444276116 -0.0032217079864853494 -0.11026392202774835 -0.9869490578878342 -0.11026392202774832 -0.9869490578878337 0.01836293444276138 -0.0032217079864853997
57539393939.393936 0.018250773265953868 -0.0035679887904603016 -0.12995799733211838 -0.9844848586913522 -0.12995799733211832 -0.9844848586913519 0.018250773265954146 -0.003567988790460338
58215151515.15151 0.018124842328563207 -0.003909705642550301 -0.14959769245242116 -0.9816278587493494 -0.14959769245242116 -0.9816278587493493 0.018124842328563207 -0.003909705642550284
58890909090.90909 0.017985332262453302 -0.004246310054659749 -0.1691751811177538 -0.9783792430671019 -0.16917518111775376 -0.9783792430671016 0.017985332262453357 -0.0042463100546598215
59566666666.666664 0.017832455521253066 -0.004577261563900689 -0.18868266243557713 -0.9747403521531888 -0.1886826624355772 -0.9747403521531892 0.0178324555212529 -0.004577261563900618
60242424242.42424 0.017666446042306383 -0.004902028599266737 -0.20811236395719823 -0.9707126814949547 -0.20811236395719823 -0.9707126814949549 0.017666446042306216 -0.0049020285992667535
60918181818.181816 0.01748755887428044 -0.005220089334117466 -0.2274565447334449 -0.9662978809749545 -0.22745654473344495 -0.9662978809749545 0.01748755887428033 -0.005220089334117457
61593939393.93939 0.017296069771012 -0.005530932523109561 -0.2467074983594909 -0.9614977542284998 -0.24670749835949088 -0.9614977542284997 0.017296069771012113 -0.005530932523109593
62269696969.69697 0.017092274752247505 -0.005834058322246838 -0.26585755600777616 -0.9563142579424361 -0.2658575560077762 -0.9563142579424362 0.017092274752247394 -0.005834058322246744
62945454545.454544 0.016876489631965974 -0.006128979090739202 -0.28489908944795267 -0.9507495010953001 -0.2848990894479527 -0.9507495010953004 0.01687648963196592 -0.006128979090739152
63621212121.21212 0.01664904951503965 -0.006415220173394176 -0.30382451405281047 -0.9448057441390136 -0.3038245140528105 -0.9448057441390137 0.016649049515039704 -0.006415220173394078
64296969696.969696 0.01641030826302814 -0.006692320662292525 -0.3226262917890973 -0.938485398122292 -0.3226262917890975 -0.9384853981222924 0.01641030826302814 -0.00669232066229246
64972727272.72727 0.016160637929955368 -0.006959834136533574 -0.3412969341921807 -0.9317910237559592 -0.3412969341921808 -0.9317910237559596 0.016160637929955368 -0.006959834136533562
65648484848.48485 0.015900428168968028 -0.007217329378870218 -0.3598290053234642 -0.9247253304203742 -0.3598290053234643 -0.9247253304203743 0.015900428168967973 -0.0072173293788700054
66324242424.242424 0.01563008561081114 -0.007464391068085767 -0.3782151247094939 -0.9172911751151924 -0.3782151247094939 -0.9172911751151926 0.01563008561081125 -0.007464391068085827
67000000000.0 0.015350033215115744 -0.007700620446012933 -0.396447970261662 -0.9094915613517076 -0.396447970261662 -0.9094915613517078 0.015350033215115688 -0.00770062044601289
