! Created with skrf (http://scikit-rf.org).
# Hz S RI R 50.0 
!freq ReS11 ImS11 ReS21 ImS21 ReS12 ImS12 ReS22 ImS22
100000000.0 0.022067940480670945 0.002372211129164215 0.9778910154109982 -0.00814061086282903 0.9778910154109978 -0.008140610862826811 0.02208273230449337 0.002234405165617988
200000000.0 0.021918424978626408 0.004748397546048786 0.9779498545566991 -0.016284142274237887 0.9779498545566988 -0.016284142274274025 0.021978360807940748 0.004471233899980909
300000000.0 0.021792876215550747 0.007128255581499689 0.977935110590162 -0.024429816261005294 0.9779351105901625 -0.024429816261051156 0.021928280817812108 0.006709403985003508
400000000.0 0.021691368818564566 0.009511479928854061 0.977846730562734 -0.03257685327183877 0.9778467305627341 -0.03257685327183264 0.021932523240625522 0.008947831842099175
500000000.0 0.02161397265120144 0.011897763732186796 0.9776846720995587 -0.040724472365427075 0.9776846720995583 -0.040724472365422905 0.02199109790935445 0.01118543296035747
600000000.0 0.021639961937377758 0.014280846190173262 0.9773696574676454 -0.04886679929782267 0.9773696574676445 -0.04886679929783663 0.022183247184413404 0.013416891311465126
700000000.0 0.021690049317909063 0.016664387848231092 0.9769810242307095 -0.05700644794000216 0.9769810242307087 -0.05700644794000383 0.022429576989866033 0.015643945676449857
800000000.0 0.02176424808838396 0.019048080373166573 0.9765187982140635 -0.06514263712598982 0.9765187982140637 -0.06514263712597165 0.022729998470275382 0.017865514653841015
900000000.0 0.02186256669948078 0.021431615151173745 0.9759830158692286 -0.07327458597298415 0.975983015869229 -0.07327458597299315 0.023084401734591774 0.02008051860880692
1000000000.0 0.021985008751031085 0.02381468337915651 0.9753737242704094 -0.08140151407195453 0.9753737242704081 -0.08140151407198144 0.02349265589302183 0.02228788010199616
1100000000.0 0.02213036309924115 0.026192176494137024 0.9746918036319576 -0.08952279582479755 0.974691803631956 -0.08952279582481754 0.0239543369595389 0.024491611115782862
1200000000.0 0.022299670664820984 0.028567721781694238 0.9739365181322394 -0.09763752991586759 0.9739365181322396 -0.09763752991586352 0.02446973173738166 0.02668646760779015
1300000000.0 0.022492899839329422 0.030941014135142997 0.9731079488274561 -0.10574493993914945 0.9731079488274572 -0.10574493993913997 0.025038670613060966 0.028871377153910895
1400000000.0 0.022710014245217718 0.03331174905607442 0.9722061872761246 -0.11384425087660899 0.9722061872761242 -0.11384425087661317 0.025660963148166575 0.03104527075505457
1500000000.0 0.022950972749724192 0.03567962274377729 0.9712313355077993 -0.12193468928499586 0.9712313355077996 -0.12193468928500013 0.02633639815623227 0.033207083259946535
1600000000.0 0.023215729480738863 0.03804433218416137 0.9701835059876635 -0.1300154834816591 0.9701835059876639 -0.13001548348165518 0.02706474378901649 0.03535575378577888
1700000000.0 0.023504233844640114 0.04040557523837881 0.9690628215769699 -0.13808586372952789 0.9690628215769662 -0.1380858637295544 0.027845747632176652 0.037490226136769014
1800000000.0 0.023816430546063694 0.04276305073076841 0.9678694154893824 -0.14614506242107705 0.9678694154893809 -0.14614506242108993 0.028679136810240608 0.039609449220250545
1900000000.0 0.024152259609637426 0.04511645853656998 0.9666034312432771 -0.15419231426089203 0.966603431243275 -0.15419231426089766 0.029564618100805105 0.041712377459936896
2000000000.0 0.024511656403622704 0.04746549966880414 0.9652650226099625 -0.16222685644724977 0.9652650226099616 -0.16222685644725454 0.030501878057912882 0.04379797120645686
2100000000.0 0.024894551665444683 0.04980987636459892 0.963854353557965 -0.17024792885206805 0.9638543535579672 -0.1702479288520628 0.03149058314445681 0.04586519714453144
2200000000.0 0.025300871529134975 0.052149292170939165 0.9623715981933259 -0.17825477419950958 0.9623715981933274 -0.17825477419950392 0.03253037987358194 0.04791302869686054
2300000000.0 0.025730537554629746 0.05448345202963274 0.9608169406959872 -0.18624663824300622 0.9608169406959867 -0.1862466382430083 0.03362089495898621 0.04994044642449135
2400000000.0 0.026183466758894384 0.05681206236143712 0.9591905752523583 -0.19422276994049475 0.9591905752523575 -0.19422276994049806 0.03476173547391627 0.05194643842313512
2500000000.0 0.026659571648895205 0.05913483114952783 0.9574927059840437 -0.20218242162796152 0.957492705984044 -0.20218242162795494 0.03595248901889119 0.053930000715655346
2600000000.0 0.027158760256339943 0.06145146802194882 0.9557235468728402 -0.21012484919100735 0.9557235468728403 -0.21012484919100463 0.03719272389790225 0.055890137640116945
2700000000.0 0.027680936174214223 0.06376168433331023 0.9538833216820135 -0.218049312234587 0.9538833216820134 -0.2180493122345901 0.038481989303075885 0.05782586223354114
2800000000.0 0.028225998595041626 0.06606519324542243 0.9519722638739555 -0.22595507425056185 0.9519722638739564 -0.22595507425055522 0.03981981550758048 0.059736196610865454
2900000000.0 0.028793842350865337 0.06836170980699104 0.9499906165242842 -0.23384140278303012 0.9499906165242851 -0.23384140278302962 0.04120571406667548 0.061620172339025024
3000000000.0 0.02938435795491909 0.07065095103229911 0.9479386322323817 -0.24170756959164444 0.9479386322323815 -0.24170756959164202 0.0426391780268037 0.06347683080610349
3100000000.0 0.02999743164494418 0.07293263597875774 0.9458165730285496 -0.24955285081230882 0.9458165730285507 -0.24955285081230383 0.04411968214248071 0.06530522358502766
3200000000.0 0.030632945428146943 0.07520648582341448 0.9436247102777512 -0.2573765271156542 0.9436247102777504 -0.2573765271156538 0.04564668310093388 0.06710441279197348
3300000000.0 0.03129077712772484 0.07747222393825617 0.9413633245800627 -0.2651778838629235 0.9413633245800609 -0.2651778838629305 0.04721961975427726 0.06887347143908738
3400000000.0 0.031970800430962454 0.07972957596433156 0.9390327056679026 -0.2729562112592958 0.9390327056679024 -0.27295621125929836 0.04883791335905048 0.07061148378138032
3500000000.0 0.03267288493886254 0.0819782698847112 0.9366331523001024 -0.28071080450453 0.9366331523001029 -0.2807108045045288 0.0505009678230049 0.07231754565769166
3600000000.0 0.03339689621723725 0.08421803609608408 0.9341649721529011 -0.288440963940903 0.9341649721529014 -0.28844096394090085 0.052208169958922655 0.07399076482549491
3700000000.0 0.034142695849268254 0.08644860747913694 0.9316284817079576 -0.2961459951982993 0.9316284817079565 -0.2961459951983051 0.053958889745302774 0.07563026128938798
3800000000.0 0.03491014148945907 0.08866971946752997 0.9290240061374492 -0.30382520933645396 0.9290240061374496 -0.3038252093364525 0.055752480593755385 0.07723516762315506
3900000000.0 0.03569908691900858 0.09088111011564758 0.9263518791863218 -0.31147792298423477 0.926351879186323 -0.31147792298423155 0.05758827962289881 0.07880462928521713
4000000000.0 0.036509382102455044 0.09308252016478329 0.9236124430518383 -0.31910345847589 0.9236124430518378 -0.3191034584758898 0.0594656079385769 0.08033780492732433
4100000000.0 0.03734087324566656 0.09527369310803645 0.9208060482604232 -0.32670114398429884 0.9208060482604211 -0.32670114398430516 0.06138377092022959 0.08183386669639889
4200000000.0 0.03819340285506074 0.0974543752536765 0.9179330535419861 -0.3342703136509996 0.9179330535419864 -0.3342703136509993 0.06334205851317809 0.0832920005293303
4300000000.0 0.039066809798045984 0.09962431578711106 0.914993825701748 -0.3418103077130523 0.9149938257017467 -0.34181030771305576 0.06533974552666927 0.08471140644063431
4400000000.0 0.039960929364634766 0.10178326683126687 0.9119887394896691 -0.3493204726267357 0.9119887394896692 -0.3493204726267332 0.06737609193748305 0.08609129880290566
4500000000.0 0.040875593330178386 0.10393098350549522 0.9089181774676215 -0.356800161187822 0.9089181774676204 -0.35680016118782537 0.06945034319884395 0.08743090661982073
4600000000.0 0.04181063001919574 0.10606722398292914 0.9057825298743228 -0.36424873264864144 0.9057825298743215 -0.3642487326486473 0.07156173055452923 0.0887294737917703
4700000000.0 0.042765864370242324 0.10819174954623226 0.9025821944881952 -0.3716655528316758 0.9025821944881949 -0.37166555283167335 0.07370947135785914 0.08998625937381202
4800000000.0 0.04374111800177429 0.11030432464181776 0.8993175764881987 -0.3790499942397566 0.8993175764882005 -0.3790499942397534 0.07589276939545882 0.09120053782603167
4900000000.0 0.044736209278974405 0.11240471693238387 0.8959890883127735 -0.3864014361627909 0.8959890883127734 -0.3864014361627937 0.07811081521550206 0.0923715992561196
5000000000.0 0.04575095338147329 0.11449269734787712 0.8925971495169249 -0.3937192647810393 0.8925971495169244 -0.3937192647810388 0.08036278646031567 0.09349874965414465
5100000000.0 0.046868267321399135 0.11654026518171025 0.8890667016597558 -0.4009569568332273 0.889066701659755 -0.40095695683322713 0.0827114534776167 0.09451945594431788
5200000000.0 0.04800429496391327 0.11857402704114967 0.8854747854784827 -0.4081583302751195 0.8854747854784828 -0.40815833027511667 0.08509039082271358 0.09549311197793675
5300000000.0 0.0491588293444509 0.12059377587317424 0.8818218659019618 -0.41532281737183163 0.8818218659019605 -0.4153228173718328 0.0874986997430636 0.0964191235595128
5400000000.0 0.05033166087396972 0.12259930828645943 0.8781084137979432 -0.4224498580695273 0.8781084137979422 -0.4224498580695279 0.08993547122620386 0.09729691402952205
5500000000.0 0.05152257741407488 0.1245904245866069 0.8743349058156286 -0.42953890006520234 0.874334905815629 -0.4295389000652021 0.0923997863653198 0.09812592442546218
5600000000.0 0.0527313643525541 0.12656692880960996 0.8705018242274388 -0.4365893988727674 0.8705018242274393 -0.43658939887276743 0.09489071672689718 0.09890561363452
5700000000.0 0.05395780467930181 0.1285286287535663 0.8666096567700976 -0.4436008178853631 0.8666096567700972 -0.4436008178853648 0.09740732472023106 0.09963545853782069
5800000000.0 0.055201679062558504 0.13047533600860234 0.8626588964851579 -0.450572628433905 0.8626588964851567 -0.45057262843390644 0.09994866396856643 0.1003149541462588
5900000000.0 0.056462765925477436 0.1324068659850998 0.8586500415590177 -0.4575043098419035 0.8586500415590185 -0.4575043098419016 0.10251377968169838 0.10094361372795502
6000000000.0 0.05774084152289042 0.13432303794009715 0.8545835951625929 -0.4643953494765088 0.854583595162592 -0.46439534947651023 0.10510170902974662 0.10152096892726901
6100000000.0 0.05903568001829207 0.13622367500198548 0.850460065290654 -0.47124524279588254 0.8504600652906553 -0.4712452427958812 0.10771148151800194 0.10204656987550648
6200000000.0 0.06034705356099572 0.13810860419344892 0.8462799646010244 -0.478053493392772 0.8462799646010241 -0.47805349339277353 0.11034211936250689 0.1025199852932024
6300000000.0 0.061674732363357396 0.13997765645264407 0.8420438102536387 -0.484819613034475 0.8420438102536394 -0.4848196130344727 0.11299263786629055 0.10294080258415242
6400000000.0 0.06301848477810076 0.1418306666526789 0.8377521237496426 -0.4915431216990287 0.8377521237496433 -0.4915431216990269 0.11566204579595292 0.1033086279210926
6500000000.0 0.0643780773756615 0.14366747361935053 0.8334054307705382 -0.49822354760781984 0.8334054307705381 -0.4982235476078217 0.11834934575848002 0.10362308632320047
6600000000.0 0.06575327502148623 0.14548792014715417 0.8290042610175564 -0.5048604272545094 0.8290042610175561 -0.50486042725451 0.12105353457802255 0.10388382172533923
6700000000.0 0.0671438409533013 0.1472918530136258 0.8245491480512801 -0.5114533054303382 0.8245491480512812 -0.5114533054303373 0.12377360367248141 0.1040904970391835
6800000000.0 0.06854953685827227 0.14907912299197312 0.8200406291316265 -0.5180017352458892 0.8200406291316263 -0.5180017352458888 0.12650853942971263 0.10424279420624938
6900000000.0 0.06997012294999277 0.1508495848620058 0.8154792450582998 -0.5245052781492603 0.8154792450583008 -0.5245052781492598 0.12925732358312264 0.1043404142428718
7000000000.0 0.07140535804533905 0.15260309741947264 0.8108655400117515 -0.530963503940747 0.810865540011751 -0.5309635039407475 0.1320189335865324 0.10438307727725991
7100000000.0 0.072854999641054 0.154339523483653 0.8062000613947958 -0.5373759907840049 0.8062000613947953 -0.5373759907840059 0.13479234298803608 0.10437052257859905
7200000000.0 0.07431880399010443 0.15605872990341924 0.801483359674896 -0.5437423252138027 0.8014833596748963 -0.5437423252138016 0.13757652180278082 0.10430250857837761
7300000000.0 0.07579652617771584 0.15776058756159883 0.7967159882272713 -0.550062102140324 0.7967159882272702 -0.5500621021403242 0.14037043688438577 0.1041788128839426
7400000000.0 0.07728792019709463 0.1594449713777955 0.7918985031788266 -0.5563349248501567 0.7918985031788252 -0.5563349248501578 0.1431730522949253 0.1039992322844138
7500000000.0 0.07879273902475617 0.1611117603096088 0.7870314632530567 -0.5625604050039182 0.787031463253056 -0.5625604050039176 0.14598332967323085 0.10376358274901822
7600000000.0 0.08031073469545534 0.16276083735230615 0.7821154296159712 -0.5687381626305951 0.7821154296159715 -0.5687381626305946 0.14880022860138342 0.10347169941794036
7700000000.0 0.08184165837667942 0.1643920895369523 0.7771509657230883 -0.5748678261186971 0.7771509657230881 -0.5748678261186969 0.15162270696923624 0.10312343658579107
7800000000.0 0.08338526044265406 0.1660054079270226 0.7721386371676116 -0.5809490322041858 0.7721386371676137 -0.5809490322041831 0.15444972133679666 0.10271866767779181
7900000000.0 0.08494129054785882 0.1676006876135413 0.7670790115298441 -0.5869814259552848 0.7670790115298433 -0.586981425955286 0.15728022729432037 0.10225728521876985
8000000000.0 0.08650949769996755 0.1691778277087147 0.7619726582278954 -0.5929646607542222 0.761972658227898 -0.5929646607542188 0.16011317981997655 0.10173920079507501
8100000000.0 0.08808963033226691 0.17073673133816591 0.7568201483697787 -0.5988983982759107 0.7568201483697778 -0.5988983982759113 0.16294753363490927 0.10116434500951577
8200000000.0 0.08968143637541622 0.17227730563169683 0.7516220546069232 -0.6047823084637035 0.751622054606923 -0.6047823084637042 0.16578224355561264 0.10053266742945154
8300000000.0 0.09128466332863094 0.17379946171269364 0.7463789509891994 -0.6106160695021893 0.7463789509891988 -0.61061606950219 0.16861626484341447 0.09984413652812357
8400000000.0 0.09289905833016052 0.17530311468614276 0.7410914128215031 -0.6163993677871493 0.7410914128215046 -0.6163993677871471 0.17144855355098484 0.0990987396193624
8500000000.0 0.09452436822711384 0.17678818362531076 0.7357600165219511 -0.622131897892709 0.735760016521951 -0.6221318978927102 0.17427806686572245 0.09829648278578237
8600000000.0 0.09616033964454405 0.1782545915570807 0.730385339481753 -0.6278133625357569 0.7303853394817537 -0.6278133625357561 0.17710376344990977 0.09743739080058991
8700000000.0 0.09780671905381662 0.17970226544603915 0.7249679599268166 -0.6334434725376624 0.7249679599268173 -0.6334434725376623 0.1799246037774844 0.09652150704311471
8800000000.0 0.0994632528401977 0.18113113617726131 0.7195084567811342 -0.639021946783394 0.7195084567811325 -0.6390219467833937 0.18273955046736212 0.09554889340822187
8900000000.0 0.10112968736966424 0.18254113853788373 0.7140074095319852 -0.6445485121780714 0.7140074095319848 -0.6445485121780712 0.1855475686131659 0.0945196302096855
9000000000.0 0.10280576905490484 0.18393221119745579 0.7084653980970466 -0.6500229036010255 0.7084653980970455 -0.6500229036010261 0.1883476261092514 0.09343381607769767
9100000000.0 0.10449124442048066 0.18530429668711565 0.702883002693398 -0.6554448638574337 0.7028830026933981 -0.6554448638574325 0.19113869397296626 0.09229156785061107
9200000000.0 0.1061858601671477 0.1866573413776258 0.6972608037085198 -0.6608141436275785 0.6972608037085202 -0.6608141436275783 0.19391974666300146 0.09109302046106738
9300000000.0 0.10788936323529405 0.18799129545626822 0.6915993815732857 -0.666130501413826 0.6915993815732865 -0.666130501413826 0.19668976239377767 0.08983832681663273
9400000000.0 0.10960150086749954 0.18930611290267213 0.6858993166370158 -0.6713937034853524 0.6858993166370164 -0.6713937034853525 0.19944772344575834 0.0885276576750848
9500000000.0 0.11132202067017151 0.19060175146355646 0.6801611890446123 -0.6766035238207159 0.6801611890446132 -0.6766035238207155 0.20219261647160802 0.08716120151446388
9600000000.0 0.11305067067427675 0.19187817262646095 0.6743855786158207 -0.6817597440483221 0.6743855786158208 -0.6817597440483225 0.20492343279813255 0.08573916439806549
9700000000.0 0.11478719939511489 0.19313534159246093 0.6685730647266429 -0.686862153384864 0.6685730647266438 -0.686862153384863 0.207639168723919 0.08426176983446099
9800000000.0 0.11653135589114198 0.194373227247918 0.6627242261929531 -0.6919105485717835 0.6627242261929527 -0.6919105485717832 0.21033882581257646 0.08272925863272157
9900000000.0 0.11828288982183018 0.19559180213529218 0.6568396411563014 -0.6969047338098503 0.6568396411563002 -0.6969047338098515 0.21302141118158283 0.08114188875296893
10000000000.0 0.12004155150453655 0.19679104242303194 0.6509198869719942 -0.7018445206919042 0.6509198869719958 -0.7018445206919002 0.21568593778659007 0.07949993515238449
10100000000.0 0.12181882462987838 0.19795110486506828 0.6449540894336019 -0.70671042639391 0.6449540894336008 -0.706710426393911 0.21834069139183354 0.077786287151241
10200000000.0 0.1236022833943561 0.19909165750586874 0.6389546925435281 -0.7115214738237863 0.6389546925435268 -0.7115214738237865 0.22097497971932784 0.07601866229086096
10300000000.0 0.1253916799426753 0.20021269562509056 0.6329222692517699 -0.7162775044457068 0.6329222692517701 -0.7162775044457061 0.22358783809629726 0.07419739549474537
10400000000.0 0.12718676744919327 0.20131421796186907 0.6268573911352472 -0.7209783667280587 0.6268573911352485 -0.7209783667280582 0.22617830897838287 0.0723228378845388
10500000000.0 0.12898730016783866 0.20239622667785223 0.620760628301234 -0.7256239160648745 0.6207606283012348 -0.725623916064874 0.22874544220554152 0.07039535660197188
10600000000.0 0.13079303348095053 0.20345872731958706 0.6146325492932162 -0.7302140146959426 0.6146325492932152 -0.7302140146959438 0.2312882952531098 0.0684153346272842
10700000000.0 0.1326037239470315 0.20450172878027517 0.6084737209991746 -0.7347485316257024 0.6084737209991741 -0.734748531625703 0.23380593347804637 0.06638317059424441
10800000000.0 0.13441912934740086 0.20552524326092897 0.6022847085623048 -0.7392273425409662 0.6022847085623043 -0.7392273425409667 0.23629743036028625 0.06429927860189903
10900000000.0 0.13623900873175537 0.2065292862309403 0.596066075294173 -0.7436503297275582 0.5960660752941735 -0.7436503297275586 0.23876186773923633 0.06216408802319265
11000000000.0 0.1380631224626346 0.20751387638814658 0.5898183825903149 -0.7480173819859102 0.5898183825903145 -0.7480173819859112 0.2411983360453487 0.05997804331058747
11100000000.0 0.13989123225877867 0.20847903561833678 0.5835421898482921 -0.752328394545696 0.5835421898482923 -0.7523283945456954 0.24360593452678794 0.057741603798803116
11200000000.0 0.14172310123739712 0.2094247889543275 0.5772380543881829 -0.7565832689795634 0.5772380543881823 -0.7565832689795632 0.24598377147118564 0.0554552435048227
11300000000.0 0.14355849395532908 0.21035116453454997 0.5709065313755248 -0.7607819131160393 0.5709065313755244 -0.7607819131160399 0.2483309644224609 0.05311945092527317
11400000000.0 0.14539717644910496 0.21125819356121653 0.5645481737467087 -0.7649242409516498 0.5645481737467091 -0.7649242409516489 0.2506466403927018 0.05073472883132156
11500000000.0 0.14723891627393026 0.2121459102581219 0.5581635321367922 -0.7690101725623344 0.5581635321367926 -0.7690101725623346 0.2529299360691457 0.04830159406120403
