! Created with skrf (http://scikit-rf.org).
# Hz S RI R 50.0 
!freq ReS11 ImS11 ReS21 ImS21 ReS12 ImS12 ReS22 ImS22
100000000.0 0.0008562853676644666 0.00041839292740712447 0.9991427926932558 -0.0007429886641950626 0.9991427926932575 -0.0007429886641215705 0.000856285367666465 0.00041839292754699046
200000000.0 0.0008257785196540413 0.0008368571518626608 0.9991722722125067 -0.0014860480706548346 0.9991722722125065 -0.001486048070587826 0.0008257785196539302 0.0008368571518808075
300000000.0 0.0007958924345298213 0.0012553916103758605 0.9992010255824724 -0.0022291771665705145 0.9992010255824726 -0.0022291771665760955 0.0007958924345303764 0.0012553916103461714
400000000.0 0.0007666272853827372 0.0016739952384047202 0.9992290526333064 -0.002972374897769607 0.9992290526333063 -0.0029723748977060387 0.0007666272853828482 0.0016739952384723202
500000000.0 0.0007379832430879918 0.0020926669720585933 0.9992563531973261 -0.003715640209819962 0.9992563531973264 -0.003715640209827703 0.0007379832430878808 0.0020926669720601476
600000000.0 0.0007310739301794045 0.002511258462033584 0.9992618136417808 -0.004458824763684284 0.9992618136417798 -0.004458824763645122 0.0007310739301790159 0.002511258462058243
700000000.0 0.000724787261276949 0.002929866814649409 0.9992665460588623 -0.005202025675492244 0.9992665460588623 -0.005202025675469742 0.0007247872612773376 0.0029298668146897923
800000000.0 0.0007191232790834667 0.0033484909570763743 0.9992705504066989 -0.0059452418824749 0.9992705504066992 -0.005945241882445025 0.0007191232790836888 0.0033484909571055133
900000000.0 0.0007140820240477685 0.0037671298161477034 0.9992738266456225 -0.006688472321435721 0.9992738266456225 -0.006688472321415646 0.000714082024047602 0.0037671298161605113
1000000000.0 0.0007096635343705748 0.004185782319102049 0.9992763747381664 -0.007431715929542652 0.9992763747381669 -0.007431715929536153 0.0007096635343707969 0.004185782319112978
1100000000.0 0.0007224746584509889 0.00460423499479006 0.9992615878012849 -0.008174759245304584 0.9992615878012845 -0.00817475924532499 0.0007224746584509889 0.004604234994752557
1200000000.0 0.0007359079904681876 0.005022660553986492 0.9992460732633445 -0.008917774989738442 0.9992460732633437 -0.008917774989741927 0.0007359079904678545 0.005022660553957144
1300000000.0 0.0007499634662589405 0.005441057925255093 0.9992298311873511 -0.009660762101212616 0.9992298311873509 -0.009660762101261442 0.0007499634662584409 0.00544105792519504
1400000000.0 0.0007646410194156461 0.005859426037156 0.9992128616385119 -0.010403719518475471 0.9992128616385119 -0.01040371951844566 0.0007646410194157016 0.005859426037183064
1500000000.0 0.0007799405812863314 0.006277763818766356 0.9991951646842301 -0.011146646180272897 0.9991951646842301 -0.01114664618025097 0.0007799405812864424 0.006277763818789254
1600000000.0 0.0007958620809737083 0.006696070199081824 0.9991767403941096 -0.011889541025598641 0.9991767403941091 -0.011889541025631719 0.0007958620809736527 0.006696070199052741
1700000000.0 0.0008124054453355067 0.007114344107246144 0.9991575888399505 -0.012632402993740098 0.9991575888399504 -0.01263240299372608 0.0008124054453352847 0.00711434410727335
1800000000.0 0.0008295705989866953 0.007532584472831903 0.9991377100957507 -0.013375231023977283 0.9991377100957506 -0.013375231023952851 0.0008295705989871394 0.007532584472852022
1900000000.0 0.0008473574643032 0.007950790225518107 0.999117104237703 -0.014118024055995625 0.9991171042377025 -0.014118024055994879 0.0008473574643029225 0.007950790225511609
2000000000.0 0.0008657659614128566 0.008368960295088773 0.9990957713441965 -0.014860781029578385 0.9990957713441968 -0.014860781029578777 0.0008657659614133562 0.008368960295094534
2100000000.0 0.0008847960082093431 0.008787093611729104 0.999073711495815 -0.015603500884818246 0.9990737114958159 -0.01560350088481332 0.0008847960082096762 0.008787093611746576
2200000000.0 0.0009044475203391911 0.009205189105700184 0.9990509247753385 -0.0163461825618946 0.9990509247753392 -0.016346182561879627 0.0009044475203401348 0.00920518910572137
2300000000.0 0.0009247204112147189 0.009623245707602687 0.9990274112677375 -0.017088825001304174 0.999027411267738 -0.017088825001300822 0.000924720411215052 0.009623245707619452
2400000000.0 0.0009456145920053727 0.010041262348194238 0.9990031710601763 -0.017831427143805288 0.9990031710601763 -0.017831427143782556 0.0009456145920054837 0.01004126234820996
2500000000.0 0.0009671299716446091 0.010459237958517591 0.9989782042420119 -0.01857398793031334 0.9989782042420111 -0.0185739879303183 0.0009671299716442205 0.01045923795851262
2600000000.0 0.0009892664568272869 0.010877171469828147 0.9989525109047903 -0.019316506302071847 0.9989525109047908 -0.0193165063020643 0.0009892664568276754 0.010877171469836692
2700000000.0 0.0010120239520132746 0.011295061813696517 0.9989260911422506 -0.020058981200514733 0.9989260911422506 -0.02005898120050904 0.0010120239520133856 0.011295061813704363
2800000000.0 0.0010354023594243422 0.0117129079218926 0.9988989450503203 -0.020801411567359394 0.9988989450503203 -0.020801411567350023 0.0010354023594243977 0.011712907921901545
2900000000.0 0.0010594015790487687 0.012130708726470657 0.9988710727271151 -0.021543796344579435 0.998871072727115 -0.021543796344586065 0.0010594015790488243 0.012130708726464795
3000000000.0 0.0010840215086390104 0.01254846315972093 0.9988424742729405 -0.022286134474383247 0.9988424742729409 -0.022286134474378053 0.001084021508639288 0.012548463159722491
3100000000.0 0.0011092620437174738 0.012966170154277083 0.9988131497902862 -0.023028424899356144 0.9988131497902861 -0.023028424899351217 0.0011092620437177514 0.012966170154284841
3200000000.0 0.0011351230775717425 0.013383828643034536 0.9987830993838294 -0.02377066656226476 0.9987830993838296 -0.02377066656225928 0.0011351230775720755 0.013383828643038706
3300000000.0 0.0011616045012591836 0.013801437559148373 0.9987523231604323 -0.024512858406193775 0.998752323160432 -0.024512858406194396 0.001161604501258573 0.013801437559150552
3400000000.0 0.0011887062036028406 0.014218995836052867 0.9987208212291432 -0.02525499937449942 0.9987208212291431 -0.025254999374504754 0.0011887062036027851 0.014218995836058016
3500000000.0 0.0012164280712026465 0.014636502407578612 0.9986885937011898 -0.025997088410881997 0.99868859370119 -0.025997088410884384 0.001216428071202369 0.014636502407569937
3600000000.0 0.0012447699884238772 0.015053956207722536 0.9986556406899867 -0.02673912445930169 0.9986556406899871 -0.026739124459308122 0.0012447699884238772 0.015053956207716795
3700000000.0 0.0012737318374084206 0.015471356170900846 0.9986219623111265 -0.027481106464052378 0.9986219623111265 -0.027481106464046258 0.0012737318374084206 0.015471356170906597
3800000000.0 0.0013033134980696137 0.015888701231821 0.9985875586823828 -0.028223033369734418 0.9985875586823836 -0.028223033369741322 0.0013033134980701133 0.015888701231813837
3900000000.0 0.0013335148480943526 0.01630599032546488 0.9985524299237108 -0.0289649041212763 0.9985524299237112 -0.02896490412126345 0.0013335148480950743 0.016305990325472117
4000000000.0 0.0013643357629474773 0.016723222387216116 0.9985165761572412 -0.029706717663888393 0.9985165761572414 -0.02970671766389353 0.0013643357629473107 0.01672322238721501
4100000000.0 0.0013957761158666648 0.017140396352721163 0.9984799975072838 -0.03044847294319753 0.9984799975072837 -0.030448472943188327 0.001395776115866998 0.017140396352728345
4200000000.0 0.001427835777869868 0.017557511158019363 0.9984426941003244 -0.031190168905056402 0.9984426941003245 -0.031190168905062005 0.0014278357778698125 0.017557511158015036
4300000000.0 0.0014605146177532058 0.01797456573947145 0.9984046660650221 -0.03193180449578599 0.9984046660650223 -0.031931804495784595 0.0014605146177532613 0.01797456573947518
4400000000.0 0.001493812502090519 0.018391559033770273 0.998365913532214 -0.03267337866194638 0.998365913532214 -0.032673378661945224 0.0014938125020907411 0.01839155903377433
4500000000.0 0.0015277292952399213 0.01880848997802491 0.998326436634906 -0.033414890350516896 0.9983264366349061 -0.033414890350524244 0.0015277292952400878 0.01880848997802142
4600000000.0 0.0015622648593383026 0.019225357509639725 0.9982862355082783 -0.034156338508820994 0.998286235508278 -0.03415633850881687 0.0015622648593384691 0.019225357509642178
4700000000.0 0.0015974190543069366 0.019642160566429867 0.9982453102896809 -0.034897722084529 0.998245310289681 -0.03489772208452136 0.0015974190543071032 0.019642160566437764
4800000000.0 0.0016331917378513694 0.020058898086572026 0.9982036611186327 -0.03563904002571361 0.9982036611186327 -0.03563904002571676 0.001633191737851425 0.0200588980865635
4900000000.0 0.0016695827654623074 0.020475569008606316 0.9981612881368228 -0.03638029128079486 0.9981612881368228 -0.03638029128079131 0.001669582765462141 0.02047556900860802
5000000000.0 0.0017065919904171722 0.020892172271478687 0.9981181914881052 -0.037121474798609444 0.9981181914881048 -0.03712147479859963 0.0017065919904171167 0.020892172271487458
5100000000.0 0.001745383562344438 0.021308637726489176 0.9980732069665325 -0.037862520439113555 0.9980732069665322 -0.037862520439118204 0.001745383562343994 0.021308637726483226
5200000000.0 0.0017847927675644915 0.021725030703491504 0.9980274993319996 -0.0386034935431277 0.9980274993319991 -0.03860349354313253 0.0017847927675638253 0.021725030703482466
5300000000.0 0.001824819446075654 0.022141350143523635 0.9979810687413786 -0.03934439306155195 0.9979810687413784 -0.03934439306154959 0.0018248194460754874 0.022141350143527916
5400000000.0 0.0018654634356706223 0.02255759498805427 0.9979339153537015 -0.0400852179456753 0.9979339153537017 -0.04008521794566948 0.0018654634356706778 0.022557594988060953
5500000000.0 0.0019067245719405213 0.022973764178989158 0.9978860393301561 -0.040825967147278666 0.9978860393301557 -0.04082596714728388 0.0019067245719397996 0.022973764178985688
5600000000.0 0.0019486026882708507 0.023389856658641912 0.9978374408340862 -0.04156663961856173 0.9978374408340864 -0.04156663961855683 0.0019486026882706842 0.023389856658647082
5700000000.0 0.001991097615848869 0.02380587136980613 0.997788120030991 -0.042307234312134914 0.9977881200309915 -0.04230723431213038 0.0019910976158492577 0.023805871369810733
5800000000.0 0.0020342091836623166 0.024221807255702766 0.9977380770885231 -0.04304775018107399 0.9977380770885229 -0.04304775018107362 0.002034209183661706 0.024221807255701836
5900000000.0 0.0020779372184975275 0.02463766326000784 0.9976873121764858 -0.04378818617891039 0.9976873121764862 -0.04378818617891079 0.002077937218497805 0.02463766326000566
6000000000.0 0.002122281544949922 0.025053438326871447 0.9976358254668328 -0.0445285412596476 0.9976358254668325 -0.04452854125964015 0.0021222815449500887 0.02505343832688095
6100000000.0 0.0021672419854144587 0.025469131400892242 0.9975836171336676 -0.04526881437771012 0.9975836171336683 -0.045268814377702346 0.0021672419854147362 0.025469131400900742
6200000000.0 0.0022128183600955142 0.02588474142715618 0.9975306873532406 -0.04600900448801848 0.9975306873532411 -0.046009004488015134 0.0022128183600959583 0.025884741427159907
6300000000.0 0.0022590104870045535 0.02630026735120497 0.9974770363039482 -0.046749110545970494 0.9974770363039482 -0.04674911054597128 0.00225901048700472 0.026300267351205907
6400000000.0 0.0023058181819621826 0.026715708119096845 0.9974226641663297 -0.047489131507451696 0.9974226641663297 -0.047489131507442425 0.0023058181819629597 0.026715708119106122
6500000000.0 0.0023532412586008133 0.027131062677355967 0.9973675711230692 -0.04822906632879473 0.9973675711230696 -0.048229066328799974 0.002353241258600758 0.0271310626773503
6600000000.0 0.0024012795283625543 0.0275463299729808 0.9973117573589911 -0.04896891396687411 0.9973117573589916 -0.048968913966865105 0.0024012795283627764 0.027546329972985714
6700000000.0 0.0024499328005065935 0.027961508953510867 0.997255223061061 -0.0497086733789982 0.9972552230610607 -0.04970867337900017 0.0024499328005068155 0.02796150895350976
6800000000.0 0.002499200882106256 0.028376598566964437 0.9971979684183792 -0.05044834352305657 0.9971979684183802 -0.05044834352304629 0.002499200882107533 0.028376598566974894
6900000000.0 0.0025490835780547783 0.028791597761896416 0.9971399936221859 -0.051187923357376056 0.9971399936221856 -0.051187923357381 0.0025490835780543897 0.028791597761891115
7000000000.0 0.0025995806910576458 0.02920650548732589 0.9970812988658552 -0.051927411840832854 0.9970812988658556 -0.05192741184082758 0.002599580691058201 0.029206505487327977
7100000000.0 0.0026506920216474716 0.029621320692843886 0.997021884344894 -0.052666807932809326 0.9970218843448937 -0.05266680793281078 0.002650692021647416 0.029621320692841513
7200000000.0 0.0027024173681753916 0.03003604232855243 0.9969617502569412 -0.05340611059321317 0.9969617502569406 -0.05340611059322069 0.0027024173681751695 0.03003604232854356
7300000000.0 0.0027547565268178364 0.030450669345082143 0.9969008968017639 -0.05414531878251333 0.996900896801764 -0.05414531878251307 0.0027547565268178364 0.030450669345083788
7400000000.0 0.002807709291575644 0.030865200693612836 0.9968393241812612 -0.05488443146164959 0.9968393241812614 -0.05488443146165487 0.002807709291575644 0.030865200693605804
7500000000.0 0.002861275454277612 0.031279635325854704 0.9967770325994558 -0.05562344759216033 0.9967770325994554 -0.055623447592168446 0.002861275454277501 0.031279635325844136
7600000000.0 0.0029154548045802753 0.03169397219406296 0.9967140222624948 -0.0563623661361191 0.9967140222624958 -0.05636236613610971 0.00291545480458133 0.031693972194069046
7700000000.0 0.002970247129972292 0.03210821025107348 0.9966502933786529 -0.05710118605610413 0.9966502933786529 -0.05710118605610012 0.002970247129972403 0.03210821025107741
7800000000.0 0.0030256522157743326 0.03252234845027683 0.9965858461583194 -0.05783990631532468 0.9965858461583192 -0.05783990631532604 0.003025652215774388 0.03252234845027619
7900000000.0 0.003081669845139079 0.03293638574559758 0.996520680814009 -0.058578525877500856 0.9965206808140089 -0.05857852587749657 0.0030816698451389124 0.03293638574560166
8000000000.0 0.0031382997990577755 0.03335032109157046 0.9964547975603505 -0.05931704370693575 0.9964547975603504 -0.059317043706936766 0.0031382997990575534 0.033350321091571024
8100000000.0 0.0031955418563574534 0.03376415344328879 0.9963881966140913 -0.06005545876851075 0.9963881966140911 -0.0600554587685101 0.003195541856357398 0.033764153443289535
8200000000.0 0.0032533957937065927 0.03417788175643395 0.9963208781940907 -0.06079377002767748 0.99632087819409 -0.060793770027689514 0.003253395793706093 0.0341778817564225
8300000000.0 0.003311861385613346 0.034591504987258624 0.9962528425213215 -0.06153197645050684 0.9962528425213212 -0.06153197645050627 0.003311861385613013 0.03459150498725727
8400000000.0 0.0033709384044294244 0.03500502209264003 0.9961840898188665 -0.06227007700359856 0.9961840898188667 -0.0622700770035942 0.0033709384044294244 0.035005022092643376
8500000000.0 0.0034306266203523728 0.03541843203003263 0.9961146203119198 -0.06300807065418348 0.9961146203119191 -0.06300807065418566 0.003430626620351873 0.03541843203003027
8600000000.0 0.003490925801425626 0.035831733757497736 0.9960444342277763 -0.0637459563701076 0.9960444342277756 -0.0637459563701063 0.003490925801425182 0.03583173375749715
8700000000.0 0.0035518357135418954 0.036244926233716515 0.995973531795841 -0.06448373311979436 0.9959735317958412 -0.06448373311979531 0.0035518357135420064 0.03624492623371514
8800000000.0 0.0036133561204453324 0.036658008417967694 0.9959019132476205 -0.0652213998723026 0.9959019132476206 -0.06522139987229401 0.003613356120445721 0.03665800841797662
8900000000.0 0.0036754867837328065 0.037070979270179216 0.9958295788167211 -0.06595895559728368 0.9958295788167209 -0.06595895559728743 0.0036754867837324734 0.03707097927017344
9000000000.0 0.0037382274628542933 0.03748383775086671 0.9957565287388488 -0.06669639926503633 0.995756528738849 -0.06669639926503895 0.0037382274628539047 0.03748383775086615
9100000000.0 0.003801577915116927 0.037896582821209 0.9956827632518073 -0.06743372984647741 0.9956827632518073 -0.06743372984647472 0.003801577915117371 0.03789658282121405
9200000000.0 0.0038655378956887754 0.03830921344301225 0.9956082825954952 -0.06817094631314748 0.9956082825954944 -0.06817094631314763 0.0038655378956882203 0.038309213443009825
9300000000.0 0.003930107157595619 0.03872172857873421 0.9955330870119006 -0.06890804763724889 0.9955330870119005 -0.06890804763725086 0.00393010715759573 0.03872172857873145
9400000000.0 0.00399528545172706 0.03913412719144814 0.9954571767451091 -0.06964503279160153 0.9954571767451086 -0.069645032791606 0.003995285451726338 0.03913412719144223
9500000000.0 0.004061072526836795 0.03954640824491558 0.9953805520412904 -0.07038190074969772 0.9953805520412902 -0.07038190074970246 0.004061072526836851 0.039546408244914705
9600000000.0 0.004127468129547118 0.03995857070355121 0.9953032131487014 -0.07111865048569063 0.9953032131487016 -0.07111865048568225 0.004127468129547229 0.039958570703558315
9700000000.0 0.00419447200434675 0.04037061353241814 0.9952251603176872 -0.07185528097434397 0.9952251603176877 -0.07185528097434016 0.004194472004347083 0.04037061353242297
9800000000.0 0.004262083893597668 0.040782535697275434 0.9951463938006718 -0.07259179119114467 0.9951463938006715 -0.07259179119114947 0.004262083893597224 0.04078253569726978
9900000000.0 0.004330303537531832 0.0411943361645102 0.9950669138521621 -0.07332818011223748 0.9950669138521615 -0.07332818011223687 0.004330303537531832 0.0411943361645126
10000000000.0 0.004399130674259177 0.04160601390124262 0.9949867207287425 -0.07406444671441959 0.994986720728742 -0.0740644467144182 0.004399130674258733 0.041606013901243175
10100000000.0 0.004466283658514758 0.042017836642956725 0.9949080964840038 -0.07480085875869336 0.9949080964840036 -0.07480085875869319 0.004466283658514758 0.04201783664295629
10200000000.0 0.004534044554256544 0.0424295398379269 0.9948287586513721 -0.07553715168815724 0.9948287586513718 -0.07553715168815583 0.004534044554256211 0.04242953983792718
10300000000.0 0.004602413106029768 0.042841122452209925 0.9947487074810986 -0.07627332447857736 0.9947487074810983 -0.0762733244785812 0.0046024131060298235 0.04284112245220585
10400000000.0 0.00467138905625436 0.0432525834525007 0.9946679432255157 -0.07700937610640039 0.9946679432255158 -0.07700937610640297 0.00467138905625436 0.043252583452500076
10500000000.0 0.004740972145222622 0.04366392180618285 0.9945864661390351 -0.07774530554872291 0.9945864661390351 -0.07774530554872107 0.004740972145222788 0.04366392180618399
10600000000.0 0.004811162111106826 0.0440751364813259 0.9945042764781442 -0.07848111178332862 0.9945042764781439 -0.07848111178332812 0.004811162111106493 0.044075136481327895
10700000000.0 0.004881958689953003 0.044486226446655286 0.9944213745014072 -0.07921679378865626 0.9944213745014068 -0.07921679378866246 0.004881958689952837 0.044486226446649124
10800000000.0 0.004953361615692653 0.04489719067159676 0.9943377604694594 -0.07995235054386751 0.994337760469459 -0.07995235054386432 0.004953361615692653 0.04489719067159884
10900000000.0 0.005025370620138914 0.045308028126283026 0.9942534346450067 -0.08068778102877829 0.9942534346450069 -0.08068778102877586 0.005025370620138914 0.045308028126285614
11000000000.0 0.0050979854329887275 0.04571873778151694 0.9941683972928246 -0.0814230842239072 0.9941683972928255 -0.08142308422390392 0.005097985432989227 0.04571873778152094
11100000000.0 0.00517120578183089 0.046129318608841466 0.9940826486797527 -0.08215825911048952 0.9940826486797529 -0.08215825911048967 0.005171205781830945 0.04612931860884082
