! Created with skrf (http://scikit-rf.org).
# Hz S RI R 50.0 
!freq ReS11 ImS11 ReS21 ImS21 ReS12 ImS12 ReS22 ImS22
100000000.0 0.0024632150055078905 0.00013675430248529614 0.9975264102388539 -0.0026671303646284843 0.9975264102388541 -0.0026671303646982024 0.002463215005507946 0.00013675430239789253
200000000.0 0.0023741499561750756 0.0002740099208972293 0.9975986929448896 -0.0053347104088338725 0.9975986929448897 -0.005334710408864236 0.002374149956175242 0.00027400992085856277
300000000.0 0.002285816984296196 0.00041176300154380186 0.9976638367465327 -0.008002720968497298 0.9976638367465331 -0.008002720968512862 0.0022858169842964737 0.00041176300153179953
400000000.0 0.0021982188723582707 0.0005500096750148656 0.9977218396537928 -0.010671142870364733 0.9977218396537926 -0.01067114287037453 0.0021982188723580487 0.0005500096750120998
500000000.0 0.0021113583824994286 0.0006887460562508966 0.9977726997287615 -0.013339956931875143 0.9977726997287613 -0.013339956931875953 0.0021113583824995397 0.0006887460562537773
600000000.0 0.0020787372228392997 0.0008270649755178722 0.9977629140556008 -0.016008240649112944 0.9977629140556009 -0.01600824064913702 0.002078737222839133 0.0008270649754950744
700000000.0 0.0020468646365875975 0.0009655644272752977 0.9977459748522867 -0.018676576729768902 0.9977459748522863 -0.018676576729768808 0.002046864636587653 0.0009655644272767846
800000000.0 0.0020157416264302563 0.0011042403841749519 0.9977218816918039 -0.021344945848039292 0.9977218816918039 -0.021344945848041152 0.0020157416264300343 0.0011042403841742868
900000000.0 0.0019853691733967005 0.0012430888131906201 0.9976906342005407 -0.0240133286756639 0.9976906342005409 -0.02401332867566717 0.0019853691733970336 0.0012430888131868961
1000000000.0 0.0019557482368292023 0.001382105675814256 0.9976522320583038 -0.026681705881965122 0.9976522320583039 -0.026681705881964828 0.0019557482368292023 0.0013821056758145404
1100000000.0 0.0019589575997732145 0.0015202936906570106 0.9975745929948124 -0.029349064757039647 0.9975745929948125 -0.029349064757043932 0.001958957599773492 0.0015202936906555846
1200000000.0 0.001962914725632481 0.0016584614896219445 0.9974898028275416 -0.0320161987083632 0.9974898028275416 -0.03201619870836607 0.0019629147256326474 0.0016584614896222754
1300000000.0 0.0019676194902830124 0.0017966050452466473 0.9973978622093017 -0.03468308840585661 0.997397862209302 -0.03468308840585854 0.0019676194902833455 0.00179660504524543
1400000000.0 0.0019730717479028437 0.0019347203308015385 0.9972987718464282 -0.03734971452140606 0.9972987718464281 -0.03734971452140805 0.0019730717479028437 0.0019347203308002657
1500000000.0 0.0019792713309736976 0.002072803320447981 0.997192532498774 -0.040016057728978725 0.9971925324987743 -0.04001605772898015 0.001979271330973753 0.0020728033204457175
1600000000.0 0.0019862180502875915 0.002210849989297537 0.9970791449797044 -0.04268209870478442 0.9970791449797045 -0.0426820987047799 0.0019862180502878135 0.0022108499893015083
1700000000.0 0.0019939116949530544 0.002348856313598266 0.9969586101560883 -0.045347818127427914 0.9969586101560883 -0.045347818127433055 0.001993911694953332 0.0023488563135941804
1800000000.0 0.0020023520324007893 0.002486818270794228 0.9968309289482904 -0.048013196678115905 0.9968309289482906 -0.048013196678116016 0.0020023520324006783 0.00248681827079481
1900000000.0 0.0020115388083899455 0.0026247318396803773 0.9966961023301659 -0.05067821504073983 0.9966961023301653 -0.05067821504073684 0.0020115388083896124 0.002624731839681706
2000000000.0 0.002021471747017445 0.002762593000508698 0.9965541313290467 -0.053342853902089704 0.996554131329046 -0.05334285390208786 0.0020214717470171117 0.0027625930005092544
2100000000.0 0.0020321505507258086 0.0029003977350910495 0.9964050170257354 -0.05600709395198969 0.9964050170257357 -0.05600709395199094 0.0020321505507258086 0.0029003977350895702
2200000000.0 0.0020435749003112624 0.003038142026933072 0.9962487605544966 -0.058670915883467914 0.9962487605544965 -0.058670915883467664 0.0020435749003115955 0.0030381420269341808
2300000000.0 0.0020557444549358928 0.003175821861348882 0.9960853631030416 -0.06133430039289918 0.9960853631030415 -0.0613343003929017 0.0020557444549357262 0.0031758218613488374
2400000000.0 0.002068658852133587 0.0033134332255745653 0.9959148259125219 -0.06399722818018094 0.9959148259125219 -0.06399722818018261 0.0020686588521336424 0.0033134332255728527
2500000000.0 0.002082317707824799 0.003450972108883021 0.9957371502775163 -0.06665967994887537 0.9957371502775163 -0.0666596799488737 0.0020823177078249655 0.003450972108883892
2600000000.0 0.0020967206163275964 0.0035884345027074245 0.9955523375460171 -0.06932163640637523 0.9955523375460165 -0.0693216364063721 0.0020967206163273744 0.003588434502709985
2700000000.0 0.002111867150366653 0.0037258164007575503 0.9953603891194187 -0.07198307826405614 0.9953603891194186 -0.07198307826405756 0.0021118671503667086 0.0037258164007565792
2800000000.0 0.00212775686109129 0.0038631137991256377 0.995161306452506 -0.07464398623745788 0.9951613064525056 -0.07464398623745686 0.002127756861090957 0.0038631137991265627
2900000000.0 0.00214438927808408 0.004000322696420476 0.9949550910534374 -0.07730434104640015 0.9949550910534375 -0.07730434104640205 0.002144389278083858 0.004000322696417459
3000000000.0 0.002161763909377501 0.004137439093862949 0.9947417444837336 -0.07996412341518011 0.9947417444837332 -0.07996412341518 0.002161763909377279 0.004137439093862297
3100000000.0 0.002179880241468035 0.004274458995425006 0.9945212683582599 -0.08262331407270468 0.99452126835826 -0.08262331407270443 0.002179880241468146 0.004274458995424854
3200000000.0 0.0021987377393330454 0.004411378407931909 0.9942936643452133 -0.08528189375266301 0.9942936643452129 -0.08528189375266074 0.002198737739332879 0.004411378407933932
3300000000.0 0.002218335846443431 0.004548193341189462 0.9940589341661046 -0.08793984319366936 0.9940589341661046 -0.08793984319367204 0.002218335846443209 0.004548193341187112
3400000000.0 0.002238673984782724 0.004684899808070366 0.9938170795957434 -0.09059714313944237 0.9938170795957437 -0.09059714313944209 0.002238673984782835 0.0046848998080709255
3500000000.0 0.002259751554864964 0.004821493824679807 0.9935681024622205 -0.09325377433894266 0.9935681024622207 -0.09325377433894108 0.0022597515548653524 0.004821493824681669
3600000000.0 0.00228156793575085 0.004957971410429992 0.9933120046468902 -0.09590971754652933 0.99331200464689 -0.09590971754652834 0.00228156793575085 0.004957971410431066
3700000000.0 0.002304122485067006 0.0050943285881801855 0.9930487880843508 -0.09856495352214178 0.993048788084351 -0.09856495352214192 0.002304122485067117 0.0050943285881796495
3800000000.0 0.002327414539024797 0.005230561384326557 0.9927784547624304 -0.10121946303142654 0.9927784547624303 -0.10121946303142673 0.002327414539024575 0.005230561384326973
3900000000.0 0.002351443412440979 0.005366665828955319 0.9925010067221622 -0.10387322684591761 0.9925010067221622 -0.10387322684591595 0.002351443412441201 0.005366665828957067
4000000000.0 0.002376208398758073 0.005502637955926244 0.9922164460577685 -0.10652622574317397 0.9922164460577678 -0.10652622574317422 0.00237620839875774 0.005502637955926215
4100000000.0 0.002401708770063904 0.005638473803002624 0.9919247749166378 -0.10917844050695641 0.9919247749166377 -0.10917844050695749 0.0024017087700638484 0.005638473803000498
4200000000.0 0.0024279437771154155 0.005774169411960579 0.9916259954993072 -0.11182985192737041 0.9916259954993072 -0.11182985192737083 0.0024279437771156376 0.005774169411960143
4300000000.0 0.002454912649359986 0.005909720828712198 0.9913201100594384 -0.11448044080102783 0.9913201100594384 -0.11448044080102768 0.0024549126493601525 0.005909720828712648
4400000000.0 0.002482614594957855 0.006045124103416332 0.991007120903797 -0.11713018793120104 0.9910071209037966 -0.1171301879311997 0.0024826145949580214 0.006045124103416717
4500000000.0 0.0025110488008073806 0.00618037529058971 0.9906870303922279 -0.119779074127982 0.9906870303922277 -0.1197790741279816 0.0025110488008072696 0.006180375290590815
4600000000.0 0.0025402144325669673 0.006315470449230696 0.9903598409376364 -0.12242708020844142 0.9903598409376368 -0.12242708020844137 0.0025402144325671894 0.006315470449230645
4700000000.0 0.002570110634682432 0.006450405642924512 0.990025555005962 -0.1250741869967775 0.9900255550059618 -0.1250741869967771 0.0025701106346822655 0.006450405642925338
4800000000.0 0.002600736530410097 0.006585176939963756 0.9896841751161534 -0.1277203753244831 0.9896841751161536 -0.12772037532448205 0.0026007365304102636 0.006585176939964755
4900000000.0 0.0026320912218448234 0.006719780413464742 0.989335703840146 -0.13036562603048774 0.9893357038401467 -0.13036562603048743 0.0026320912218451564 0.006719780413464816
5000000000.0 0.0026641737899465445 0.006854212141473262 0.9889801438028372 -0.13300991996132713 0.988980143802837 -0.13300991996132716 0.0026641737899464335 0.00685421214147338
5100000000.0 0.0026977168751391445 0.006988362202116344 0.9886167620496056 -0.13565313168798943 0.9886167620496052 -0.13565313168799037 0.002697716875139089 0.0069883622021152505
5200000000.0 0.002731985134253656 0.007122328590476339 0.9882462975840878 -0.13829534422500078 0.988246297584088 -0.13829534422499962 0.002731985134253878 0.007122328590477022
5300000000.0 0.002766977562021433 0.007256107405233404 0.9878687532083932 -0.1409365384458749 0.987868753208393 -0.14093653844587473 0.0027669775620211 0.007256107405233412
5400000000.0 0.0028026931321789017 0.007389694750583918 0.9874841317774674 -0.1435766952324423 0.9874841317774676 -0.14357669523244182 0.0028026931321790682 0.0073896947505842836
5500000000.0 0.002839130797506473 0.007523086736358639 0.9870924361990658 -0.1462157954749875 0.9870924361990662 -0.14621579547498847 0.002839130797506584 0.007523086736357838
5600000000.0 0.0028762894898530234 0.007656279478136022 0.986693669433724 -0.1488538200724202 0.9866936694337247 -0.14885382007242012 0.0028762894898533564 0.007656279478136407
5700000000.0 0.0029141681201720893 0.00778926909735661 0.9862878344947292 -0.15149074993241662 0.9862878344947292 -0.15149074993241746 0.0029141681201719227 0.007789269097355923
5800000000.0 0.0029527655785500095 0.00792205172142841 0.9858749344480883 -0.1541265659715858 0.9858749344480882 -0.15412656597158547 0.002952765578550176 0.00792205172142856
5900000000.0 0.0029920807342432854 0.008054623483849822 0.9854549724125006 -0.15676124911561318 0.9854549724125006 -0.15676124911561273 0.0029920807342432854 0.008054623483850549
6000000000.0 0.00303211243571061 0.00818698052431884 0.9850279515593245 -0.15939478029943033 0.9850279515593241 -0.15939478029943138 0.0030321124357102214 0.008186980524317614
6100000000.0 0.0030728595106441214 0.008319118988833602 0.9845938751125473 -0.16202714046735767 0.9845938751125479 -0.16202714046735656 0.003072859510644621 0.008319118988834672
6200000000.0 0.0031143207660114247 0.008451035029827643 0.9841527463487538 -0.16465831057325697 0.9841527463487543 -0.16465831057325697 0.0031143207660118133 0.008451035029827697
6300000000.0 0.0031564949880838467 0.008582724806261348 0.983704568597092 -0.1672882715807018 0.9837045685970918 -0.16728827158070203 0.003156494988083569 0.008582724806261734
6400000000.0 0.0031993809424744613 0.008714184483740109 0.9832493452392417 -0.1699170044631112 0.9832493452392417 -0.16991700446311103 0.0031993809424742947 0.008714184483740315
6500000000.0 0.0032429773741787238 0.008845410234634088 0.98278707970938 -0.17254449020392107 0.9827870797093797 -0.17254449020392185 0.0032429773741786683 0.008845410234632839
6600000000.0 0.0032872830076068893 0.008976398238172187 0.9823177754941487 -0.17517070979672775 0.9823177754941483 -0.17517070979672825 0.0032872830076066117 0.008976398238171434
6700000000.0 0.0033322965466237586 0.009107144680569907 0.9818414361326175 -0.17779564424544486 0.9818414361326179 -0.17779564424544436 0.003332296546623925 0.009107144680570407
6800000000.0 0.0033780166745889795 0.009237645755133897 0.9813580652162521 -0.18041927456445694 0.9813580652162519 -0.180419274564457 0.0033780166745890905 0.009237645755134197
6900000000.0 0.003424442054392518 0.00936789766236832 0.9808676663888751 -0.18304158177877278 0.9808676663888753 -0.18304158177877405 0.003424442054392518 0.009367897662367036
7000000000.0 0.0034715713284976246 0.009497896610089589 0.9803702433466329 -0.18566254692418177 0.9803702433466328 -0.1856625469241824 0.003471571328497569 0.009497896610088931
7100000000.0 0.0035194031189792474 0.00962763881353744 0.9798657998379565 -0.18828215104740081 0.9798657998379565 -0.18828215104740093 0.0035194031189794694 0.00962763881353762
7200000000.0 0.0035679360275666094 0.009757120495485369 0.9793543396635265 -0.1909003752062331 0.9793543396635267 -0.19090037520623293 0.003567936027566665 0.00975712049548581
7300000000.0 0.003617168635682788 0.009886337886343702 0.9788358666762348 -0.1935172004697171 0.9788358666762345 -0.193517200469716 0.0036171686356826216 0.009886337886344989
7400000000.0 0.003667099504487792 0.010015287224279856 0.9783103847811451 -0.1961326079182795 0.9783103847811452 -0.19613260791827936 0.003667099504488125 0.010015287224279773
7500000000.0 0.0037177271749232466 0.01014396475531687 0.9777778979354566 -0.1987465786438957 0.9777778979354559 -0.19874657864389647 0.0037177271749228025 0.010143964755316398
7600000000.0 0.0037690501677506982 0.010272366733447814 0.9772384101484622 -0.20135909375022726 0.9772384101484617 -0.20135909375022742 0.003769050167750143 0.010272366733447507
7700000000.0 0.0038210669836002964 0.010400489420745866 0.976691925481511 -0.20397013435278954 0.9766919254815112 -0.2039701343527887 0.003821066983600574 0.010400489420746124
7800000000.0 0.003873776103014648 0.010528329087470034 0.9761384480479675 -0.20657968157908885 0.9761384480479675 -0.2065796815790889 0.003873776103014759 0.010528329087469777
7900000000.0 0.003927175986491227 0.010655882012175124 0.9755779820131696 -0.20918771656878915 0.9755779820131694 -0.20918771656878946 0.0039271759864912825 0.0106558820121752
8000000000.0 0.003981265074530893 0.01078314448181663 0.9750105315943882 -0.2117942204738551 0.9750105315943882 -0.21179422047385404 0.0039812650745307265 0.010783144481817893
8100000000.0 0.00403604178768191 0.010910112791867422 0.9744361010607868 -0.214399174458699 0.9744361010607863 -0.21439917445869983 0.004036041787681521 0.010910112791867007
8200000000.0 0.0040915045265877414 0.011036783246409457 0.9738546947333764 -0.2170025597003468 0.9738546947333765 -0.21700255970034743 0.00409150452658763 0.01103678324640893
8300000000.0 0.00414765167203629 0.011163152158257637 0.9732663169849756 -0.21960435738857495 0.9732663169849753 -0.21960435738857548 0.004147651672036234 0.011163152158257122
8400000000.0 0.004204481585005082 0.011289215849056046 0.972670972240165 -0.2222045487260691 0.9726709722401645 -0.22220454872606873 0.004204481585004971 0.011289215849056039
8500000000.0 0.004261992606710452 0.01141497064939018 0.9720686649752446 -0.2248031149285699 0.972068664975245 -0.22480311492856955 0.004261992606710618 0.011414970649390618
8600000000.0 0.0043201830586588885 0.011540412898890715 0.9714593997181906 -0.22740003722502958 0.9714593997181905 -0.22740003722502933 0.0043201830586589995 0.011540412898891166
8700000000.0 0.00437905124269411 0.011665538946340086 0.9708431810486069 -0.2299952968577564 0.970843181048607 -0.229995296857757 0.004379051242693999 0.011665538946339576
8800000000.0 0.004438595441048854 0.011790345149778485 0.9702200135976846 -0.23258887508257142 0.9702200135976843 -0.23258887508257103 0.004438595441048854 0.011790345149778787
8900000000.0 0.004498813916394617 0.011914827876610067 0.9695899020481527 -0.23518075316894685 0.9695899020481524 -0.23518075316894715 0.004498813916394395 0.01191482787661019
9000000000.0 0.004559704911895002 0.012038983503709142 0.9689528511342329 -0.23777091240017137 0.9689528511342328 -0.2377709124001715 0.004559704911894835 0.012038983503709105
9100000000.0 0.004621266651256395 0.01216280841752145 0.9683088656415935 -0.24035933407348686 0.968308865641593 -0.2403593340734867 0.004621266651256284 0.012162808417521678
9200000000.0 0.004683497338780651 0.01228629901417418 0.9676579504073002 -0.24294599950024415 0.9676579504073003 -0.24294599950024387 0.004683497338780762 0.012286299014174183
9300000000.0 0.004746395159418881 0.01240945169957516 0.9670001103197718 -0.245530890006051 0.9670001103197718 -0.24553089000605033 0.004746395159419159 0.012409451699575306
9400000000.0 0.004809958278825355 0.012532262889522229 0.9663353503187275 -0.2481139869309188 0.9663353503187275 -0.24811398693091904 0.004809958278825133 0.01253226288952216
9500000000.0 0.004874184843409679 0.012654729009802228 0.965663675395142 -0.25069527162941546 0.965663675395142 -0.25069527162941585 0.004874184843409457 0.012654729009801967
9600000000.0 0.004939072980394255 0.01277684649629843 0.9649850905911938 -0.25327472547080976 0.9649850905911936 -0.25327472547080987 0.004939072980394477 0.012776846496298275
9700000000.0 0.0050046207978701185 0.012898611795090822 0.9642996010002157 -0.25585232983922335 0.9642996010002152 -0.25585232983922257 0.0050046207978701185 0.012898611795090992
9800000000.0 0.005070826384849181 0.013020021362561376 0.9636072117666462 -0.2584280661337735 0.9636072117666461 -0.2584280661337738 0.005070826384849125 0.013020021362560814
9900000000.0 0.005137687811325231 0.01314107166549492 0.9629079280859775 -0.261001915768728 0.9629079280859772 -0.2610019157687286 0.005137687811324898 0.01314107166549457
10000000000.0 0.005205203128327118 0.013261759181181956 0.9622017552047039 -0.2635738601736485 0.9622017552047036 -0.2635738601736476 0.005205203128327174 0.01326175918118273
10100000000.0 0.0052810917520826894 0.0133798250724117 0.9614808911796888 -0.26614160248735363 0.9614808911796892 -0.26614160248735397 0.0052810917520828005 0.013379825072411502
10200000000.0 0.005357613267805261 0.013497479020725704 0.9607531623537865 -0.26870735897780346 0.9607531623537866 -0.2687073589778036 0.005357613267805317 0.013497479020725227
10300000000.0 0.005434765437461075 0.013614717644663647 0.9600185743175312 -0.27127111119132996 0.9600185743175313 -0.2712711111913302 0.005434765437460964 0.013614717644663684
10400000000.0 0.005512546004956875 0.013731537574972558 0.9592771327118674 -0.2738328406909797 0.9592771327118674 -0.27383284069097946 0.005512546004956376 0.01373153757497295
10500000000.0 0.00559095269620552 0.013847935454700044 0.9585288432280916 -0.2763925290566568 0.958528843228092 -0.27639252905665657 0.005590952696205798 0.013847935454700214
10600000000.0 0.0056699832191970945 0.013963907939290036 0.9577737116077951 -0.2789501578852674 0.9577737116077947 -0.27895015788526734 0.005669983219196928 0.013963907939290223
10700000000.0 0.005749635264062081 0.014079451696681736 0.9570117436428032 -0.2815057087908617 0.957011743642803 -0.2815057087908621 0.005749635264061803 0.014079451696681584
10800000000.0 0.005829906503143245 0.014194563407401689 0.9562429451751189 -0.28405916340477966 0.9562429451751188 -0.28405916340477955 0.005829906503143134 0.014194563407401588
10900000000.0 0.005910794591064861 0.014309239764662161 0.9554673220968626 -0.28661050337579064 0.9554673220968627 -0.28661050337579097 0.005910794591064472 0.014309239764661866
11000000000.0 0.005992297164800875 0.014423477474452693 0.9546848803502103 -0.2891597103702412 0.9546848803502104 -0.28915971037024146 0.005992297164801097 0.014423477474452336
11100000000.0 0.0060744118437471295 0.01453727325563664 0.9538956259273362 -0.2917067660721909 0.9538956259273359 -0.29170676607219115 0.0060744118437470185 0.0145372732556363
11200000000.0 0.006157136229789029 0.01465062384004413 0.9530995648703482 -0.2942516521835612 0.953099564870348 -0.294251652183561 0.006157136229789029 0.014650623840044546
