! Created with skrf (http://scikit-rf.org).
# Hz S RI R 50.0 
!freq ReS11 ImS11 ReS21 ImS21 ReS12 ImS12 ReS22 ImS22
100000000.0 0.0015069882769837561 -0.0004411137923467411 0.9984835662111604 -0.0030574946225767063 0.9984835662111604 -0.0030574946225666155 0.0015069882769837006 -0.00044111379231714535
300299401.1976048 0.0014724864516366676 -0.0013243998960530102 0.9984623190628548 -0.009181636697752332 0.9984623190628548 -0.009181636697748439 0.0014724864516367786 -0.0013243998960508056
500598802.3952096 0.0014271945811445974 -0.0022072250428140177 0.9984027365078642 -0.015305565300642109 0.9984027365078644 -0.015305565300645134 0.0014271945811447084 -0.0022072250428185063
700898203.5928144 0.0013711189774237575 -0.003089455805052512 0.9983048217114043 -0.02142902637786688 0.9983048217114046 -0.02142902637787137 0.0013711189774237575 -0.003089455805056727
901197604.7904192 0.0013042676365370154 -0.003970958845835625 0.9981685797762065 -0.027551765933975902 0.9981685797762065 -0.027551765933977547 0.001304267636537071 -0.003970958845835527
1101497005.988024 0.0012379952428464014 -0.004851928713895161 0.9979826699209597 -0.03367320216372284 0.99798266992096 -0.033673202163724145 0.0012379952428466234 -0.00485192871389468
1301796407.185629 0.0011720050277547744 -0.005732400732472876 0.9977474060064876 -0.03979291261900933 0.9977474060064878 -0.039792912619006394 0.001172005027755052 -0.005732400732469249
1502095808.3832335 0.0010952618567497963 -0.006611980779794531 0.9974738478532849 -0.04591090469479392 0.9974738478532847 -0.04591090469479451 0.0010952618567496297 -0.006611980779794781
1702395209.5808384 0.0010077779424646494 -0.007490535954952689 0.9971620097116136 -0.0520269247862762 0.9971620097116136 -0.0520269247862767 0.0010077779424646494 -0.0074905359549526495
1902694610.7784433 0.0009095671737507915 -0.008367933529389922 0.9968119077630141 -0.05814071943984285 0.996811907763014 -0.05814071943984189 0.0009095671737505695 -0.00836793352938924
2102994011.976048 0.0008006451130963543 -0.009244040968879038 0.9964235601181402 -0.06425203537210272 0.9964235601181402 -0.06425203537210597 0.0008006451130958547 -0.009244040968882827
2303293413.1736526 0.0006810289937407843 -0.01011872595539467 0.9959969868143441 -0.07036061948894759 0.9959969868143441 -0.07036061948894647 0.0006810289937411174 -0.010118725955394571
2503592814.371258 0.0005507377164898908 -0.010991856408954654 0.9955322098130011 -0.076466218904495 0.9955322098130006 -0.07646621890449494 0.0005507377164897242 -0.010991856408954389
2703892215.5688624 0.00040979184621436904 -0.011863300509424215 0.9950292529965831 -0.08256858096005149 0.9950292529965833 -0.08256858096005026 0.0004097918462145911 -0.011863300509423963
2904191616.766467 0.0002582136080576114 -0.01273292671824193 0.9944881421654796 -0.08866745324298601 0.9944881421654799 -0.08866745324298672 0.00025821360805788895 -0.012732926718242256
3104491017.964072 9.602688333298914e-05 -0.013600603800112916 0.993908905034564 -0.09476258360555254 0.9939089050345635 -0.0947625836055522 9.602688333271159e-05 -0.013600603800113072
3304790419.161677 -7.674279487790425e-05 -0.014466200844596202 0.9932915712295083 -0.1008537201836614 0.9932915712295083 -0.10085372018366115 -7.674279487768221e-05 -0.014466200844596178
3505089820.3592815 -0.00026006824642316184 -0.015329587287658226 0.9926361722828532 -0.10694061141558366 0.9926361722828533 -0.10694061141558324 -0.0002600682464229398 -0.015329587287657185
3705389221.5568867 -0.0004539206490835612 -0.016190632933133636 0.9919427416298232 -0.11302300606058166 0.9919427416298232 -0.11302300606058159 -0.00045392064908361673 -0.016190632933133855
3905688622.7544913 -0.0006582695438692721 -0.01704920797411319 0.9912113146038989 -0.11910065321747121 0.9912113146038991 -0.11910065321747045 -0.0006582695438693276 -0.017049207974112322
4105988023.952096 -0.0008730828406118274 -0.017905183014239948 0.990441928432141 -0.12517330234310556 0.9904419284321405 -0.12517330234310658 -0.0008730828406120494 -0.017905183014241106
4306287425.149701 -0.0010983268238535238 -0.018758429088923292 0.9896346222302701 -0.13124070327078816 0.98963462223027 -0.1312407032707874 -0.0010983268238534127 -0.01875842908892271
4506586826.347305 -0.0013339661590242025 -0.019608817686456642 0.9887894369975065 -0.13730260622857715 0.9887894369975062 -0.13730260622857715 -0.0013339661590243135 -0.019608817686456663
4706886227.54491 -0.0015799638989186238 -0.020456220769045734 0.9879064156111668 -0.143358761857527 0.9879064156111667 -0.14335876185752738 -0.0015799638989185683 -0.02045622076904651
4907185628.742516 -0.0018362814904511748 -0.021300510793722513 0.9869856028210191 -0.14940892122982408 0.9869856028210189 -0.14940892122982358 -0.0018362814904510638 -0.021300510793722104
5107485029.94012 -0.0021033796177560293 -0.022141493280925933 0.9860275487323502 -0.1554529038033492 0.9860275487323498 -0.1554529038033495 -0.002103379617756196 -0.022141493280926204
5307784431.137725 -0.0023811467791690633 -0.02297904347718009 0.9850322322962999 -0.161490459930826 0.9850322322962994 -0.16149045993082548 -0.0023811467791691743 -0.022979043477179814
5508083832.33533 -0.002669106662060161 -0.02381309146167707 0.9839992687814445 -0.16752128572611372 0.983999268781445 -0.1675212857261138 -0.00266910666206005 -0.023813091461676657
5708383233.532934 -0.0029672142609790675 -0.02464351190233415 0.9829287103043068 -0.17354513416692283 0.9829287103043065 -0.17354513416692255 -0.002967214260979345 -0.024643511902334263
5908682634.730539 -0.0032754230030239695 -0.025470180065954785 0.9818206108218751 -0.17956175875127534 0.981820610821875 -0.1795617587512756 -0.0032754230030239695 -0.02547018006595498
6108982035.928144 -0.003593684756307558 -0.026292971838429127 0.9806750261245596 -0.1855709135150047 0.9806750261245596 -0.185570913515004 -0.003593684756307447 -0.026292971838428186
6309281437.125749 -0.00392194983870553 -0.027111763744818183 0.9794920138289192 -0.1915723530491234 0.9794920138289187 -0.19157235304912354 -0.003921949838705807 -0.027111763744818267
6509580838.323354 -0.0042601670268746505 -0.02792643296930326 0.978271633370165 -0.19756583251707938 0.9782716333701651 -0.19756583251707815 -0.0042601670268745395 -0.02792643296930223
6709880239.520959 -0.004608283565537663 -0.02873685737497924 0.9770139459944499 -0.20355110767186801 0.9770139459944498 -0.20355110767186838 -0.004608283565537996 -0.02873685737497949
6910179640.718563 -0.004966245177043915 -0.029542915523527467 0.9757190147509323 -0.20952793487303478 0.9757190147509318 -0.2095279348730347 -0.004966245177043915 -0.02954291552352796
7110479041.916168 -0.005333996071185898 -0.030344486694719904 0.9743869044836302 -0.2154960711035206 0.9743869044836295 -0.2154960711035202 -0.00533399607118612 -0.030344486694719584
7310778443.113773 -0.0057114789552861756 -0.031141450905783352 0.9730176818230611 -0.22145527398639053 0.9730176818230607 -0.22145527398639087 -0.00571147895528662 -0.031141450905783928
7511077844.311378 -0.006098635044540723 -0.03193368893060847 0.9716114151776731 -0.227405301801407 0.9716114151776731 -0.22740530180140653 -0.006098635044540446 -0.03193368893060789
7711377245.508983 -0.006495404072617228 -0.03272108231878551 0.9701681747250662 -0.2333459135014646 0.9701681747250659 -0.2333459135014651 -0.0064954040726172835 -0.032721082318786086
7911676646.706588 -0.006901724302513845 -0.03350351341450136 0.9686880324030102 -0.23927686872888215 0.96868803240301 -0.23927686872888226 -0.006901724302514289 -0.03350351341450117
8111976047.904192 -0.007317532537665872 -0.034280865375246466 0.9671710619002639 -0.2451979278315301 0.9671710619002645 -0.24519792783152966 -0.007317532537665372 -0.03428086537524572
8312275449.101797 -0.007742764133297164 -0.035053022190362354 0.9656173386471916 -0.25110885187881826 0.9656173386471916 -0.25110885187881815 -0.007742764133297275 -0.03505302219036219
8512574850.299402 -0.00817735300802852 -0.035819868699417695 0.9640269398061845 -0.2570094026775207 0.9640269398061847 -0.2570094026775216 -0.008177353008028687 -0.03581986869941814
8712874251.497007 -0.008621231655716766 -0.03658129061040168 0.9623999442618923 -0.26289934278744054 0.9623999442618927 -0.26289934278744054 -0.00862123165571671 -0.03658129061040155
8913173652.69461 -0.009074331157540416 -0.037337174517736285 0.9607364326112623 -0.26877843553690667 0.9607364326112624 -0.26877843553690733 -0.00907433115754025 -0.037337174517736826
9113473053.892216 -0.009536581194320104 -0.03808740792011028 0.959036487153391 -0.2746464450381213 0.9590364871533912 -0.2746464450381219 -0.009536581194320382 -0.03808740792011052
9313772455.08982 -0.010007910059073977 -0.038831879238119954 0.9573001918791961 -0.28050313620231326 0.9573001918791962 -0.280503136202313 -0.010007910059073921 -0.03883187923811965
9514071856.287426 -0.010488244669798363 -0.03957047783172069 0.9555276324609043 -0.2863482747547462 0.9555276324609042 -0.2863482747547462 -0.010488244669798474 -0.03957047783172074
9714371257.485031 -0.01097751058248303 -0.04030309401748854 0.9537188962413643 -0.2921816272495338 0.9537188962413645 -0.2921816272495336 -0.010977510582482697 -0.040303094017488474
9914670658.682636 -0.011475632004341652 -0.04102961908567862 0.9518740722231862 -0.2980029610842835 0.9518740722231863 -0.2980029610842837 -0.011475632004341485 -0.04102961908567877
10114970059.88024 -0.0119780918841087 -0.04175114941843041 0.9499887208751219 -0.30381080694984847 0.9499887208751223 -0.30381080694984824 -0.011978091884108588 -0.0417511494184299
10315269461.077845 -0.012485979958326676 -0.04246732979019154 0.9480641168414923 -0.3096051857052218 0.9480641168414923 -0.30960518570522116 -0.012485979958326787 -0.042467329790190966
10515568862.27545 -0.01300251878110642 -0.04317717727892272 0.9461037206837398 -0.315386767642937 0.9461037206837395 -0.31538676764293694 -0.013002518781106587 -0.04317717727892271
10715868263.473055 -0.01352762810174496 -0.0438805868517403 0.9441076285165456 -0.32115532367395727 0.9441076285165457 -0.32115532367395716 -0.013527628101744571 -0.04388058685174048
10916167664.67066 -0.01406122638498436 -0.044577454523335745 0.9420759380610644 -0.32691062562451706 0.9420759380610642 -0.326910625624517 -0.014061226384984471 -0.0445774545233357
11116467065.868265 -0.014603230825425195 -0.045267677371880165 0.9400087486331383 -0.33265244624974577 0.9400087486331384 -0.3326524462497457 -0.014603230825425417 -0.04526767737188008
11316766467.065868 -0.015153557362136028 -0.045951153554710605 0.9379061611313655 -0.3383805592471044 0.9379061611313657 -0.33838055924710453 -0.015153557362135806 -0.04595115355471069
11517065868.263474 -0.015712120693462672 -0.046627782323800264 0.935768278025016 -0.3440947392696251 0.9357682780250163 -0.34409473926962525 -0.015712120693462617 -0.046627782323800465
11717365269.461079 -0.01627883429203214 -0.047297464041003115 0.933595203341806 -0.34979476193895753 0.9335952033418062 -0.3497947619389574 -0.01627883429203203 -0.047297464041003184
11917664670.658684 -0.016853610419944265 -0.047960100193081986 0.9313870426555307 -0.35548040385821045 0.9313870426555306 -0.35548040385821045 -0.016853610419944376 -0.047960100193082264
12117964071.856289 -0.017436360144150898 -0.04861559340650315 0.9291439030735593 -0.361151442624602 0.9291439030735595 -0.36115144262460225 -0.017436360144150842 -0.04861559340650355
12318263473.053894 -0.01802699335201574 -0.04926384746201186 0.926865893224199 -0.3668076568419019 0.9268658932241987 -0.3668076568419022 -0.018026993352015963 -0.049263847462011956
12518562874.251497 -0.018625418767056034 -0.04990476730896801 0.924553123243925 -0.37244882613267005 0.9245531232439255 -0.37244882613267005 -0.018625418767055923 -0.04990476730896789
12718862275.449102 -0.01923154396485416 -0.05053825907945736 0.9222057047644909 -0.37807473115029444 0.9222057047644909 -0.3780747311502946 -0.019231543964854214 -0.05053825907945722
12919161676.646708 -0.01984527538914571 -0.051164230102163366 0.9198237508999111 -0.3836851535908163 0.9198237508999108 -0.38368515359081645 -0.019845275389145933 -0.051164230102163644
13119461077.844313 -0.020466518368071007 -0.05178258891600489 0.9174073762333277 -0.3892798762045493 0.9174073762333277 -0.38927987620454935 -0.02046651836807084 -0.051782588916005026
13319760479.041918 -0.02109517713058906 -0.052393245283532675 0.914956696803765 -0.39485868280749203 0.9149566968037652 -0.39485868280749215 -0.021095177130589227 -0.05239324528353256
13520059880.239521 -0.021731154823055765 -0.05299611020408826 0.9124718300927699 -0.4004213582925201 0.9124718300927696 -0.40042135829252024 -0.021731154823055543 -0.05299611020408858
13720359281.437126 -0.02237435352595052 -0.05359109592671919 0.9099528950109448 -0.40596768864037736 0.9099528950109448 -0.4059676886403778 -0.022374353525950574 -0.05359109592671957
13920658682.634731 -0.023024674270761603 -0.05417811596285042 0.9074000118843848 -0.4114974609304425 0.9074000118843851 -0.4114974609304425 -0.02302467427076127 -0.05417811596285038
14120958083.832336 -0.023682017057011784 -0.05475708509870731 0.9048133024410079 -0.4170104633512872 0.9048133024410077 -0.4170104633512869 -0.02368201705701173 -0.05475708509870706
14321257485.029942 -0.02434628086943319 -0.05532791940749561 0.9021928897967921 -0.42250648521101575 0.9021928897967921 -0.42250648521101575 -0.024346280869433023 -0.05532791940749562
14521556886.227547 -0.025017363695278516 -0.05589053626133195 0.8995388984419272 -0.4279853169473886 0.899538898441927 -0.4279853169473886 -0.025017363695278794 -0.05589053626133178
14721856287.42515 -0.025695162541769234 -0.05644485434291894 0.8968514542268711 -0.43344675013772593 0.8968514542268707 -0.43344675013772577 -0.025695162541769567 -0.05644485434291881
14922155688.622755 -0.0263795734536737 -0.05699079365697499 0.8941306843483274 -0.4388905775085943 0.8941306843483277 -0.43889057750859434 -0.026379573453673533 -0.056990793656975104
15122455089.82036 -0.027070491531012708 -0.05752827554140671 0.8913767173351452 -0.4443165929452735 0.8913767173351451 -0.4443165929452732 -0.027070491531012708 -0.057528275541406576
15322754491.017965 -0.027767810946891736 -0.058057222678227785 0.8885896830341389 -0.4497245915010001 0.888589683034139 -0.4497245915010003 -0.027767810946891847 -0.05805722267822801
15523053892.21557 -0.02847142496544869 -0.058577559104226226 0.8857697125958408 -0.4551143694059968 0.8857697125958404 -0.4551143694059965 -0.02847142496544902 -0.05857755910422585
15723353293.413176 -0.029181225959917734 -0.05908921022136603 0.8829169384601832 -0.4604857240762696 0.8829169384601835 -0.4604857240762698 -0.029181225959917734 -0.05908921022136626
15923652694.610779 -0.02989710543080537 -0.059592102806943284 0.8800314943421204 -0.46583845412219593 0.8800314943421206 -0.46583845412219577 -0.02989710543080515 -0.05959210280694328
16123952095.808384 -0.030618954024173917 -0.06008616502347236 0.877113515217187 -0.4711723593568789 0.8771135152171872 -0.4711723593568793 -0.030618954024173806 -0.06008616502347271
16324251497.00599 -0.03134666155002702 -0.06057132642832107 0.8741631373070038 -0.4764872408042867 0.8741631373070038 -0.4764872408042867 -0.0313466615500268 -0.060571326428321144
16524550898.203594 -0.032080117000794994 -0.06104751798307834 0.8711804980647314 -0.4817829007071634 0.871180498064732 -0.4817829007071637 -0.03208011700079477 -0.061047517983078524
16724850299.4012 -0.032819208569914216 -0.061514672062668904 0.8681657361604754 -0.48705914253472204 0.8681657361604758 -0.48705914253472216 -0.032819208569914216 -0.06151467206266886
16925149700.598804 -0.03356382367049998 -0.06197272246419869 0.8651189914666478 -0.4923157709901105 0.8651189914666476 -0.4923157709901105 -0.03356382367049998 -0.061972722464198826
17125449101.796408 -0.03431384895410278 -0.062421604415542224 0.8620404050432882 -0.497552592017656 0.8620404050432884 -0.4975525920176563 -0.03431384895410272 -0.062421604415542245
17325748502.994015 -0.03506917032955065 -0.06286125458366637 0.8589301191233523 -0.5027694128098873 0.8589301191233523 -0.5027694128098879 -0.035069170329550925 -0.06286125458366669
17526047904.19162 -0.03582967298186929 -0.0632916110826923 0.8557882770979621 -0.5079660418143306 0.855788277097962 -0.5079660418143301 -0.035829672981869065 -0.06329161108269181
17726347305.38922 -0.03659524139127496 -0.06371261348168683 0.8526150235016339 -0.5131422887400858 0.8526150235016343 -0.5131422887400859 -0.0365952413912749 -0.06371261348168691
17926646706.586826 -0.03736575935224373 -0.06412420281220171 0.8494105039974794 -0.5182979645641812 0.84941050399748 -0.5182979645641814 -0.03736575935224329 -0.06412420281220209
18126946107.78443 -0.0381411099926407 -0.06452632157553806 0.8461748653623854 -0.5234328815377027 0.8461748653623856 -0.5234328815377026 -0.038141109992640365 -0.06452632157553823
18327245508.982037 -0.03892117579291787 -0.06491891374975024 0.8429082554721788 -0.5285468531917005 0.8429082554721787 -0.5285468531917005 -0.03892117579291787 -0.06491891374975019
18527544910.17964 -0.039705838605368304 -0.065301924796386 0.8396108232867769 -0.5336396943428825 0.8396108232867768 -0.5336396943428825 -0.03970583860536836 -0.06530192479638597
18727844311.377247 -0.04049497967343507 -0.06567530166696181 0.8362827188353312 -0.5387112210990768 0.836282718835331 -0.5387112210990768 -0.040494979673435294 -0.06567530166696164
18928143712.574852 -0.04128847965107235 -0.06603899280917175 0.8329240932013635 -0.5437612508644811 0.8329240932013635 -0.5437612508644813 -0.04128847965107252 -0.06603899280917176
19128443113.772457 -0.04208621862215284 -0.06639294817283356 0.8295350985079012 -0.5487896023446902 0.8295350985079013 -0.5487896023446903 -0.04208621862215295 -0.06639294817283353
19328742514.970062 -0.04288807611991874 -0.06673711921557032 0.8261158879026145 -0.5537960955515053 0.8261158879026143 -0.5537960955515051 -0.04288807611991885 -0.06673711921557035
19529041916.167667 -0.043693931146473686 -0.06707145890822627 0.8226666155429616 -0.5587805518075252 0.8226666155429615 -0.5587805518075253 -0.0436939311464738 -0.06707145890822637
19729341317.365273 -0.044503662192305615 -0.06739592174001967 0.8191874365813403 -0.5637427937505225 0.8191874365813403 -0.5637427937505224 -0.04450366219230556 -0.06739592174001974
19929640718.562874 -0.04531714725584729 -0.06771046372343428 0.8156785071502552 -0.568682645337601 0.8156785071502552 -0.568682645337601 -0.04531714725584729 -0.06771046372343446
20129940119.76048 -0.046134263863060465 -0.06801504239884301 0.8121399843474999 -0.5735999318491418 0.8121399843475 -0.5735999318491419 -0.046134263863060465 -0.06801504239884319
20330239520.958084 -0.046954889087045315 -0.06830961683887245 0.8085720262213618 -0.5784944798925326 0.8085720262213614 -0.5784944798925322 -0.04695488908704537 -0.06830961683887232
20530538922.15569 -0.04777889956767051 -0.06859414765250252 0.8049747917558485 -0.5833661174056851 0.8049747917558485 -0.583366117405685 -0.04777889956767056 -0.06859414765250245
20730838323.353294 -0.04860617153121949 -0.06886859698890843 0.8013484408559437 -0.5882146736603445 0.8013484408559439 -0.5882146736603444 -0.04860617153121938 -0.06886859698890813
20931137724.5509 -0.0494365808100502 -0.06913292854103664 0.797693134332893 -0.593039979265183 0.7976931343328927 -0.5930399792651826 -0.04943658081005031 -0.06913292854103642
21131437125.748505 -0.050270002862263186 -0.06938710754892247 0.7940090338895227 -0.5978418661686902 0.7940090338895228 -0.5978418661686901 -0.050270002862262964 -0.06938710754892231
21331736526.94611 -0.05110631279137545 -0.06963110080275026 0.7902963021056011 -0.6026201676618522 0.7902963021056011 -0.6026201676618521 -0.05110631279137551 -0.06963110080275023
21532035928.143715 -0.05194538536599802 -0.0698648766456508 0.7865551024232353 -0.607374718380628 0.7865551024232352 -0.607374718380628 -0.05194538536599802 -0.06986487664565075
