! Touchstone Ver. 1.0
! Number of ports is 2
# Hz  S RI  R  	50
! SCATTERING PARAMETERS  :
 1.00000000e+08	 8.56285268e-04  4.18392928e-04  9.99142793e-01 -7.42988664e-04  9.99142793e-01 -7.42988664e-04  8.56285268e-04  4.18392928e-04 
 1.02329299e+08	 8.55574672e-04  4.28140212e-04  9.99143480e-01 -7.60296741e-04  9.99143480e-01 -7.60296741e-04  8.55574672e-04  4.28140212e-04 
 1.04712855e+08	 8.54847525e-04  4.38114539e-04  9.99144182e-01 -7.78007975e-04  9.99144182e-01 -7.78007975e-04  8.54847525e-04  4.38114539e-04 
 1.07151931e+08	 8.54103439e-04  4.48321199e-04  9.99144901e-01 -7.96131756e-04  9.99144901e-01 -7.96131756e-04  8.54103439e-04  4.48321199e-04 
 1.09647820e+08	 8.53342022e-04  4.58765601e-04  9.99145637e-01 -8.14677695e-04  9.99145637e-01 -8.14677695e-04  8.53342022e-04  4.58765601e-04 
 1.12201845e+08	 8.52562870e-04  4.69453286e-04  9.99146390e-01 -8.33655624e-04  9.99146390e-01 -8.33655624e-04  8.52562870e-04  4.69453286e-04 
 1.14815362e+08	 8.51765568e-04  4.80389918e-04  9.99147160e-01 -8.53075606e-04  9.99147160e-01 -8.53075606e-04  8.51765568e-04  4.80389918e-04 
 1.17489755e+08	 8.50949695e-04  4.91581298e-04  9.99147949e-01 -8.72947937e-04  9.99147949e-01 -8.72947937e-04  8.50949695e-04  4.91581298e-04 
 1.20226443e+08	 8.50114818e-04  5.03033358e-04  9.99148756e-01 -8.93283155e-04  9.99148756e-01 -8.93283155e-04  8.50114818e-04  5.03033358e-04 
 1.23026877e+08	 8.49260494e-04  5.14752171e-04  9.99149581e-01 -9.14092040e-04  9.99149581e-01 -9.14092040e-04  8.49260494e-04  5.14752171e-04 
 1.25892541e+08	 8.48386270e-04  5.26743950e-04  9.99150426e-01 -9.35385627e-04  9.99150426e-01 -9.35385627e-04  8.48386270e-04  5.26743950e-04 
 1.28824955e+08	 8.47491683e-04  5.39015053e-04  9.99151290e-01 -9.57175205e-04  9.99151290e-01 -9.57175205e-04  8.47491683e-04  5.39015053e-04 
 1.31825674e+08	 8.46576258e-04  5.51571987e-04  9.99152175e-01 -9.79472327e-04  9.99152175e-01 -9.79472327e-04  8.46576258e-04  5.51571987e-04 
 1.34896288e+08	 8.45639510e-04  5.64421410e-04  9.99153080e-01 -1.00228882e-03  9.99153080e-01 -1.00228882e-03  8.45639510e-04  5.64421410e-04 
 1.38038426e+08	 8.44680943e-04  5.77570134e-04  9.99154006e-01 -1.02563677e-03  9.99154006e-01 -1.02563677e-03  8.44680943e-04  5.77570134e-04 
 1.41253754e+08	 8.43700048e-04  5.91025132e-04  9.99154954e-01 -1.04952857e-03  9.99154954e-01 -1.04952857e-03  8.43700048e-04  5.91025132e-04 
 1.44543977e+08	 8.42696305e-04  6.04793536e-04  9.99155924e-01 -1.07397688e-03  9.99155924e-01 -1.07397688e-03  8.42696305e-04  6.04793536e-04 
 1.47910839e+08	 8.41669181e-04  6.18882648e-04  9.99156917e-01 -1.09899466e-03  9.99156917e-01 -1.09899466e-03  8.41669181e-04  6.18882648e-04 
 1.51356125e+08	 8.40618133e-04  6.33299937e-04  9.99157932e-01 -1.12459518e-03  9.99157932e-01 -1.12459518e-03  8.40618133e-04  6.33299937e-04 
 1.54881662e+08	 8.39542603e-04  6.48053049e-04  9.99158972e-01 -1.15079201e-03  9.99158972e-01 -1.15079201e-03  8.39542603e-04  6.48053049e-04 
 1.58489319e+08	 8.38442020e-04  6.63149804e-04  9.99160035e-01 -1.17759905e-03  9.99160035e-01 -1.17759905e-03  8.38442020e-04  6.63149804e-04 
 1.62181010e+08	 8.37315802e-04  6.78598208e-04  9.99161123e-01 -1.20503051e-03  9.99161123e-01 -1.20503051e-03  8.37315802e-04  6.78598208e-04 
 1.65958691e+08	 8.36163350e-04  6.94406451e-04  9.99162237e-01 -1.23310092e-03  9.99162237e-01 -1.23310092e-03  8.36163350e-04  6.94406451e-04 
 1.69824365e+08	 8.34984055e-04  7.10582916e-04  9.99163376e-01 -1.26182518e-03  9.99163376e-01 -1.26182518e-03  8.34984055e-04  7.10582916e-04 
 1.73780083e+08	 8.33777290e-04  7.27136179e-04  9.99164543e-01 -1.29121851e-03  9.99164543e-01 -1.29121851e-03  8.33777290e-04  7.27136179e-04 
 1.77827941e+08	 8.32542416e-04  7.44075017e-04  9.99165736e-01 -1.32129650e-03  9.99165736e-01 -1.32129650e-03  8.32542416e-04  7.44075017e-04 
 1.81970086e+08	 8.31278779e-04  7.61408412e-04  9.99166957e-01 -1.35207510e-03  9.99166957e-01 -1.35207510e-03  8.31278779e-04  7.61408412e-04 
 1.86208714e+08	 8.29985707e-04  7.79145553e-04  9.99168206e-01 -1.38357062e-03  9.99168206e-01 -1.38357062e-03  8.29985707e-04  7.79145553e-04 
 1.90546072e+08	 8.28662516e-04  7.97295845e-04  9.99169485e-01 -1.41579977e-03  9.99169485e-01 -1.41579977e-03  8.28662516e-04  7.97295845e-04 
 1.94984460e+08	 8.27308503e-04  8.15868911e-04  9.99170793e-01 -1.44877963e-03  9.99170793e-01 -1.44877963e-03  8.27308503e-04  8.15868911e-04 
 1.99526231e+08	 8.25922952e-04  8.34874600e-04  9.99172132e-01 -1.48252769e-03  9.99172132e-01 -1.48252769e-03  8.25922952e-04  8.34874600e-04 
 2.04173794e+08	 8.24531036e-04  8.54325920e-04  9.99173472e-01 -1.51706475e-03  9.99173472e-01 -1.51706475e-03  8.24531036e-04  8.54325920e-04 
 2.08929613e+08	 8.23109708e-04  8.74230660e-04  9.99174840e-01 -1.55240662e-03  9.99174840e-01 -1.55240662e-03  8.23109708e-04  8.74230660e-04 
 2.13796209e+08	 8.21655273e-04  8.94599040e-04  9.99176239e-01 -1.58857171e-03  9.99176239e-01 -1.58857171e-03  8.21655273e-04  8.94599040e-04 
 2.18776162e+08	 8.20166960e-04  9.15441862e-04  9.99177671e-01 -1.62557920e-03  9.99177671e-01 -1.62557920e-03  8.20166960e-04  9.15441862e-04 
 2.23872114e+08	 8.18643980e-04  9.36770174e-04  9.99179136e-01 -1.66344869e-03  9.99179136e-01 -1.66344869e-03  8.18643980e-04  9.36770174e-04 
 2.29086765e+08	 8.17085525e-04  9.58595287e-04  9.99180636e-01 -1.70220029e-03  9.99180636e-01 -1.70220029e-03  8.17085525e-04  9.58595287e-04 
 2.34422882e+08	 8.15490768e-04  9.80928773e-04  9.99182170e-01 -1.74185452e-03  9.99182170e-01 -1.74185452e-03  8.15490768e-04  9.80928773e-04 
 2.39883292e+08	 8.13858865e-04  1.00378247e-03  9.99183740e-01 -1.78243242e-03  9.99183740e-01 -1.78243242e-03  8.13858865e-04  1.00378247e-03 
 2.45470892e+08	 8.12188951e-04  1.02716850e-03  9.99185347e-01 -1.82395550e-03  9.99185347e-01 -1.82395550e-03  8.12188951e-04  1.02716850e-03 
 2.51188643e+08	 8.10480139e-04  1.05109926e-03  9.99186991e-01 -1.86644577e-03  9.99186991e-01 -1.86644577e-03  8.10480139e-04  1.05109926e-03 
 2.57039578e+08	 8.08731523e-04  1.07558744e-03  9.99188673e-01 -1.90992577e-03  9.99188673e-01 -1.90992577e-03  8.08731523e-04  1.07558744e-03 
 2.63026799e+08	 8.06942177e-04  1.10064602e-03  9.99190395e-01 -1.95441856e-03  9.99190395e-01 -1.95441856e-03  8.06942177e-04  1.10064602e-03 
 2.69153480e+08	 8.05111152e-04  1.12628830e-03  9.99192156e-01 -1.99994771e-03  9.99192156e-01 -1.99994771e-03  8.05111152e-04  1.12628830e-03 
 2.75422870e+08	 8.03237477e-04  1.15252785e-03  9.99193959e-01 -2.04653737e-03  9.99193959e-01 -2.04653737e-03  8.03237477e-04  1.15252785e-03 
 2.81838293e+08	 8.01320158e-04  1.17937861e-03  9.99195804e-01 -2.09421224e-03  9.99195804e-01 -2.09421224e-03  8.01320158e-04  1.17937861e-03 
 2.88403150e+08	 7.99358179e-04  1.20685480e-03  9.99197691e-01 -2.14299761e-03  9.99197691e-01 -2.14299761e-03  7.99358179e-04  1.20685480e-03 
 2.95120923e+08	 7.97350500e-04  1.23497099e-03  9.99199623e-01 -2.19291933e-03  9.99199623e-01 -2.19291933e-03  7.97350500e-04  1.23497099e-03 
 3.01995172e+08	 7.95308445e-04  1.26374347e-03  9.99201585e-01 -2.24400524e-03  9.99201585e-01 -2.24400524e-03  7.95308445e-04  1.26374347e-03 
 3.09029543e+08	 7.93249826e-04  1.29318961e-03  9.99203557e-01 -2.29628453e-03  9.99203557e-01 -2.29628453e-03  7.93249826e-04  1.29318961e-03 
 3.16227766e+08	 7.91143255e-04  1.32332163e-03  9.99205574e-01 -2.34978156e-03  9.99205574e-01 -2.34978156e-03  7.91143255e-04  1.32332163e-03 
 3.23593657e+08	 7.88987616e-04  1.35415551e-03  9.99207639e-01 -2.40452469e-03  9.99207639e-01 -2.40452469e-03  7.88987616e-04  1.35415551e-03 
 3.31131121e+08	 7.86781766e-04  1.38570761e-03  9.99209751e-01 -2.46054296e-03  9.99209751e-01 -2.46054296e-03  7.86781766e-04  1.38570761e-03 
 3.38844156e+08	 7.84524534e-04  1.41799466e-03  9.99211913e-01 -2.51786606e-03  9.99211913e-01 -2.51786606e-03  7.84524534e-04  1.41799466e-03 
 3.46736850e+08	 7.82214726e-04  1.45103376e-03  9.99214125e-01 -2.57652438e-03  9.99214125e-01 -2.57652438e-03  7.82214726e-04  1.45103376e-03 
 3.54813389e+08	 7.79851114e-04  1.48484245e-03  9.99216388e-01 -2.63654903e-03  9.99216388e-01 -2.63654903e-03  7.79851114e-04  1.48484245e-03 
 3.63078055e+08	 7.77432448e-04  1.51943864e-03  9.99218705e-01 -2.69797184e-03  9.99218705e-01 -2.69797184e-03  7.77432448e-04  1.51943864e-03 
 3.71535229e+08	 7.74957443e-04  1.55484068e-03  9.99221075e-01 -2.76082537e-03  9.99221075e-01 -2.76082537e-03  7.74957443e-04  1.55484068e-03 
 3.80189396e+08	 7.72424788e-04  1.59106733e-03  9.99223501e-01 -2.82514294e-03  9.99223501e-01 -2.82514294e-03  7.72424788e-04  1.59106733e-03 
 3.89045145e+08	 7.69833140e-04  1.62813782e-03  9.99225983e-01 -2.89095867e-03  9.99225983e-01 -2.89095867e-03  7.69833140e-04  1.62813782e-03 
 3.98107171e+08	 7.67181124e-04  1.66607179e-03  9.99228522e-01 -2.95830743e-03  9.99228522e-01 -2.95830743e-03  7.67181124e-04  1.66607179e-03 
 4.07380278e+08	 7.64513175e-04  1.70489438e-03  9.99231068e-01 -3.02722994e-03  9.99231068e-01 -3.02722994e-03  7.64513175e-04  1.70489438e-03 
 4.16869383e+08	 7.61795112e-04  1.74462258e-03  9.99233658e-01 -3.09775918e-03  9.99233658e-01 -3.09775918e-03  7.61795112e-04  1.74462258e-03 
 4.26579519e+08	 7.59013736e-04  1.78527617e-03  9.99236309e-01 -3.16993124e-03  9.99236309e-01 -3.16993124e-03  7.59013736e-04  1.78527617e-03 
 4.36515832e+08	 7.56167575e-04  1.82687671e-03  9.99239022e-01 -3.24378441e-03  9.99239022e-01 -3.24378441e-03  7.56167575e-04  1.82687671e-03 
 4.46683592e+08	 7.53255117e-04  1.86944624e-03  9.99241798e-01 -3.31935785e-03  9.99241798e-01 -3.31935785e-03  7.53255117e-04  1.86944624e-03 
 4.57088190e+08	 7.50274820e-04  1.91300735e-03  9.99244638e-01 -3.39669161e-03  9.99244638e-01 -3.39669161e-03  7.50274820e-04  1.91300735e-03 
 4.67735141e+08	 7.47225103e-04  1.95758313e-03  9.99247545e-01 -3.47582671e-03  9.99247545e-01 -3.47582671e-03  7.47225103e-04  1.95758313e-03 
 4.78630092e+08	 7.44104348e-04  2.00319721e-03  9.99250519e-01 -3.55680510e-03  9.99250519e-01 -3.55680510e-03  7.44104348e-04  2.00319721e-03 
 4.89778819e+08	 7.40910902e-04  2.04987378e-03  9.99253563e-01 -3.63966972e-03  9.99253563e-01 -3.63966972e-03  7.40910902e-04  2.04987378e-03 
 5.01187234e+08	 7.37901113e-04  2.09763663e-03  9.99256418e-01 -3.72446355e-03  9.99256418e-01 -3.72446355e-03  7.37901113e-04  2.09763663e-03 
 5.12861384e+08	 7.37094510e-04  2.14650363e-03  9.99257055e-01 -3.81122403e-03  9.99257055e-01 -3.81122403e-03  7.37094510e-04  2.14650363e-03 
 5.24807460e+08	 7.36269118e-04  2.19650889e-03  9.99257708e-01 -3.90000542e-03  9.99257708e-01 -3.90000542e-03  7.36269118e-04  2.19650889e-03 
 5.37031796e+08	 7.35424500e-04  2.24767892e-03  9.99258375e-01 -3.99085480e-03  9.99258375e-01 -3.99085480e-03  7.35424500e-04  2.24767892e-03 
 5.49540874e+08	 7.34560209e-04  2.30004085e-03  9.99259058e-01 -4.08382033e-03  9.99259058e-01 -4.08382033e-03  7.34560209e-04  2.30004085e-03 
 5.62341325e+08	 7.33675786e-04  2.35362245e-03  9.99259757e-01 -4.17895131e-03  9.99259757e-01 -4.17895131e-03  7.33675786e-04  2.35362245e-03 
 5.75439937e+08	 7.32770762e-04  2.40845213e-03  9.99260473e-01 -4.27629817e-03  9.99260473e-01 -4.27629817e-03  7.32770762e-04  2.40845213e-03 
 5.88843655e+08	 7.31844657e-04  2.46455895e-03  9.99261205e-01 -4.37591253e-03  9.99261205e-01 -4.37591253e-03  7.31844657e-04  2.46455895e-03 
 6.02559586e+08	 7.30912917e-04  2.52197310e-03  9.99261935e-01 -4.47784763e-03  9.99261935e-01 -4.47784763e-03  7.30912917e-04  2.52197310e-03 
 6.16595002e+08	 7.30030557e-04  2.58072652e-03  9.99262599e-01 -4.58215897e-03  9.99262599e-01 -4.58215897e-03  7.30030557e-04  2.58072652e-03 
 6.30957344e+08	 7.29127644e-04  2.64084849e-03  9.99263279e-01 -4.68890003e-03  9.99263279e-01 -4.68890003e-03  7.29127644e-04  2.64084849e-03 
 6.45654229e+08	 7.28203700e-04  2.70237087e-03  9.99263974e-01 -4.79812741e-03  9.99263974e-01 -4.79812741e-03  7.28203700e-04  2.70237087e-03 
 6.60693448e+08	 7.27258234e-04  2.76532630e-03  9.99264686e-01 -4.90989902e-03  9.99264686e-01 -4.90989902e-03  7.27258234e-04  2.76532630e-03 
 6.76082975e+08	 7.26290745e-04  2.82974815e-03  9.99265414e-01 -5.02427413e-03  9.99265414e-01 -5.02427413e-03  7.26290745e-04  2.82974815e-03 
 6.91830971e+08	 7.25300721e-04  2.89567057e-03  9.99266159e-01 -5.14131338e-03  9.99266159e-01 -5.14131338e-03  7.25300721e-04  2.89567057e-03 
 7.07945784e+08	 7.24337113e-04  2.96312978e-03  9.99266864e-01 -5.26108004e-03  9.99266864e-01 -5.26108004e-03  7.24337113e-04  2.96312978e-03 
 7.24435960e+08	 7.23403113e-04  3.03216164e-03  9.99267524e-01 -5.38363769e-03  9.99267524e-01 -5.38363769e-03  7.23403113e-04  3.03216164e-03 
 7.41310241e+08	 7.22447356e-04  3.10280146e-03  9.99268200e-01 -5.50905009e-03  9.99268200e-01 -5.50905009e-03  7.22447356e-04  3.10280146e-03 
 7.58577575e+08	 7.21469338e-04  3.17508669e-03  9.99268891e-01 -5.63738371e-03  9.99268891e-01 -5.63738371e-03  7.21469338e-04  3.17508669e-03 
 7.76247117e+08	 7.20468538e-04  3.24905565e-03  9.99269599e-01 -5.76870660e-03  9.99269599e-01 -5.76870660e-03  7.20468538e-04  3.24905565e-03 
 7.94328235e+08	 7.19444427e-04  3.32474758e-03  9.99270323e-01 -5.90308840e-03  9.99270323e-01 -5.90308840e-03  7.19444427e-04  3.32474758e-03 
 8.12830516e+08	 7.18476360e-04  3.40220449e-03  9.99270970e-01 -6.04060218e-03  9.99270970e-01 -6.04060218e-03  7.18476360e-04  3.40220449e-03 
 8.31763771e+08	 7.17521886e-04  3.48146645e-03  9.99271591e-01 -6.18131990e-03  9.99271591e-01 -6.18131990e-03  7.17521886e-04  3.48146645e-03 
 8.51138038e+08	 7.16545180e-04  3.56257466e-03  9.99272226e-01 -6.32531535e-03  9.99272226e-01 -6.32531535e-03  7.16545180e-04  3.56257466e-03 
 8.70963590e+08	 7.15545723e-04  3.64557212e-03  9.99272875e-01 -6.47266488e-03  9.99272875e-01 -6.47266488e-03  7.15545723e-04  3.64557212e-03 
 8.91250938e+08	 7.14522987e-04  3.73050285e-03  9.99273540e-01 -6.62344663e-03  9.99273540e-01 -6.62344663e-03  7.14522987e-04  3.73050285e-03 
 9.12010839e+08	 7.13551226e-04  3.81741350e-03  9.99274133e-01 -6.77774212e-03  9.99274133e-01 -6.77774212e-03  7.13551226e-04  3.81741350e-03 
 9.33254301e+08	 7.12612586e-04  3.90634978e-03  9.99274674e-01 -6.93563279e-03  9.99274674e-01 -6.93563279e-03  7.12612586e-04  3.90634978e-03 
 9.54992586e+08	 7.11652082e-04  3.99735766e-03  9.99275228e-01 -7.09720120e-03  9.99275228e-01 -7.09720120e-03  7.11652082e-04  3.99735766e-03 
 9.77237221e+08	 7.10669205e-04  4.09048538e-03  9.99275795e-01 -7.26253303e-03  9.99275795e-01 -7.26253303e-03  7.10669205e-04  4.09048538e-03 
 1.00000000e+09	 7.09663434e-04  4.18578232e-03  9.99276375e-01 -7.43171593e-03  9.99276375e-01 -7.43171593e-03  7.09663434e-04  4.18578232e-03 
 1.02329299e+09	 7.12647528e-04  4.28325247e-03  9.99272931e-01 -7.60479295e-03  9.99272931e-01 -7.60479295e-03  7.12647528e-04  4.28325247e-03 
 1.04712855e+09	 7.15701131e-04  4.38299299e-03  9.99269406e-01 -7.78190146e-03  9.99269406e-01 -7.78190146e-03  7.15701131e-04  4.38299299e-03 
 1.07151931e+09	 7.18825861e-04  4.48505676e-03  9.99265799e-01 -7.96313535e-03  9.99265799e-01 -7.96313535e-03  7.18825861e-04  4.48505676e-03 
 1.09647820e+09	 7.22023375e-04  4.58949791e-03  9.99262109e-01 -8.14859072e-03  9.99262109e-01 -8.14859072e-03  7.22023375e-04  4.58949791e-03 
 1.12201845e+09	 7.25432370e-04  4.69636583e-03  9.99258172e-01 -8.33835983e-03  9.99258172e-01 -8.33835983e-03  7.25432370e-04  4.69636583e-03 
 1.14815362e+09	 7.28943194e-04  4.80572205e-03  9.99254117e-01 -8.53254824e-03  9.99254117e-01 -8.53254824e-03  7.28943194e-04  4.80572205e-03 
 1.17489755e+09	 7.32535795e-04  4.91762550e-03  9.99249968e-01 -8.73125987e-03  9.99249968e-01 -8.73125987e-03  7.32535795e-04  4.91762550e-03 
 1.20226443e+09	 7.36226167e-04  5.03213489e-03  9.99245705e-01 -8.93459945e-03  9.99245705e-01 -8.93459945e-03  7.36226167e-04  5.03213489e-03 
 1.23026877e+09	 7.40162310e-04  5.14930429e-03  9.99241157e-01 -9.14266806e-03  9.99241157e-01 -9.14266806e-03  7.40162310e-04  5.14930429e-03 
 1.25892541e+09	 7.44190137e-04  5.26920293e-03  9.99236502e-01 -9.35558320e-03  9.99236502e-01 -9.35558320e-03  7.44190137e-04  5.26920293e-03 
 1.28824955e+09	 7.48311785e-04  5.39189436e-03  9.99231739e-01 -9.57345778e-03  9.99231739e-01 -9.57345778e-03  7.48311785e-04  5.39189436e-03 
 1.31825674e+09	 7.52643008e-04  5.51743830e-03  9.99226733e-01 -9.79640189e-03  9.99226733e-01 -9.79640189e-03  7.52643008e-04  5.51743830e-03 
 1.34896288e+09	 7.57149919e-04  5.64590302e-03  9.99221522e-01 -1.00245355e-02  9.99221522e-01 -1.00245355e-02  7.57149919e-04  5.64590302e-03 
 1.38038426e+09	 7.61761809e-04  5.77736006e-03  9.99216191e-01 -1.02579829e-02  9.99216191e-01 -1.02579829e-02  7.61761809e-04  5.77736006e-03 
 1.41253754e+09	 7.66559108e-04  5.91187533e-03  9.99210643e-01 -1.04968643e-02  9.99210643e-01 -1.04968643e-02  7.66559108e-04  5.91187533e-03 
 1.44543977e+09	 7.71593005e-04  6.04951777e-03  9.99204820e-01 -1.07413037e-02  9.99204820e-01 -1.07413037e-02  7.71593005e-04  6.04951777e-03 
 1.47910839e+09	 7.76744156e-04  6.19036632e-03  9.99198862e-01 -1.09914368e-02  9.99198862e-01 -1.09914368e-02  7.76744156e-04  6.19036632e-03 
 1.51356125e+09	 7.82099635e-04  6.33449139e-03  9.99192666e-01 -1.12473920e-02  9.99192666e-01 -1.12473920e-02  7.82099635e-04  6.33449139e-03 
 1.54881662e+09	 7.87712819e-04  6.48196685e-03  9.99186170e-01 -1.15093023e-02  9.99186170e-01 -1.15093023e-02  7.87712819e-04  6.48196685e-03 
 1.58489319e+09	 7.93456751e-04  6.63287746e-03  9.99179523e-01 -1.17773133e-02  9.99179523e-01 -1.17773133e-02  7.93456751e-04  6.63287746e-03 
 1.62181010e+09	 7.99470105e-04  6.78729615e-03  9.99172563e-01 -1.20515599e-02  9.99172563e-01 -1.20515599e-02  7.99470105e-04  6.78729615e-03 
 1.65958691e+09	 8.05719660e-04  6.94530669e-03  9.99165328e-01 -1.23321895e-02  9.99165328e-01 -1.23321895e-02  8.05719660e-04  6.94530669e-03 
 1.69824365e+09	 8.12114786e-04  7.10699777e-03  9.99157925e-01 -1.26193558e-02  9.99157925e-01 -1.26193558e-02  8.12114786e-04  7.10699777e-03 
 1.73780083e+09	 8.18893915e-04  7.27244243e-03  9.99150075e-01 -1.29131981e-02  9.99150075e-01 -1.29131981e-02  8.18893915e-04  7.27244243e-03 
 1.77827941e+09	 8.25842126e-04  7.44174020e-03  9.99142028e-01 -1.32138844e-02  9.99142028e-01 -1.32138844e-02  8.25842126e-04  7.44174020e-03 
 1.81970086e+09	 8.33074664e-04  7.61497460e-03  9.99133650e-01 -1.35215676e-02  9.99133650e-01 -1.35215676e-02  8.33074664e-04  7.61497460e-03 
 1.86208714e+09	 8.40613854e-04  7.79223645e-03  9.99124916e-01 -1.38364100e-02  9.99124916e-01 -1.38364100e-02  8.40613854e-04  7.79223645e-03 
 1.90546072e+09	 8.48362600e-04  7.97362532e-03  9.99115939e-01 -1.41585840e-02  9.99115939e-01 -1.41585840e-02  8.48362600e-04  7.97362532e-03 
 1.94984460e+09	 8.56533006e-04  8.15922543e-03  9.99106471e-01 -1.44882483e-02  9.99106471e-01 -1.44882483e-02  8.56533006e-04  8.15922543e-03 
 1.99526231e+09	 8.64893724e-04  8.34914872e-03  9.99096782e-01 -1.48255915e-02  9.99096782e-01 -1.48255915e-02  8.64893724e-04  8.34914872e-03 
 2.04173794e+09	 8.73708611e-04  8.54348055e-03  9.99086564e-01 -1.51707770e-02  9.99086564e-01 -1.51707770e-02  8.73708611e-04  8.54348055e-03 
 2.08929613e+09	 8.82758957e-04  8.74233717e-03  9.99076072e-01 -1.55240011e-02  9.99076072e-01 -1.55240011e-02  8.82758957e-04  8.74233717e-03 
 2.13796209e+09	 8.92256033e-04  8.94581140e-03  9.99065061e-01 -1.58854384e-02  9.99065061e-01 -1.58854384e-02  8.92256033e-04  8.94581140e-03 
 2.18776162e+09	 9.02042394e-04  9.15402101e-03  9.99053714e-01 -1.62552904e-02  9.99053714e-01 -1.62552904e-02  9.02042394e-04  9.15402101e-03 
 2.23872114e+09	 9.12297314e-04  9.36706539e-03  9.99041820e-01 -1.66337422e-02  9.99041820e-01 -1.66337422e-02  9.12297314e-04  9.36706539e-03 
 2.29086765e+09	 9.22868920e-04  9.58506733e-03  9.99029558e-01 -1.70210043e-02  9.99029558e-01 -1.70210043e-02  9.22868920e-04  9.58506733e-03 
