! Created with skrf (http://scikit-rf.org).
# Hz S RI R 50.0 
!freq ReS11 ImS11
100000000.0 -0.996186194997056 0.006005897753556498
775757575.7575758 -0.9951111430310349 0.04657401386666488
1451515151.5151515 -0.9922374526415687 0.08705018359793379
2127272727.2727273 -0.987646550225166 0.12735765881966923
2803030303.030303 -0.9814213605432637 0.16743209460497807
3478787878.787879 -0.9735737434021339 0.20720618659342246
4154545454.5454545 -0.9641184141252792 0.24661325737489265
4830303030.30303 -0.9530729077201037 0.2855873842282894
5506060606.060606 -0.9404153964801771 0.3240490297069874
6181818181.818182 -0.9261986586264894 0.36193992762674376
6857575757.575758 -0.9104630687997464 0.3992016205294828
7533333333.333333 -0.8932372511942643 0.43577261729102296
8209090909.090909 -0.8745523657147879 0.4715927984815334
8884848484.848484 -0.8544420364322789 0.5066035242715237
9560606060.60606 -0.8329422752220962 0.5407477381470237
10236363636.363636 -0.8101288353914712 0.5739965143733704
10912121212.121212 -0.7860694964165673 0.606324222221433
11587878787.878788 -0.7607345915109766 0.6376320377284386
12263636363.636364 -0.7341683842979166 0.6678695772233821
12939393939.39394 -0.7064171290218069 0.6969884631468811
13615151515.151516 -0.6775289728533274 0.724942402250673
14290909090.90909 -0.6475538552130493 0.7516872585231854
14966666666.666666 -0.6165434044352415 0.7771811207409468
15642424242.424242 -0.5845508320949933 0.8013843645676827
16318181818.181818 -0.5516308253215865 0.8242597091446691
16993939393.939394 -0.5178394374193657 0.8457722681372911
17669696969.696968 -0.48323397711402594 0.8658895952236529
18345454545.454544 -0.44787289673748804 0.8845817240312482
19021212121.21212 -0.41181567965841775 0.9018212025472314
19696969696.969696 -0.3751227272579612 0.9175831220464535
20372727272.727272 -0.3378552457416695 0.9318451405991468
21048484848.484848 -0.3000751330688136 0.9445875012368684
21724242424.242424 -0.26184486626956494 0.9557930448709331
22400000000.0 -0.22322738940886983 0.9654472180721188
23075757575.757576 -0.18428600244344023 0.9735380758337342
23751515151.515152 -0.14508425120521998 0.9800562794522879
24427272727.272728 -0.10568581873101704 0.9849950896709221
25103030303.030304 -0.06615441814395678 0.9883503552403796
25778787878.78788 -0.026553687277948816 0.9901204970607387
26454545454.545456 0.013052914778223106 0.9903064880742414
27130303030.303032 0.052602209055398336 0.98891182908552
27806060606.060604 0.09203139585010331 0.9859425206901901
28481818181.81818 0.13127815150984778 0.9814070314963395
29157575757.575756 0.17028072273994438 0.9753162628258051
29833333333.333332 0.20897801832839524 0.9676835100834047
30509090909.090908 0.2473096981993988 0.9585244209825146
31184848484.848484 0.2852162597196299 0.94785695081462
31860606060.60606 0.32263912119455085 0.9357013149486961
32536363636.363636 0.35952070250463164 0.9220799387437157
33212121212.121212 0.3958045028433849 0.9070174050541114
33887878787.878788 0.43143517553049304 0.8905403995038653
34563636363.63636 0.4663585998840953 0.8726776536999997
35239393939.393936 0.500521950146298 0.8534598865507895
35915151515.15151 0.5338737614653095 0.8329197438479565
36590909090.90909 0.5663639929461606 0.8110917362656083
37266666666.666664 0.5979440877897941 0.7880121759217652
37942424242.42424 0.6285670305473153 0.7637191116410578
38618181818.181816 0.6581874015224685 0.7382522630496363
39293939393.93939 0.6867614283608773 0.7116529536256108
39969696969.69697 0.7142470348692931 0.6839640428204375
40645454545.454544 0.7406038871120297 0.6552298573587143
41321212121.21212 0.7657934368349546 0.6254961218158392
41996969696.969696 0.7897789622698694 0.5948098885650456
42672727272.72727 0.8125256063738353 0.5632194671774363
43348484848.48485 0.8340004125590754 0.5307743533509216
44024242424.242424 0.8541723579694338 0.49752515743638764
44700000000.0 0.8730123843591606 0.4635235326221349
45375757575.757576 0.8904934266288961 0.42882210283055827
46051515151.51515 0.9065904390723324 0.3934743903743017
46727272727.27273 0.9212804193850256 0.3575347434127508
47403030303.030304 0.9345424304843865 0.32105826324371173
48078787878.78788 0.9463576201869315 0.28410073145952586
48754545454.545456 0.9567092387855051 0.24671853699173718
49430303030.30303 0.9655826545654362 0.2089686030637266
50106060606.06061 0.9729653672944933 0.17090831406653145
50781818181.818184 0.9788470197170909 0.13259544236937876
51457575757.57576 0.9832194070785283 0.09408807507329794
52133333333.333336 0.9860764847001475 0.05544454071353617
52809090909.09091 0.9874143736212081 0.016723335914423203
53484848484.84849 0.9872313643180775 -0.02201694800117276
54160606060.606064 0.9855279185060145 -0.06071769844663765
54836363636.36363 0.9823066690234322 -0.09932035504986281
55512121212.12121 0.9775724177932097 -0.1377664831739682
56187878787.878784 0.9713321318502021 -0.17599784747877062
56863636363.63636 0.9635949374189076 -0.21395648551992733
57539393939.393936 0.9543721120200265 -0.2515847813807949
58215151515.15151 0.9436770745797318 -0.2888255393296011
58890909090.90909 0.9315253735106325 -0.3256220574915226
59566666666.666664 0.9179346727289003 -0.36191820152173976
60242424242.42424 0.9029247355677971 -0.3976584782615047
60918181818.181816 0.8865174065438849 -0.43278810935469014
61593939393.93939 0.8687365909286968 -0.46725310479729437
62269696969.69697 0.849608232075492 -0.5010003363868772
62945454545.454544 0.8291602864480312 -0.5339776110330134
63621212121.21212 0.8074226962961408 -0.5661337438835295
64296969696.969696 0.7844273599211359 -0.5974186312146399
64972727272.72727 0.7602080994730893 -0.6277833230260716
65648484848.48485 0.734800626221417 -0.657180095274997
66324242424.242424 0.7082425032403665 -0.6855625216750285
67000000000.0 0.6805731054517776 -0.7128855449787771
