! Created with skrf (http://scikit-rf.org).
# Hz S RI R 50.0 
!freq ReS11 ImS11
100000000.0 -0.9891918421969865 0.0259615619467156
300299401.1976048 -0.9875419994100432 0.07803324341907572
500598802.3952096 -0.9822816360779754 0.13006169345008795
700898203.5928144 -0.9738965479513269 0.18197339804235585
901197604.7904192 -0.9626645196877375 0.2337533155369504
1101497005.988024 -0.9485320709081109 0.28535641300150205
1301796407.185629 -0.9314165005885666 0.3367256245574982
1502095808.3832335 -0.9112074591208383 0.3877860100856862
1702395209.5808384 -0.8877900582097089 0.43844917420915286
1902694610.7784433 -0.8610334620829592 0.48860685130150344
2102994011.976048 -0.830791544339077 0.53812687850806
2303293413.1736526 -0.7969039702707306 0.5868486369982756
2503592814.371258 -0.7591938636361952 0.634574560375644
2703892215.5688624 -0.7172727169674464 0.6808747352695637
2904191616.766467 -0.671182585910371 0.7256368555341756
3104491017.964072 -0.6207369523994479 0.7685286838696535
3304790419.161677 -0.5657550159263935 0.8091581549528106
3505089820.3592815 -0.5060706275492619 0.8470657848110681
3705389221.5568867 -0.4415439190301622 0.8817171967576156
3905688622.7544913 -0.3720761550013324 0.912496320212419
4105988023.952096 -0.29762832322544425 0.938700073839847
4306287425.149701 -0.21824388910330925 0.9595356615599506
4506586826.347305 -0.13407593312148772 0.9741219811972421
4706886227.54491 -0.045418511482627044 0.9814970438142661
4907185628.742516 0.04725852637190742 0.9806336702964522
5107485029.94012 0.1432823305785913 0.9705312352681632
5307784431.137725 0.2417408441519448 0.9501147136465045
5508083832.33533 0.34142430819117825 0.9183141966684191
5708383233.532934 0.4408268166779759 0.8742418885990977
5908682634.730539 0.5381421651754802 0.8172218034587686
6108982035.928144 0.6312879106888563 0.7468859285747906
6309281437.125749 0.7179619544533367 0.6632726833396113
6509580838.323354 0.7957358068645992 0.5669156687505805
6709880239.520959 0.8621837827748733 0.45890774482155083
6910179640.718563 0.9150405811284706 0.34092477292956513
7110479041.916168 0.9523722119612852 0.21519611887882611
7310778443.113773 0.9727390219746969 0.08441570818295116
7511077844.311378 0.9753268925721528 -0.04840272247070271
7711377245.508983 0.9600251958399145 -0.18011168914766587
7911676646.706588 0.9274379617715143 -0.30763402954780317
8111976047.904192 0.8788262376744902 -0.4281576297555123
8312275449.101797 0.8159917148609477 -0.5392955487755866
8512574850.299402 0.741121040284567 -0.6391937986499538
8712874251.497007 0.6566145691196725 -0.7265795781226491
8913173652.69461 0.5649222042783734 -0.8007532471274271
9113473053.892216 0.46840366029560726 -0.8615352263985003
9313772455.08982 0.3692231511882916 -0.909183057131047
9514071856.287426 0.26928128642780963 -0.9442941711223493
9714371257.485031 0.1701813433641694 -0.9677075377394311
9914670658.682636 0.07322366680054038 -0.9804136182192253
10114970059.88024 -0.020579636071737406 -0.9835087325290641
10315269461.077845 -0.11048341826526581 -0.9780616521684778
10515568862.27545 -0.1959604085299907 -0.9650996301181619
10715868263.473055 -0.2766693257750553 -0.9456142472670206
10916167664.67066 -0.35242101084188265 -0.9205188958018676
11116467065.868265 -0.4231455694762779 -0.8906391026175001
11316766467.065868 -0.4888636410294152 -0.856709583625188
11517065868.263474 -0.5496621118689147 -0.8193759856326348
11717365269.461079 -0.6056741444812852 -0.7791996755270767
11917664670.658684 -0.6570631366000053 -0.7366643258207086
12117964071.856289 -0.7040101037344066 -0.6921833857144337
12318263473.053894 -0.7467039466368652 -0.6461078047559762
12518562874.251497 -0.7853340871108149 -0.5987335922333035
12718862275.449102 -0.8200850060959333 -0.5503089566895596
12919161676.646708 -0.8511322806032422 -0.5010408859553059
13119461077.844313 -0.8786397805863561 -0.45110110861717806
13319760479.041918 -0.9027577474480157 -0.40063143160769943
13520059880.239521 -0.9236215297648631 -0.34974848286356797
13720359281.437126 -0.9413507979859159 -0.29854790849474167
13920658682.634731 -0.9560490984206085 -0.24710808500475787
14120958083.832336 -0.9678036384566422 -0.19549341203846937
14321257485.029942 -0.9766852205728802 -0.14375725224272284
14521556886.227547 -0.9827482633483737 -0.09194458375835388
14721856287.42515 -0.9860308642989233 -0.0400944287587352
14922155688.622755 -0.986554872907699 0.011757880919103098
15122455089.82036 -0.9843259534809115 0.06357854213632626
15322754491.017965 -0.9793336271984892 0.11533316547337275
15523053892.21557 -0.9715512916288533 0.16698465043444244
15723353293.413176 -0.9609362246808943 0.21849099442933875
15923652694.610779 -0.9474295891130725 0.26980297844397294
16123952095.808384 -0.93095646395625 0.32086167100583574
16324251497.00599 -0.9114259412226088 0.37159569037883605
16524550898.203594 -0.8887313408127011 0.4219181632925766
16724850299.4012 -0.8627506144110137 0.47172331755289587
16925149700.598804 -0.8333470312560733 0.520882646521919
17125449101.796408 -0.80037026589829 0.5692405870387187
17325748502.994015 -0.7636580412942207 0.6166096607763754
17526047904.19162 -0.7230385205334721 0.6627650449340289
17726347305.38922 -0.6783336874456574 0.7074385651197496
17926646706.586826 -0.6293640097870643 0.7503121460153692
18126946107.78443 -0.575954736772762 0.791010819965799
18327245508.982037 -0.5179442412682357 0.8290954873907768
18527544910.17964 -0.4551948684172882 0.8640557543689076
18727844311.377247 -0.3876067843087706 0.8953033507200671
18928143712.574852 -0.3151353111156173 0.9221668639262376
19128443113.772457 -0.23781216098135055 0.9438888134822353
19328742514.970062 -0.15577080194169732 0.9596264307547901
19529041916.167667 -0.0692758582436484 0.9684578787434288
19729341317.365273 0.021244087572536263 0.9693959959819856
19929640718.562874 0.11516170916911683 0.9614118944010228
20129940119.76048 0.2116166436842723 0.9434707524777033
20330239520.958084 0.3094854634850976 0.9145817474389126
20530538922.15569 0.4073610866887085 0.8738630614017506
20730838323.353294 0.5035480435715831 0.8206210942414414
20931137724.5509 0.5960806760800184 0.7544403446906958
21131437125.748505 0.6827708785369746 0.6752770286889093
21331736526.94611 0.7612898395647019 0.5835458807053405
21532035928.143715 0.8292840881612711 0.4801866146375191
21732335329.34132 0.8845201579905704 0.366695382917437
21932634730.538925 0.9250452831854168 0.24510841282087922
22132934131.73653 0.9493453953022399 0.11793042635347788
22333233532.93413 0.9564783512040165 -0.011990977051497972
22533532934.131737 0.946161477068705 -0.14163378293909296
22733832335.32934 0.9187986749451355 -0.26799285242081017
22934131736.526947 0.8754423595958851 -0.3882690447682571
23134431137.724552 0.8176968043897586 -0.5000316481164183
23334730538.922157 0.7475790067013263 -0.6013353646912566
23535029940.119762 0.6673585500165451 -0.6907823209369259
23735329341.317368 0.5793982728472458 -0.7675295205327095
23935628742.514973 0.4860136064934826 -0.8312503019121067
24135928143.712578 0.3893620258002457 -0.8820631955585487
24336227544.910183 0.2913671991929711 -0.9204428578244597
24536526946.107788 0.19367668878225758 -0.9471262245208929
24736826347.30539 0.09764822794224026 -0.9630238648550736
24937125748.502995 0.004357766163769428 -0.9691428715505133
25137425149.7006 -0.08537958035026166 -0.9665498700096439
25337724550.898205 -0.170978857004183 -0.9562553518587302
25538023952.09581 -0.2520430049049797 -0.9392272657826253
25738323353.293415 -0.3283331783451679 -0.9163772316060863
25938622754.49102 -0.3997366264244332 -0.8885359760080281
26138922155.688625 -0.466237869310353 -0.8564481783689797
26339221556.88623 -0.5278939701699714 -0.8207724541247302
26539520958.083836 -0.5848139328192817 -0.7820847978419935
26739820359.28144 -0.6371419517846366 -0.7408841764030816
26940119760.479042 -0.6850440823063391 -0.6975992968076478
27140419161.676647 -0.7286978369347046 -0.6525958539362472
27340718562.874252 -0.7682842164413277 -0.6061837870707305
27541017964.071857 -0.8039817192240696 -0.5586242442210628
27741317365.269463 -0.8359619270424223 -0.5101360782871398
27941616766.467068 -0.86438632412392 -0.4609017876790279
28141916167.664673 -0.8894040645013082 -0.4110728746096861
28342215568.862278 -0.9111504551739853 -0.36077463406212973
28542514970.059883 -0.9297459687256507 -0.3101104112549423
28742814371.25749 -0.9452956380386737 -0.25916537982321186
28943113772.455093 -0.9578887181114665 -0.208009900313812
29143413173.6527 -0.9675985264597933 -0.1567025214710135
29343712574.8503 -0.974482395063049 -0.1052926869593005
29544011976.047905 -0.978581684219052 -0.053823208897192776
29744311377.24551 -0.9799218228690085 -0.0023325677259021685
29944610778.443115 -0.9785123517526617 0.04914290391146442
30144910179.64072 -0.9743469558868714 0.10056689707974355
30345209580.838326 -0.9674034820044201 0.15190100693638464
30545508982.03593 -0.9576439453820678 0.20310256247420036
30745808383.233536 -0.9450145395476472 0.2541223500190047
30946107784.43114 -0.9294456723154447 0.3049021738109784
31146407185.628746 -0.9108520631160832 0.35537219557008914
31346706586.82635 -0.8891329503703173 0.40544799352484884
31547005988.023956 -0.864172474474322 0.4550272805384066
31747305389.221558 -0.8358403226440185 0.5039862215397927
31947604790.419163 -0.8039927472674009 0.5521752936804912
32147904191.616768 -0.7684741003676792 0.5994146402131201
32348203592.814373 -0.7291190639674775 0.6454888834246506
32548502994.01198 -0.6857557998888997 0.6901413862985353
32748802395.209583 -0.6382102924519113 0.7330679912226936
32949101796.40719 -0.5863122120527328 0.7739103225027264
33149401197.604794 -0.5299026831417932 0.8122488244379051
33349700598.8024 -0.468844390061423 0.8475958260956421
33550000000.000004 -0.40303448750176885 0.8793890859328222
33750299401.19761 -0.3324207818579237 0.9069864813481516
33950598802.39521 -0.25702159059718366 0.9296627738566332
34150898203.592815 -0.1769495349131665 0.9466096958283146
34351197604.79042 -0.0924392336677822 0.9569409515085042
34551497005.98803 -0.003878395556774994 0.9597040626688053
34751796407.18563 0.08815889370952301 0.9539012447716314
34952095808.38324 0.1828788472676623 0.9385215592559982
35152395209.58084 0.27923796297719994 0.9125862950188233
35352694610.77844 0.3759209865682475 0.8752087010199032
35552994011.97605 0.47133274811941195 0.8256676440942229
35753293413.17365 0.5636105384551815 0.7634924038031755
35953592814.37126 0.6506635116636196 0.6885527265196641
36153892215.56886 0.730243942653656 0.601144828612325
36354191616.76647 0.800051661930473 0.502061013006241
36554491017.96407 0.8578676731798915 0.392629001103586
36754790419.16168 0.9017065248755287 0.27470809590979783
36955089820.35928 0.9299708674546376 0.1506336117560781
37155389221.55689 0.9415876598773185 0.023108484149258313
37355688622.75449 0.9361054254049919 -0.10494970203530869
37555988023.952095 0.9137366077673923 -0.23058915495701143
37756287425.149704 0.8753377793799002 -0.35100882596602057
37956586826.347305 0.8223310907348635 -0.4637239147104694
38156886227.544914 0.7565800780209715 -0.5666921702705995
38357185628.742516 0.6802392649923483 -0.658389266934828
38557485029.940125 0.5955986579803729 -0.7378309982245501
38757784431.137726 0.5049415413941241 -0.8045484170487338
38958083832.335335 0.41042841388162477 -0.8585276220285514
39158383233.532936 0.31401337405226115 -0.9001280825477125
39358682634.730545 0.2173934064383895 -0.9299926651784945
39558982035.92815 0.12198680087297875 -0.9489599021862103
39759281437.12575 0.02893462133263991 -0.9579856485129605
39959580838.32336 -0.060881528447338296 -0.9580779877879348
40159880239.52096 -0.1468117123616484 -0.9502465883650381
40360179640.71857 -0.22840499922991325 -0.9354658625709733
40560479041.91617 -0.30537576374398895 -0.9146502033863859
40760778443.11378 -0.3775715268497625 -0.8886391036000919
40961077844.31138 -0.4449438618486761 -0.8581899131586688
41161377245.50899 -0.5075230979752916 -0.8239761904267755
41361676646.70659 -0.5653970013750553 -0.7865899222010713
41561976047.9042 -0.6186932636479181 -0.746546238152513
41762275449.1018 -0.6675654316843989 -0.7042895763590586
41962574850.29941 -0.7121818238105063 -0.660200542342567
42162874251.49701 -0.7527169588045679 -0.6146029361775701
42363173652.69461 -0.7893450479133943 -0.5677706023045537
42563473053.89222 -0.8222351457128849 -0.5199338910561131
42763772455.08982 -0.8515476104166546 -0.4712856177423756
42964071856.28743 -0.877431579953606 -0.4219864725648273
43164371257.48503 -0.9000232222562758 -0.37216987985014005
43364670658.68264 -0.9194445645114477 -0.32194633410242884
43564970059.88024 -0.9358027458786882 -0.2714072578990994
43765269461.07785 -0.9491895715024583 -0.22062843632117962
43965568862.27545 -0.9596812731155113 -0.16967308710369386
44165868263.47306 -0.9673384039551933 -0.11859462696758354
44366167664.67066 -0.9722058139536203 -0.06743919403882381
44566467065.86826 -0.9743126660644097 -0.016247984837421285
44766766467.06587 -0.9736724669460398 0.03494053731847762
44967065868.26347 -0.970283095764757 0.08608850707282546
45167365269.46108 -0.9641268242821639 0.13715654048878007
45367664670.65868 -0.9551703302853609 0.18810158308459796
45567964071.85629 -0.9433647154138631 0.2388746680525437
45768263473.053894 -0.9286455481494559 0.28941852943604984
45968562874.2515 -0.9109329637991628 0.33966501385199327
46168862275.449104 -0.8901318663943593 0.3895322331248419
46369161676.64671 -0.8661322932798052 0.43892139946437037
46569461077.844315 -0.838810022556564 0.4877132853334504
46769760479.041916 -0.8080275272845971 0.5357642530278035
46970059880.239525 -0.7736354092349762 0.5829018057951908
47170359281.437126 -0.7354744796704735 0.6289196252360044
47370658682.634735 -0.6933786954785696 0.6735720817060694
47570958083.83234 -0.6471792057227713 0.7165682393977113
47771257485.029945 -0.5967098149848388 0.7575654307280151
47971556886.22755 -0.541814222659387 0.7961625518072031
48171856287.425156 -0.48235544585126394 0.8318933393218968
48372155688.62276 -0.41822786798863154 0.8642200368806925
48572455089.820366 -0.34937236051965886 0.8925280527917686
48772754491.01797 -0.2757948788801815 0.9161224555479055
48973053892.215576 -0.1975888057749867 0.9342274455975096
49173353293.41318 -0.11496106579380033 0.9459902677874317
49373652694.61078 -0.028261620656230946 0.9504913540283226
49573952095.80839 0.06198466977511352 0.9467627475221978
49774251497.00599 0.1550456977801971 0.9338169586937342
49974550898.2036 0.24995223723031684 0.9106881989593061
50174850299.4012 0.3454747600153267 0.876487260386764
50375149700.59881 0.4401123512283857 0.8304699847571706
50575449101.79641 0.5320999858132474 0.7721171815439705
50775748502.99402 0.6194404851094037 0.7012210490174082
50976047904.19162 0.6999662346430948 0.6179699214250137
51176347305.38923 0.7714328163830395 0.5230201370159807
51376646706.58683 0.8316420208500924 0.41754193682681523
51576946107.78443 0.8785857547949263 0.303226623901766
51777245508.98204 0.9105963255968201 0.18224554513613028
51977544910.17964 0.9264841607477159 0.05715789458160086
52177844311.37725 0.9256429307252995 -0.06922708401166605
52378143712.57485 0.9081053226869749 -0.19401916618354964
52578443113.77246 0.8745401095380747 -0.31442666195040014
52778742514.97006 0.8261910046088363 -0.4279232996229487
52979041916.16767 0.7647675085847395 -0.5323821123926986
53179341317.36527 0.692305013273284 -0.6261627736392025
53379640718.56288 0.611014278329728 -0.7081476682792363
53579940119.76048 0.5231389277465671 -0.777730437564551
53780239520.958084 0.43083495474602407 -0.8347669023688773
53980538922.15569 0.33608012522154435 -0.8795012980968511
54180838323.353294 0.24061529583597202 -0.9124808206666231
54381137724.5509 0.14591512843286558 -0.9344694401780869
54581437125.748505 0.05318292405773489 -0.9463688511326642
54781736526.94611 -0.03663679341682813 -0.949151212201781
54982035928.143715 -0.1228341595417897 -0.9438055812972811
55182335329.341324 -0.20490362879020624 -0.9312979399815949
55382634730.538925 -0.28251150157839366 -0.9125434441559879
55582934131.736534 -0.3554641754036003 -0.8883889130512179
55783233532.934135 -0.4236789042405597 -0.8596034011347663
55983532934.131744 -0.48715801034882766 -0.8268748182065481
56183832335.329346 -0.5459668896183388 -0.7908108353708679
56384131736.52695 -0.6002157545075866 -0.7519426427988896
56584431137.724556 -0.6500448230938345 -0.7107304495626472
56784730538.92216 -0.6956125441868704 -0.6675699044201562
56985029940.11977 -0.7370864086232332 -0.6227988562334532
57185329341.31737 -0.774635906004499 -0.5767040621821342
57385628742.51498 -0.8084272227536033 -0.5295275957038508
57585928143.71258 -0.8386193268332447 -0.4814728113762432
57786227544.91019 -0.8653611375077545 -0.43270979849608504
57986526946.10779 -0.8887895296606638 -0.3833803060705008
58186826347.3054 -0.9090279685296023 -0.3336021554061947
58387125748.503 -0.926185611089235 -0.2834731773841589
58587425149.7006 -0.940356744523394 -0.2330747236555923
58787724550.89821 -0.9516204606759322 -0.18247480726544135
58988023952.09581 -0.9600404887422652 -0.13173093071463696
59188323353.29342 -0.9656651275592478 -0.08089265972893091
59388622754.49102 -0.9685272344836768 -0.03000400007894602
59588922155.68863 -0.9686442407971976 0.02089436657474849
59789221556.88623 -0.966018174561505 0.07176293316869295
59989520958.08384 -0.9606356815421984 0.12256125039835576
60189820359.28144 -0.9524680438508457 0.17324578937150997
60390119760.47905 -0.9414712049261067 0.22376773047770032
60590419161.67665 -0.9275858189853203 0.27407062459073966
60790718562.87425 -0.910737353743266 0.32408787175812925
60991017964.07186 -0.8908362876628502 0.37373996150607935
61191317365.26946 -0.867778457967032 0.4229314182657284
61391616766.46707 -0.8414456338415266 0.4715473959017506
61591916167.66467 -0.8117064114631098 0.5194498679063968
61792215568.86228 -0.7784175544500296 0.5664733659398172
61992514970.05988 -0.7414259356934256 0.6124202310307401
62192814371.25749 -0.7005712746636644 0.6570553615910943
62393113772.45509 -0.6556899080323901 0.7001004740052756
62593413173.6527 -0.6066198797035162 0.7412279395136588
62793712574.8503 -0.5532076864539492 0.7800543310943224
62994011976.04791 -0.49531706230304556 0.8161339127253577
63194311377.245514 -0.43284021990471494 0.8489524380109854
63394610778.443115 -0.3657119772502362 0.8779218024733442
63594910179.640724 -0.2939271629836806 0.9023763183146121
63795209580.838326 -0.2175615862589347 0.9215716510971608
63995508982.035934 -0.13679664199142239 0.9346877631546404
64195808383.233536 -0.051947258161998466 0.9408375201295553
64396107784.431145 0.0365076633214001 0.9390828810885989
64596407185.628746 0.12789393733636562 0.928460722224051
64796706586.826355 0.22131254053484278 0.9080202147279484
64997005988.02396 0.31561559193921696 0.8768731325557393
65197305389.221565 0.40939281786099707 0.8342573407293843
65397604790.41917 0.5009743539066256 0.7796118868689057
65597904191.61677 0.588455983851006 0.7126595870264214
65798203592.81438 0.6697520404131889 0.6334899808267009
65998502994.01198 0.7426787871356704 0.5426325508065166
66198802395.20959 0.8050670113408157 0.4411079831202156
66399101796.40719 0.8548971171512266 0.3304449856560331
66599401197.6048 0.8904441733723762 0.2126526253681522
66799700598.8024 0.9104156495245072 0.09014358071973586
67000000000.0 0.9140626294472232 -0.03438852197543547
