! Created with skrf (http://scikit-rf.org).
# Hz S RI R 50.0 
!freq ReS11 ImS11
100000000.0 0.9999980916965041 -0.0006082981078941356
775757575.7575758 0.9999754969910114 -0.004718848208820623
1451515151.5151515 0.9999360050210023 -0.008829222113190193
2127272727.2727273 0.9998796167341275 -0.012939349958118492
2803030303.030303 0.9998063334202328 -0.017049161774203125
3478787878.787879 0.9997161566509946 -0.02115858763233468
4154545454.5454545 0.9996090882909526 -0.025267557612625797
4830303030.30303 0.9994851304993995 -0.029376001751583582
5506060606.060606 0.9993442853557116 -0.03348385008500057
6181818181.818182 0.9991865556276335 -0.03759103271044705
6857575757.575758 0.9990119444066362 -0.041697479716566836
7533333333.333333 0.9988204549811683 -0.04580312120072674
8209090909.090909 0.9986120909357398 -0.049907887259631585
8884848484.848484 0.9983868561445606 -0.054011708052597855
9560606060.60606 0.998144754778592 -0.05811451368825826
10236363636.363636 0.9978857927975021 -0.06221623445837899
10912121212.121212 0.9976099770293665 -0.06631680068907404
11587878787.878788 0.9973173102070715 -0.07041614245389224
12263636363.636364 0.9970077977841136 -0.07451419000719706
12939393939.39394 0.9966814455066585 -0.07861087361624343
13615151515.151516 0.9963382594148931 -0.0827061235716422
14290909090.90909 0.995978245839511 -0.08679987020643001
14966666666.666666 0.9956014114068616 -0.09089204385623413
15642424242.424242 0.9952077630319363 -0.09498257491751902
16318181818.181818 0.9947973079250327 -0.0990713937894888
16993939393.939394 0.9943700535874039 -0.10315843092622491
17669696969.696968 0.9939260078125451 -0.10724361679132166
18345454545.454544 0.9934651786852228 -0.11132688190812981
19021212121.21212 0.9929875745826576 -0.11540815681676699
19696969696.969696 0.9924932041737047 -0.11948737210145181
20372727272.727272 0.9919820764178986 -0.12356445838334401
21048484848.484848 0.9914542005665709 -0.12763934632486426
21724242424.242424 0.9909095861619269 -0.1317119666283638
22400000000.0 0.9903482430369642 -0.1357822500351219
23075757575.757576 0.9897701813147999 -0.1398501273366687
23751515151.515152 0.9891754114108156 -0.1439155293586141
24427272727.272728 0.9885639440285058 -0.1479783869833252
25103030303.030304 0.9879357901630943 -0.15203863112772417
25778787878.78788 0.987290961098147 -0.15609619277376985
26454545454.545456 0.9866294684088691 -0.16015100293349327
27130303030.303032 0.9859513239580229 -0.16420299268623814
27806060606.060604 0.9852565398987306 -0.1682520931502653
28481818181.81818 0.9845451286729404 -0.17229823550342868
29157575757.575756 0.983817103010061 -0.17634135098405201
29833333333.333332 0.9830724759306011 -0.18038137086770484
30509090909.090908 0.9823112607414898 -0.1844182265072132
31184848484.848484 0.9815334710376789 -0.18845184930100486
31860606060.60606 0.9807391207015265 -0.19248217071250198
32536363636.363636 0.9799282239049755 -0.19650912225987974
33212121212.121212 0.9791007951055604 -0.2005326355270022
33887878787.878788 0.9782568490469373 -0.2045526421636431
34563636363.63636 0.9773964007611666 -0.2085690738795427
35239393939.393936 0.9765194655670053 -0.21258186244458313
35915151515.15151 0.9756260590670526 -0.21659093970958052
36590909090.90909 0.9747161971513694 -0.2205962375807286
37266666666.666664 0.9737898959953464 -0.2245976880391354
37942424242.42424 0.9728471720595342 -0.22859522313129074
38618181818.181816 0.971888042088611 -0.2325887749857385
39293939393.93939 0.9709125231133889 -0.23657827578941182
39969696969.69697 0.9699206324475478 -0.2405636578158678
40645454545.454544 0.9689123876889939 -0.24454485340347154
41321212121.21212 0.9678878067202931 -0.24852179497472943
41996969696.969696 0.9668469077049556 -0.25249441502744374
42672727272.72727 0.9657897090919149 -0.25646264613778463
43348484848.48485 0.9647162296113089 -0.26042642096107865
44024242424.242424 0.9636264882755367 -0.2643856722361795
44700000000.0 0.9625205043794751 -0.2683403327821001
45375757575.757576 0.9613982974985306 -0.2722903355030633
46051515151.51515 0.9602598874902492 -0.2762356133867495
46727272727.27273 0.959105294492232 -0.28017609950881445
47403030303.030304 0.957934538923529 -0.28411172702833143
48078787878.78788 0.9567476414814411 -0.28804242919895445
48754545454.545456 0.955544623143543 -0.2919681393606039
49430303030.30303 0.954325505167618 -0.2958887909425735
50106060606.06061 0.953090309088841 -0.2998043174673192
50781818181.818184 0.9518390567220892 -0.3037146525502964
51457575757.57576 0.9505717701587308 -0.3076197299050653
52133333333.333336 0.9492884717692304 -0.3115194833345207
52809090909.09091 0.9479891842001669 -0.315413846743314
53484848484.84849 0.9466739303740794 -0.319302754134685
54160606060.606064 0.945342733492187 -0.3231861396047714
54836363636.36363 0.9439956170298172 -0.32706393735437994
55512121212.12121 0.9426326047377858 -0.33093608168947464
56187878787.878784 0.9412537206431905 -0.33480250700948766
56863636363.63636 0.9398589890445369 -0.33866314782737106
57539393939.393936 0.9384484345179609 -0.3425179387542746
58215151515.15151 0.9370220819121791 -0.3463668145083791
58890909090.90909 0.9355799563470132 -0.3502097099219424
59566666666.666664 0.9341220832172422 -0.3540465599253233
60242424242.42424 0.9326484881880819 -0.35787729956991204
60918181818.181816 0.9311591971992224 -0.36170186400544035
61593939393.93939 0.9296542364578165 -0.365520188505639
62269696969.69697 0.9281336324445105 -0.36933220844872683
62945454545.454544 0.9265974119084226 -0.3731378593326443
63621212121.21212 0.9250456018692402 -0.37693707676955346
64296969696.969696 0.9234782296165722 -0.3807297964852988
64972727272.72727 0.9218953227075957 -0.3845159543262932
65648484848.48485 0.9202969089669905 -0.3882954862594734
66324242424.242424 0.9186830164885567 -0.39206832836733363
67000000000.0 0.917053673633283 -0.3958344168569624
