! Created with skrf (http://scikit-rf.org).
# Hz S RI R 50.0 
!freq ReS11 ImS11 ReS21 ImS21 ReS12 ImS12 ReS22 ImS22
100000000.0 0.019324946726262147 0.013542699078052365 0.9796192783064264 -0.05186644958585881 0.9796192783064287 -0.051866449585815266 0.019715325483178628 0.012847660674809984
200000000.0 0.01997985038552478 0.027082538600280457 0.9760077870833296 -0.10364929186064442 0.9760077870833322 -0.10364929186062233 0.02154393661060404 0.02562130476421681
300000000.0 0.021661267415965267 0.040529377732779565 0.96947587796414 -0.15515749316051397 0.969475877964147 -0.15515749316047786 0.025167447244167203 0.03810309105219161
400000000.0 0.02435669759888947 0.05379389820514237 0.9600499089476711 -0.20620172043917573 0.9600499089476687 -0.2062017204391856 0.030541306917869687 0.050078801814009394
500000000.0 0.028044924922362977 0.0667886187599103 0.94777174318059 -0.25659607335291407 0.9477717431805938 -0.2565960733529011 0.03759565980487668 0.061341103589299166
600000000.0 0.0337088912410245 0.07905416848498065 0.9316999476586605 -0.3057391297423135 0.9316999476586691 -0.3057391297422825 0.04720315266870398 0.07123110599200788
700000000.0 0.04023721601914232 0.09077294094899348 0.9129742705740079 -0.35375385340069665 0.9129742705740098 -0.35375385340069204 0.05818884846282182 0.07989604088515895
800000000.0 0.04757301156615964 0.10187756159461643 0.8916919292192207 -0.40048512367638184 0.8916919292192158 -0.4004851236763908 0.07039906761476115 0.08718270747763918
900000000.0 0.05565397457801944 0.11230723920914812 0.8679603294299778 -0.44578853851259886 0.8679603294299821 -0.44578853851259037 0.08366433752519617 0.09295777779857518
1000000000.0 0.06441324292475425 0.12200818756454736 0.841895624418464 -0.48953114178451473 0.8418956244184647 -0.4895311417845133 0.09780211686376471 0.09710929827973411
1100000000.0 0.07393320501975778 0.13093369365278124 0.8135192610063914 -0.5315002059934886 0.8135192610063925 -0.5315002059934867 0.11265342732169015 0.0993782330884353
1200000000.0 0.08399135812406014 0.13904334181906772 0.7830759776737607 -0.571666961144881 0.7830759776737587 -0.571666961144886 0.12794920807420748 0.09985329424176649
1300000000.0 0.09451272914203214 0.14630506735403642 0.7507002752045293 -0.6099366400724195 0.7507002752045282 -0.6099366400724214 0.14348314283819294 0.09849700721251002
1400000000.0 0.10542118681912334 0.1526942501490937 0.7165293675145211 -0.6462267663247746 0.7165293675145169 -0.6462267663247804 0.1590479864885456 0.09529543933934266
1500000000.0 0.11664023156752108 0.15819357513918036 0.6807018588153999 -0.6804668511618688 0.6807018588154069 -0.680466851161861 0.17443825217558345 0.09025770424164387
1600000000.0 0.12809373073510416 0.16279280697591605 0.6433565266856841 -0.7125979388555194 0.6433565266856889 -0.7125979388555158 0.18945273275840846 0.08341516563477729
1700000000.0 0.13970659082375272 0.16648849167629307 0.6046312270575775 -0.7425720238206797 0.6046312270575784 -0.7425720238206789 0.20389682635674788 0.07482037985208745
1800000000.0 0.15140536077363842 0.16928359843752233 0.5646619324104817 -0.7703513640793735 0.5646619324104825 -0.770351364079372 0.21758464409333933 0.06454581810603786
1900000000.0 0.16311876291103528 0.17118711476208454 0.5235819099508238 -0.7959077156534325 0.523581909950828 -0.7959077156534303 0.23034088598133243 0.05268240965258597
2000000000.0 0.1747781504272967 0.1722136075697544 0.4815210424009281 -0.8192215118138567 0.48152104240093413 -0.8192215118138527 0.24200247813598422 0.03933794577835338
2100000000.0 0.18631789225879603 0.17238276216104972 0.4386052903213701 -0.8402810098241 0.4386052903213711 -0.8402810098241005 0.2524199708588947 0.0246353821609685
2200000000.0 0.19767568793212906 0.17171890982263474 0.3949562917208974 -0.8590814260452924 0.39495629172089736 -0.8590814260452919 0.26145870252777864 0.008711073926196895
2300000000.0 0.20879281631212868 0.17025055360843508 0.3506910920939343 -0.8756240781664857 0.3506910920939321 -0.8756240781664895 0.26899973856481185 -0.008287026097778651
2400000000.0 0.2196143232393191 0.16800990046532396 0.3059219959694465 -0.8899155510139845 0.305921995969446 -0.8899155510139842 0.2749405980452824 -0.02620117960110195
2500000000.0 0.23008915378449374 0.1650324064652005 0.2607565295301063 -0.9019668999971896 0.2607565295301121 -0.901966899997187 0.2791957827888319 -0.04486566346205639
2600000000.0 0.24017023530429246 0.16135634051112904 0.21529750282353508 -0.9117929038628042 0.2152975028235268 -0.9117929038628075 0.2816971251239536 -0.06410854108207244
2700000000.0 0.249814517684673 0.15702237054942766 0.16964315947983505 -0.9194113761325264 0.1696431594798327 -0.9194113761325289 0.28239397103606645 -0.08375339063092394
2800000000.0 0.25898297714466506 0.1520731750760446 0.1238874016087966 -0.9248425424496726 0.12388740160879116 -0.9248425424496727 0.281253215217439 -0.10362098014266795
2900000000.0 0.2676405897770021 0.14655308159766517 0.07812007760650051 -0.9281084890976246 0.07812007760649613 -0.9281084890976254 0.2782592037589762 -0.12353088267930172
3000000000.0 0.27575628066196434 0.14050773271183653 0.032427320892039334 -0.9292326861992075 0.03242732089204247 -0.9292326861992062 0.2734135189837228 -0.1433030275795296
3100000000.0 0.2833028539398476 0.13398377961214425 -0.013108071943620644 -0.9282395875699995 -0.013108071943622502 -0.9282395875700001 0.2667346593412713 -0.1627591861035244
3200000000.0 0.2902569086966644 0.12702860210641823 -0.05840623451577314 -0.9251543078760606 -0.05840623451577702 -0.925154307876061 0.2582576254728851 -0.1817243915619564
3300000000.0 0.2965987449345078 0.11969005365374566 -0.10338980584217593 -0.9200023766247062 -0.10338980584217859 -0.9200023766247057 0.248033421621256 -0.20002829528633767
3400000000.0 0.3023122632851838 0.11201622947361263 -0.14798349696947424 -0.9128095675763727 -0.1479834969694748 -0.9128095675763735 0.2361284795875888 -0.21750646057925785
3500000000.0 0.3073848615027271 0.10405525544808795 -0.19211365796284696 -0.9036018013820163 -0.19211365796285199 -0.9036018013820155 0.2226240105113105 -0.23400159710831372
3600000000.0 0.31180733015256834 0.09585509531594967 -0.2357078535335068 -0.8924051185976315 -0.2357078535335074 -0.8924051185976317 0.20761528793335132 -0.2493647381143597
3700000000.0 0.3155737493145268 0.08746337353478918 -0.2786944549563397 -0.8792457196782635 -0.27869445495633893 -0.8792457196782654 0.19121086396103526 -0.2634563623368145
3800000000.0 0.31868138754313674 0.07892721115333222 -0.32100225534958066 -0.8641500680816695 -0.3210022553495813 -0.864150068081669 0.1735317189318441 -0.2761474617623537
3900000000.0 0.321130603788928 0.07029307208154482 -0.36256011485100736 -0.8471450521923869 -0.3625601148510068 -0.8471450521923868 0.15471034381623047 -0.28732055522820166
4000000000.0 0.32292475248371144 0.06160661726070334 -0.4032966417260689 -0.8282582013883678 -0.40329664172607077 -0.8282582013883666 0.13488975374213133 -0.2968706466088001
4100000000.0 0.3240700915359694 0.052912564412652296 -0.4431399149729028 -0.8075179511964172 -0.44313991497290645 -0.8075179511964155 0.11422243049498029 -0.30470612483860854
4200000000.0 0.32457569257235785 0.04425455127795523 -0.48201725353471453 -0.7849539521054864 -0.482017253534716 -0.7849539521054861 0.09286919166971418 -0.31074960143023345
4300000000.0 0.32445335240102413 0.03567500053104957 -0.5198550367761108 -0.760597416218535 -0.5198550367761072 -0.7605974162185362 0.07099798434319152 -0.31493867949444637
4400000000.0 0.3237175043652372 0.02721498488016625 -0.5565785804089342 -0.7344814955196785 -0.5565785804089345 -0.7344814955196775 0.04878260170729606 -0.3172266466183132
4500000000.0 0.32238512800380154 0.018914091215061976 -0.5921120715476181 -0.7066416851138024 -0.5921120715476216 -0.7066416851138012 0.026401322058375518 -0.31758308237361843
4600000000.0 0.32047565524184757 0.010810283050151531 -0.6263785660158424 -0.6771162443659878 -0.6263785660158425 -0.6771162443659865 0.004035470873509998 -0.31599436977714573
4700000000.0 0.31801087120413024 0.002939760918971388 -0.6593000503993411 -0.6459466284383528 -0.6593000503993433 -0.6459466284383503 -0.018132091596033573 -0.3124640987759428
4800000000.0 0.3150148076769019 -0.004663179199629454 -0.6907975706296153 -0.6131779223071445 -0.6907975706296142 -0.6131779223071455 -0.03991855274336407 -0.3070133488546431
4900000000.0 0.31151362724619114 -0.01196628890931824 -0.7207914280794416 -0.5788592689626396 -0.7207914280794437 -0.5788592689626381 -0.06114279322182707 -0.29968083722798716
5000000000.0 0.3075354962129066 -0.018939510929978216 -0.7492014432471326 -0.5430442831714956 -0.7492014432471307 -0.5430442831714959 -0.08162708634668742 -0.29052291885695203
5100000000.0 0.30315878669325685 -0.025543262243531338 -0.7760194006708571 -0.5058339308273556 -0.7760194006708567 -0.5058339308273541 -0.10118798063316428 -0.2796212030487497
5200000000.0 0.2983641146497316 -0.031769508028787634 -0.801097135869354 -0.467243500527195 -0.801097135869355 -0.4672435005271946 -0.11967582496608878 -0.2670608158712514
5300000000.0 0.29318431617786456 -0.03759504467837999 -0.8243550782054027 -0.4273418551585307 -0.8243550782054027 -0.42734185515853074 -0.13693364757903356 -0.25294850010904135
5400000000.0 0.2876536459692073 -0.04299937201674367 -0.845714822148299 -0.3862036330090864 -0.8457148221482998 -0.38620363300908744 -0.15281480541286943 -0.23740690770271775
5500000000.0 0.28180757655326133 -0.047964817368354465 -0.8650996839947821 -0.34390946434774605 -0.8650996839947809 -0.3439094643477457 -0.16718471170315538 -0.2205736950830157
5600000000.0 0.27568258002809737 -0.05247664720692961 -0.8824353040938067 -0.300546123024636 -0.8824353040938079 -0.3005461230246348 -0.17992250426466933 -0.20260041313267518
5700000000.0 0.26931589270936035 -0.05652316329807073 -0.8976502864781981 -0.2562066058419235 -0.897650286478199 -0.2562066058419236 -0.19092262714193287 -0.1836511912391329
5800000000.0 0.262745263685772 -0.06009578019411265 -0.9106768665899972 -0.21099013344551007 -0.9106768665899974 -0.21099013344550951 -0.2000962969505035 -0.16390121898201296
5900000000.0 0.2560086888494905 -0.06318908098547607 -0.9214515966867158 -0.16500206771846082 -0.921451596686716 -0.16500206771845807 -0.20737282455867662 -0.14353503348139934
6000000000.0 0.249144132555036 -0.06580084836464997 -0.9299160375817596 -0.11835374210861062 -0.9299160375817596 -0.11835374210860945 -0.21270076285299772 -0.12274462519891725
6100000000.0 0.24218923962982292 -0.0679320683199627 -0.9360174446534024 -0.07116220297117613 -0.9360174446534022 -0.07116220297117601 -0.2160488522719024 -0.10172737989179008
6200000000.0 0.23518104099265377 -0.069586904145925 -0.9397094355978871 -0.02354986181890721 -0.9397094355978897 -0.023549861818906274 -0.2174067376305843 -0.08068387930853348
6300000000.0 0.22815565661151802 -0.07077263893034011 -0.9409526272434422 0.024355939699189248 -0.9409526272434422 0.024355939699187163 -0.21678543251404023 -0.059815587906164036
6400000000.0 0.2211479999282008 -0.07149958524515844 -0.9397152289132876 0.07242344827915227 -0.9397152289132887 0.07242344827915505 -0.21421751116359547 -0.039322457178801534
6500000000.0 0.21419148817510722 -0.07178096141478736 -0.9359735803464121 0.12051709510367552 -0.9359735803464129 0.12051709510367331 -0.2097570122646584 -0.019400482933025848
6600000000.0 0.20731776319297035 -0.07163273444268786 -0.9297126230602086 0.16849816192605296 -0.929712623060209 0.1684981619260528 -0.2034790442588219 -0.00023925385413898353
6700000000.0 0.20055642741408805 -0.07107343042317496 -0.9209262952597046 0.21622550760231496 -0.9209262952597026 0.216225507602316 -0.19547908761275296 0.017980468172232908
6800000000.0 0.19393479959671148 -0.07012391402446216 -0.9096178419386853 0.2635563440111734 -0.9096178419386841 0.2635563440111748 -0.18587199570627339 0.03508909440883297
6900000000.0 0.18747769467960548 -0.06880713937509914 -0.8958000336382507 0.3103470490111367 -0.8958000336382514 0.31034704901113497 -0.17479070245352743 0.05093044069677048
7000000000.0 0.1812072317751157 -0.06714787539124752 -0.8794952893734661 0.35645400312361747 -0.8794952893734668 0.3564540031236161 -0.16238465122686715 0.06536380349817783
7100000000.0 0.17514267384357016 -0.06517240922088831 -0.8607357014426297 0.40173443604462994 -0.8607357014426305 0.401734436044629 -0.14881796588915996 0.0782658423318687
7200000000.0 0.16930030200630486 -0.06290823202907651 -0.8395629621206682 0.4460472689032851 -0.8395629621206657 0.4460472689032848 -0.1342673905372235 0.08953223370341465
7300000000.0 0.16369332677883844 -0.060383711785357494 -0.8160281945280288 0.48925393841518966 -0.8160281945280282 0.4892539384151919 -0.11892002971333068 0.09907906592202259
7400000000.0 0.15833183776323942 -0.05762775802529279 -0.7901916921773334 0.531219189716644 -0.7901916921773338 0.5312191897166441 -0.10297092517681583 0.10684394931260352
7500000000.0 0.15322279255627108 -0.054669483732316095 -0.7621225737532836 0.571811825688289 -0.7621225737532838 0.5718118256882908 -0.08662050870246166 0.11278682209369958
7600000000.0 0.1483700448348277 -0.05153786952006751 -0.731898361505166 0.6109054019449685 -0.7318983615051659 0.6109054019449714 -0.0700719726890391 0.11689043839652291
7700000000.0 0.14377441080059714 -0.04826143519100049 -0.6996044931644841 0.6483788583281873 -0.6996044931644844 0.648378858328188 -0.0535286015691288 0.11916053132937487
7800000000.0 0.13943377242752186 -0.04486792351218314 -0.665333778494778 0.6841170796244174 -0.6653337784947774 0.6841170796244173 -0.037191107107971765 0.11962565042533509
7900000000.0 0.13534321528235838 -0.04138400069716294 -0.6291858124039262 0.7180113802737407 -0.6291858124039269 0.7180113802737406 -0.02125500970964137 0.11833667903796057
8000000000.0 0.13149519809952306 -0.03783497763076472 -0.5912663569849951 0.7499599099529968 -0.5912663569849944 0.7499599099529967 -0.005908105900266743 0.11536604307871252
8100000000.0 0.12787975080172295 -0.034244555342654144 -0.5516867048995303 0.779867979039701 -0.55168670489953 0.779867979039702 0.008671940646298077 0.11080662775741607
8200000000.0 0.12448469727711257 -0.03063459764790067 -0.5105630361930257 0.8076483050146239 -0.5105630361930261 0.8076483050146226 0.02231985068438529 0.10477042356521764
8300000000.0 0.12129589895659673 -0.027024933252171472 -0.4680157799646531 0.8332211827766235 -0.46801577996465393 0.8332211827766245 0.034884793764414015 0.09738692653881771
8400000000.0 0.11829751508076905 -0.02343318898848783 -0.42416899134303304 0.856514583566655 -0.42416899134303426 0.8565145835666556 0.046232239990213725 0.08880132081687198
8500000000.0 0.11547227549948465 -0.019874655232813773 -0.3791497529956091 0.8774641886831269 -0.3791497529956099 0.8774641886831268 0.0562455783561763 0.07917247363524771
8600000000.0 0.11280176189927978 -0.016362183956324654 -0.3330876089759409 0.8960133653851546 -0.3330876089759411 0.8960133653851546 0.06482748546992348 0.06867077423538281
8700000000.0 0.11026669349214152 -0.012906119328212281 -0.28611403714823574 0.9121130933022993 -0.2861140371482357 0.9121130933022985 0.07190103295724544 0.05747584873875862
8800000000.0 0.10784721340901073 -0.00951426029676549 -0.23836196477934066 0.9257218502902879 -0.23836196477934082 0.9257218502902862 0.07741052609047741 0.04577418295541429
8900000000.0 0.10552317230702712 -0.006191854156112483 -0.18996533021025727 0.9368054669937254 -0.189965330210257 0.9368054669937249 0.08132207008407603 0.03375668444946527
9000000000.0 0.10327440600444707 -0.002941619755870168 -0.1410586918630536 0.945336959410066 -0.14105869186305584 0.9453369594100652 0.08362386399576155 0.02161621409394454
9100000000.0 0.10108100428578053 0.00023620126803344105 -0.09177688425014055 0.9512963485133533 -0.09177688425013968 0.951296348513352 0.08432622522216554 0.009545115930236514
9200000000.0 0.0989235683571104 0.003343767073646621 -0.04225471917007665 0.954670475516307 -0.042254719170075374 0.954670475516309 0.0834613501760069 -0.0022672274804370514
9300000000.0 0.09678345476487837 0.006385533983557352 0.007373271070567955 0.9554528206546622 0.007373271070567786 0.955452820654662 0.08108281889490743 -0.013636788756755842
9400000000.0 0.09464300390996179 0.009368132715758395 0.056973052751317005 0.9536433324998436 0.05697305275131537 0.9536433324998437 0.07726485309915936 -0.024387214731041693
9500000000.0 0.09248575158389309 0.01230022458826387 0.10641127748956979 0.9492482737783056 0.1064112774895701 0.9492482737783046 0.07210133864359511 -0.03435204877083349
9600000000.0 0.09029662221994866 0.015192339816679704 0.15555544279691091 0.9422800885308887 0.15555544279691158 0.9422800885308869 0.06570462446669481 -0.04337683588688053
9700000000.0 0.08806210278511407 0.018056700002447464 0.20427403318983853 0.9327572942156364 0.20427403318983936 0.9327572942156357 0.05820411110495337 -0.05132109150819397
9800000000.0 0.08577039643841655 0.020907026870278483 0.2524366490024153 0.9207044010733645 0.25243664900241575 0.9207044010733658 0.04974464269237121 -0.058060116008683216
9900000000.0 0.08341155524838456 0.02375833926618895 0.2999141302406383 0.9061518597658705 0.2999141302406369 0.9061518597658681 0.04048471718156115 -0.0634866381014357
10000000000.0 0.0809775914002804 0.026626740380541455 0.34657868280855 0.8891360369895136 0.346578682808549 0.8891360369895139 0.030594530376190403 -0.06751227110096572
10100000000.0 0.07845796491828633 0.02953527134838657 0.3923287035649906 0.869753173459687 0.3923287035649908 0.869753173459687 0.02026306988388596 -0.0700757566277221
10200000000.0 0.0758536442638316 0.03249453759906845 0.43702042206078295 0.8479949721747461 0.4370204220607833 0.8479949721747473 0.009664851434337771 -0.07112514016574574
10300000000.0 0.07316279423272275 0.035522503087759956 0.4805308529966791 0.8239152357904609 0.48053085299667797 0.8239152357904598 -0.0010083030285538384 -0.07063465647094104
10400000000.0 0.0703857559379672 0.038637331466546375 0.5227390184553559 0.7975738196770961 0.5227390184553558 0.797573819677095 -0.01156190381840531 -0.06860103928639438
10500000000.0 0.0675250488257116 0.04185715346946743 0.5635261805626418 0.7690367004849348 0.5635261805626411 0.7690367004849336 -0.02180130122669218 -0.065043844003649
10600000000.0 0.06458534978107651 0.0451998356057002 0.6027761095947026 0.7383760472057396 0.6027761095947033 0.7383760472057377 -0.03153424189486731 -0.060005505398045694
10700000000.0 0.061573449373961864 0.048682752170223345 0.6403753899422855 0.7056702874399801 0.6403753899422855 0.7056702874399802 -0.04057344824822952 -0.05355112132674314
10800000000.0 0.05849818542662072 0.052322562644097036 0.6762137650879352 0.6710041611085675 0.6762137650879346 0.6710041611085671 -0.048739193443826996 -0.04576795526230154
10900000000.0 0.05537035424326404 0.056134996620386714 0.7101845214155829 0.6344687535729884 0.7101845214155847 0.6344687535729882 -0.055861842367004616 -0.036764652962361505
11000000000.0 0.05220260003000891 0.06013464844861995 0.7421849092813747 0.5961615000650329 0.7421849092813745 0.5961615000650338 -0.061784327433664146 -0.02667017148003322
11100000000.0 0.04900928325194362 0.0643347838324351 0.7721165983617648 0.5561861534891729 0.7721165983617646 0.5561861534891729 -0.06636452643036395 -0.015632422111336627
11200000000.0 0.0458063289218175 0.06874716063269175 0.7998861628945209 0.5146527080554092 0.7998861628945209 0.5146527080554106 -0.06947750847137849 -0.0038166327411241936
11300000000.0 0.042611056088484756 0.07338186611305732 0.825405591078158 0.47167727183118024 0.8254055910781569 0.4716772718311791 -0.07101761349159633 0.008596560654581541
11400000000.0 0.039441990087325546 0.07824717280880723 0.8485928116360609 0.4273818821640638 0.8485928116360609 0.4273818821640647 -0.07090033064330718 0.021413278934647832
11500000000.0 0.03631865942188325 0.08334941509524241 0.8693722294240145 0.3818942590122423 0.8693722294240146 0.3818942590122419 -0.069063941628471 0.03442880181333182
