! Created with skrf (http://scikit-rf.org).
# Hz S RI R 50.0 
!freq ReS11 ImS11 ReS21 ImS21 ReS12 ImS12 ReS22 ImS22
100000000.0 0.00015709932656478087 8.095774067677416e-05 0.9998386105830092 -0.001328716583789335 0.9998386105828017 -0.0013287167198309173 0.00015718813191217785 8.087103253017113e-05
200000000.0 0.00015970156699605145 0.00016189761808312243 0.999830072099863 -0.0026574148384808996 0.9998300720999891 -0.002657414919833897 0.0001600573773137677 0.00016174414260165283
300000000.0 0.00016242987974385674 0.0002428201089371454 0.999819761371956 -0.003986092419840417 0.9998197613719787 -0.003986092403871243 0.00016323096976960774 0.0002426189095443811
400000000.0 0.00016528420579040907 0.00032372518329849804 0.9998076784415971 -0.0053147468746057094 0.9998076784416084 -0.005314746885639253 0.00016670892359843572 0.0003234945451605005
500000000.0 0.00016826448637419957 0.0004046128266996056 0.9997938233550675 -0.006643375910802432 0.9997938233550329 -0.006643375925430716 0.0001704912513247241 0.00040437035384206766
600000000.0 0.00018174856953897522 0.00048543778126437174 0.9997678186669773 -0.007971889370175365 0.9997678186669706 -0.007971889378966495 0.00018495492459603795 0.00048511549791649085
700000000.0 0.000195358093407201 0.0005662303060330948 0.9997400425744613 -0.009300343470714859 0.9997400425743509 -0.009300343476798341 0.0001997220022602175 0.0005658160876766447
800000000.0 0.00020909299066461262 0.0006469904686613324 0.9997104951934213 -0.010628735802831035 0.9997104951933491 -0.010628735809173843 0.0002147923640356341 0.0006464715241039548
900000000.0 0.0002229531947205201 0.000727718330713118 0.9996791766423871 -0.011957064061992028 0.9996791766424051 -0.011957064060604693 0.00023016588793561398 0.0007270811357706046
1000000000.0 0.00023693864000943625 0.0008084138968151677 0.9996460870433376 -0.013285325868093186 0.9996460870432983 -0.013285325870732924 0.00024584245008274865 0.0008076442201869068
1100000000.0 0.0002441888217544501 0.0008891741315217275 0.9996180869178314 -0.014613625328038048 0.9996180869180358 -0.014613625311462028 0.0002549618928965866 0.0008882760900925298
1200000000.0 0.00025156473090422036 0.0009699198180391677 0.9995883153718098 -0.015941872961521348 0.9995883153718328 -0.01594187295824938 0.00026438488250630555 0.0009688812056228146
1300000000.0 0.0002590663452483063 0.0010506509695444627 0.9995567724936459 -0.017270066466207802 0.9995567724936724 -0.017270066463660343 0.0002741113507621498 0.0010494589073921652
1400000000.0 0.00026669364438492723 0.0011313676698651188 0.999523458375245 -0.01859820348453869 0.9995234583753762 -0.018598203477833877 0.00028414122913194716 0.001130008556746143
1500000000.0 0.0002744466079987762 0.001212069949499729 0.9994883731122733 -0.019926281639815444 0.9994883731122505 -0.019926281640766548 0.00029447444624892304 0.0012105294596752574
1600000000.0 0.0002823252175830352 0.0012927578695569237 0.9994515168019682 -0.021254298613756637 0.9994515168018547 -0.021254298619374952 0.0003051109313334883 0.001291020982845475
1700000000.0 0.00029032945429299117 0.0013734314469790246 0.9994128895456296 -0.022582252046643325 0.9994128895456411 -0.022582252045975946 0.0003160506114727289 0.0013714824536701863
1800000000.0 0.00029845930183765133 0.0014540907628823574 0.9993724914472187 -0.02391013958665461 0.9993724914472751 -0.023910139583993635 0.00032729341274207894 0.001451913212298335
1900000000.0 0.00030671474374894853 0.0015347358658548828 0.9993303226138278 -0.025237958882240178 0.9993303226138239 -0.02523795888237689 0.0003388392606628966 0.001532312610333384
2000000000.0 0.000315095764748607 0.0016153667819022806 0.9992863831555244 -0.02656570758265172 0.9992863831553612 -0.02656570759045353 0.0003506880783878791 0.0016126799656228025
2100000000.0 0.00032360235051022337 0.0016959835730113533 0.9992406731849331 -0.027893383356427687 0.9992406731849737 -0.0278933833559439 0.0003628397894316871 0.0016930146400785972
2200000000.0 0.0003322344874240278 0.0017765862791254325 0.9991931928183247 -0.029220983846419246 0.9991931928184917 -0.02922098383973498 0.00037529431517889283 0.0017733159701461346
2300000000.0 0.0003409921636982975 0.0018571749691263346 0.9991439421751969 -0.030548506682706845 0.9991439421751653 -0.03054850668413263 0.00038805157594181165 0.001853583285870156
2400000000.0 0.00034987536683111397 0.0019377496606645642 0.9990929213771583 -0.031875949539651734 0.9990929213773514 -0.03187594953285283 0.0004011114914634004 0.0019338159406913774
2500000000.0 0.00035888408727444756 0.0020183104292439925 0.9990401305494768 -0.033203310058811705 0.9990401305495438 -0.03320331005637829 0.00041447397938723104 0.002014013261587516
2600000000.0 0.0003680183145132087 0.0020988573162869593 0.9989855698200929 -0.0345305858971954 0.9989855698198806 -0.03453058590423931 0.0004281389574396198 0.0020941746020849477
2700000000.0 0.00037727804007475064 0.0021793903508780855 0.9989292393198417 -0.03585777471563924 0.9989292393200255 -0.03585777471029965 0.00044210634133836426 0.0021742993034070714
2800000000.0 0.0003866632561464411 0.0022599095987864437 0.9988711391833779 -0.03718487414933825 0.9988711391835278 -0.03718487414475849 0.0004563760456601198 0.002254386696402951
2900000000.0 0.0003961739560282014 0.0023404151108614804 0.9988112695476145 -0.03851188185477923 0.998811269547626 -0.038511881854694764 0.0004709479844930605 0.0023344361333725843
3000000000.0 0.0004058101335728021 0.0024209069289539737 0.9987496305522578 -0.03983879549813494 0.9987496305523894 -0.03983879549427725 0.0004858220704576731 0.002414446961246033
3100000000.0 0.0004155717836433072 0.0025013850995775386 0.9986862223413376 -0.041165612707735826 0.9986862223411713 -0.041165612712088934 0.0005009982140703784 0.002494418498578274
3200000000.0 0.0004254589024044981 0.002581849670259075 0.9986210450600909 -0.04249233115899959 0.9986210450599526 -0.04249233116254705 0.000516476326675295 0.002574350113470952
3300000000.0 0.000435471486139988 0.002662300685492785 0.9985540988578469 -0.04381894850135577 0.9985540988580414 -0.04381894849697826 0.0005322563168404133 0.0026542411358375503
3400000000.0 0.00044560953343209496 0.0027427382076043515 0.9984853838869833 -0.04514546238072512 0.9984853838869533 -0.04514546238131533 0.0005483380929267376 0.002734090912613147
3500000000.0 0.0004558730420287444 0.0028231622688545486 0.9984149003028466 -0.046471870449030346 0.9984149003029338 -0.046471870447167725 0.0005647215613365503 0.002813898781148682
3600000000.0 0.00046626201244767885 0.002903572927910393 0.9983426482629765 -0.04779817037219661 0.9983426482631022 -0.047798170369283466 0.0005814066282756957 0.0028936640937230985
3700000000.0 0.00047677644445293164 0.002983970220955068 0.9982686279289623 -0.0491243597959688 0.9982686279291783 -0.0491243597911339 0.0005983931981792361 0.0029733861877121372
3800000000.0 0.0004874163398055014 0.003064354204260935 0.9981928394650826 -0.050450436371888834 0.9981928394650964 -0.0504504363716753 0.0006156811741035967 0.0030530644000680805
3900000000.0 0.0004981817012449292 0.003144724926461613 0.9981152830381926 -0.05177639776122307 0.9981152830382061 -0.05177639776100211 0.0006332704591182777 0.0031326980887389786
4000000000.0 0.0005090725314500268 0.003225082429888393 0.9980359588187119 -0.05310224161447785 0.9980359588186007 -0.053102241616767486 0.0006511609541105012 0.0032122865890054134
4100000000.0 0.0005200888344702087 0.003305426752778304 0.9979548669796553 -0.05442796559131088 0.9979548669798306 -0.054427965588084756 0.0006693525587027261 0.003291829243631569
4200000000.0 0.0005312306163409516 0.0033857579612879816 0.9978720076975203 -0.05575356733920352 0.997872007697472 -0.05575356733997105 0.0006878451725555633 0.003371325402144471
4300000000.0 0.0005424978824956578 0.0034660760874928565 0.9977873811508728 -0.05707904452588087 0.997787381151069 -0.0570790445225189 0.0007066386932968156 0.0034507744082408597
4400000000.0 0.0005538906400439013 0.0035463811879435743 0.9977009875227265 -0.05840439479344739 0.9977009875226532 -0.058404394794927435 0.0007257330170295674 0.0035301755998596836
4500000000.0 0.0005654088969260609 0.0036266733028934447 0.9976128269979111 -0.05972961580420027 0.9976128269979532 -0.059729615803513984 0.0007451280401582786 0.00360952833167974
4600000000.0 0.0005770526622167499 0.003706952484359532 0.9975228997644233 -0.061054705217646256 0.9975228997643987 -0.06105470521812254 0.0007648236567809444 0.003688831944960647
4700000000.0 0.0005888219450182927 0.003787218770236797 0.9974312060138949 -0.06237966068449633 0.9974312060139942 -0.06237966068282235 0.000784819759597573 0.0037680857794821243
4800000000.0 0.0006007167567162161 0.003867472216936155 0.9973377459402558 -0.06370447986484916 0.9973377459402005 -0.06370447986569368 0.0008051162416684571 0.0038472891877313264
4900000000.0 0.0006127371084100447 0.003947712860306981 0.9972425197409666 -0.06502916041331758 0.9972425197410204 -0.06502916041233181 0.0008257129933683372 0.003926441512441315
5000000000.0 0.0006248830128331404 0.004027940756240877 0.9971455276160383 -0.06635369998994667 0.9971455276160694 -0.06635369998948915 0.0008466099051328827 0.004005542103993426
5100000000.0 0.00063409578507212 0.004108356457610803 0.9970498282584899 -0.06767831652229966 0.9970498282584802 -0.06767831652236454 0.0008647516580002986 0.004084830117261372
5200000000.0 0.0006434348393057834 0.004188767335737336 0.9969523626688316 -0.06900279601085288 0.9969523626689345 -0.06900279600933562 0.0008831943202075608 0.004164074451292837
5300000000.0 0.0006529002094825397 0.004269173436102553 0.9968531310374942 -0.07032713611433274 0.9968531310375892 -0.07032713611289239 0.0009019378044475468 0.004243274451625739
5400000000.0 0.0006624919298205298 0.00434957480589157 0.9967521335582312 -0.07165133448768364 0.9967521335582763 -0.07165133448699075 0.0009209820220744935 0.004322429460798205
5500000000.0 0.0006722100357290789 0.004429971488030434 0.9966493704279509 -0.07297538878415914 0.9966493704276641 -0.07297538878824458 0.0009403268830124352 0.004401538821521394
5600000000.0 0.0006820545629254767 0.004510363513845419 0.9965448418457727 -0.07429929666877817 0.9965448418457038 -0.07429929666960887 0.0009599722963925104 0.004480601877032545
5700000000.0 0.0006920255498671546 0.0045907509479060585 0.9964385480144998 -0.07562305579519112 0.9964385480142727 -0.07562305579820155 0.0009799181707109944 0.004559617979180463
5800000000.0 0.0007021230330998293 0.004671133812194597 0.9963304891399303 -0.07694666382067128 0.9963304891398183 -0.07694666382208379 0.00100016441220339 0.004638586463083801
5900000000.0 0.0007123470526517858 0.004751512161644308 0.9962206654309108 -0.07827011839958452 0.9962206654307534 -0.07827011840179819 0.0010207109264415263 0.004717506675952015
6000000000.0 0.0007226976478338322 0.0048318860341062635 0.9961090770986898 -0.07959341719641039 0.9961090770986679 -0.07959341719676086 0.0010415576183415917 0.004796377964472031
6100000000.0 0.0007331748596573402 0.0049122554708907 0.9959957243582717 -0.08091655786457025 0.9959957243582545 -0.08091655786486265 0.001062704390854944 0.004875199667771593
6200000000.0 0.0007437787298927655 0.004992620517359861 0.9958806074270962 -0.0822395380657807 0.9958806074271687 -0.08223953806491253 0.0010841511467317977 0.004953971136849401
6300000000.0 0.0007545093010801455 0.0050729812138057065 0.9957637265262687 -0.08356235545399342 0.9957637265262796 -0.08356235545402314 0.0011058977864795798 0.0050326917113156545
6400000000.0 0.0007653666165651116 0.005153337600722509 0.9956450818790217 -0.08488500769393428 0.9956450818790791 -0.08488500769329675 0.0011279442106927361 0.005111360741255344
6500000000.0 0.0007763507211506867 0.005233689721044694 0.995524673712186 -0.08620749244291527 0.9955246737123767 -0.08620749244063647 0.001150290318006512 0.00518997757040614
6600000000.0 0.0007874616597560579 0.005314037614758104 0.9954025022558098 -0.08752980735694019 0.9954025022557249 -0.08752980735788764 0.0011729360056255565 0.005268541539236495
6700000000.0 0.0007986994786055771 0.0053943813202338604 0.9952785677419176 -0.08885195010368999 0.9952785677422249 -0.08885195010027314 0.0011958811708651792 0.005347052001148088
6800000000.0 0.0008100642250360537 0.0054747208835904775 0.9951528704068084 -0.09017391833688354 0.9951528704070164 -0.09017391833457485 0.0012191257087879276 0.005425508297897089
6900000000.0 0.0008215559472225706 0.005555056343346054 0.9950254104891164 -0.09149570971730102 0.9950254104889917 -0.09149570971864684 0.0012426695138195072 0.0055039097747112764
7000000000.0 0.0008331746934517807 0.00563538773473225 0.9948961882303475 -0.09281732190883263 0.9948961882302966 -0.09281732190943963 0.0012665124789303583 0.005582255778646028
7100000000.0 0.0008449205140851803 0.005715715103354475 0.9947652038750642 -0.09413875257385039 0.9947652038750304 -0.09413875257419749 0.001290654496587463 0.005660545659101198
7200000000.0 0.0008567934596772843 0.005796038483756503 0.9946324576717345 -0.0954599993657348 0.9946324576716405 -0.09545999936676787 0.0013150954568993106 0.005738778754728837
7300000000.0 0.0008687935816258427 0.005876357919175526 0.9944979498702342 -0.09678105995543136 0.9944979498702697 -0.09678105995510994 0.0013398352505217144 0.005816954420716627
7400000000.0 0.0008809209328633962 0.005956673448644225 0.9943616807246555 -0.09810193200085406 0.994361680724723 -0.09810193200026028 0.0013648737654094417 0.005895071998727986
7500000000.0 0.0008931755663487089 0.006036985106417445 0.9942236504918265 -0.09942261316333435 0.9942236504918125 -0.09942261316354137 0.0013902108894755015 0.00597313083589408
7600000000.0 0.0009055575365803537 0.00611729293678411 0.9940838594307263 -0.10074310111317415 0.9940838594310191 -0.10074310111021459 0.0014158465095365355 0.0060511302875040016
7700000000.0 0.0009180668991573901 0.006197596976394389 0.9939423078053486 -0.10206339350027771 0.9939423078053604 -0.10206339350020228 0.0014417805094917775 0.006129069686963409
7800000000.0 0.0009307037093384884 0.0062778972588137015 0.9937989958807926 -0.10338348799492746 0.99379899588079 -0.10338348799489151 0.0014680127742585688 0.006206948390092875
7900000000.0 0.0009434680248172933 0.006358193828884292 0.9936539239253492 -0.10470338226422443 0.993653923925299 -0.10470338226470863 0.0014945431871504675 0.006284765745922181
8000000000.0 0.0009563599026494253 0.006438486715651553 0.9935070922115007 -0.10602307396570365 0.9935070922116176 -0.10602307396453091 0.001521371629317593 0.006362521098050364
8100000000.0 0.0009693794027605632 0.0065187759644272925 0.9933585010137302 -0.10734256076514362 0.9933585010135243 -0.10734256076712466 0.0015484979814601172 0.006440213794153696
8200000000.0 0.0009825265832167245 0.006599061602523409 0.993208150609477 -0.10866184033083663 0.9932081506094671 -0.1086618403309497 0.0015759221236266762 0.006517843185688341
8300000000.0 0.0009958015060440395 0.006679343676932532 0.9930560412794769 -0.10998091032669355 0.9930560412796287 -0.10998091032525342 0.0016036439344442397 0.006595408623698681
8400000000.0 0.0010092042318788164 0.0067596222169950424 0.992902173307898 -0.11129976841454475 0.9929021733081047 -0.11129976841268954 0.0016316632904063754 0.0066729094493777905
8500000000.0 0.0010227348232796462 0.006839897261576178 0.992746546981455 -0.11261841226002926 0.9927465469813359 -0.11261841226115271 0.00165998006789838 0.006750345015072903
8600000000.0 0.0010363933429520158 0.006920168842967636 0.9925891625894584 -0.11393683953313623 0.9925891625894459 -0.11393683953334194 0.0016885941425190058 0.006827714671209753
8700000000.0 0.001050179855512255 0.007000436998404364 0.9924300204248987 -0.11525504789754741 0.9924300204249771 -0.11525504789693457 0.0017175053875499698 0.0069050177645181374
8800000000.0 0.0010640944257232655 0.007080701763722898 0.9922691207831054 -0.11657303502348035 0.992269120783199 -0.11657303502271582 0.0017467136762009793 0.006982253647126861
8900000000.0 0.001078137119159602 0.00716096317113052 0.9921064639634831 -0.11789079857228453 0.9921064639634554 -0.11789079857254055 0.0017762188797930208 0.007059421665724002
9000000000.0 0.0010923080029286245 0.00724122125839808 0.9919420502672825 -0.11920833621509791 0.991942050267489 -0.11920833621343657 0.0018060208690470231 0.007136521172598795
9100000000.0 0.001106607144431609 0.0073214760576286834 0.9917758799994532 -0.1205256456179446 0.9917758799993315 -0.120525645619038 0.0018361195131802147 0.007213551515554712
9200000000.0 0.0011210346118138178 0.00740172759762042 0.9916079534674882 -0.12184272445079512 0.9916079534676915 -0.12184272444918902 0.0018665146805507417 0.007290512045892797
9300000000.0 0.0011355904746999507 0.007481975918808525 0.9914382709822165 -0.12315957038138246 0.9914382709823854 -0.12315957038002877 0.0018972062382034422 0.007367402113098341
9400000000.0 0.0011502748035586497 0.007562221052541924 0.9912668328572426 -0.12447618107893266 0.9912668328573806 -0.12447618107780656 0.0019281940525141049 0.00744422107101066
9500000000.0 0.0011650876691714207 0.007642463030632027 0.9910936394097459 -0.12579255420931262 0.9910936394096259 -0.12579255421035826 0.0019594779876222937 0.0075209682649705085
9600000000.0 0.0011800291430727936 0.007722701880908815 0.9909186909586566 -0.12710868744864642 0.9909186909588633 -0.12710868744704074 0.0019910579076681157 0.007597643049863902
9700000000.0 0.001195099298613142 0.007802937640994241 0.9907419878275178 -0.12842457845974634 0.9907419878275713 -0.1284245784593458 0.002022933675193564 0.007674244774495176
9800000000.0 0.0012102982094540748 0.007883170341049227 0.9905635303412195 -0.12974022491960577 0.9905635303413356 -0.1297402249187402 0.0020551051517377988 0.007750772793191921
9900000000.0 0.0012256259499994833 0.007963400010938029 0.9903833188287827 -0.13105562449645725 0.9903833188289386 -0.13105562449531216 0.002087572197532006 0.007827226455818948
10000000000.0 0.0012410825959109175 0.00804362668417542 0.9902013536223019 -0.13237077485810378 0.9902013536220433 -0.13237077486008791 0.0021203346719225473 0.00790360511309076
10100000000.0 0.0012553381960691246 0.008124023798792863 0.9900189647655452 -0.13368586429788987 0.990018964765723 -0.1336858642966049 0.002152068283912447 0.007980115229208797
10200000000.0 0.0012697234159433442 0.00820442137553046 0.9898348223137118 -0.13500070361209726 0.9898348223139491 -0.13500070361036987 0.002184097830812784 0.008056553089612293
10300000000.0 0.001284238341500307 0.008284819443663265 0.9896489265995548 -0.1363152904707239 0.9896489265996464 -0.13631529047006502 0.002216423179899649 0.008132918044484823
10400000000.0 0.0012988830598253337 0.008365218030339575 0.9894612779580146 -0.13762962254964003 0.9894612779580991 -0.13762962254902006 0.0022490441971415587 0.008209209447008068
10500000000.0 0.0013136576583786894 0.00844561716393367 0.9892718767278761 -0.13894369751919972 0.989271876727892 -0.1389436975191565 0.002281960747149948 0.008285426645358671
10600000000.0 0.001328562225248855 0.008526016869646281 0.9890807232509734 -0.1402575130499511 0.98908072325098 -0.140257513050023 0.0023151726937054137 0.008361568991096425
10700000000.0 0.0013435968499176526 0.008606417173181181 0.988887817871775 -0.141571066815382 0.9888878178718188 -0.14157106681511558 0.0023486798989805027 0.008437635833289192
10800000000.0 0.001358761623069147 0.008686818103077016 0.9886931609374379 -0.14288435649105266 0.9886931609376779 -0.1428843564894218 0.0023824822247463543 0.008513626526284046
10900000000.0 0.0013740566354825624 0.008767219686571057 0.9884967527987935 -0.14419737974859084 0.9884967527989404 -0.144197379747637 0.002416579531079468 0.008589540419218465
11000000000.0 0.0013894819791246571 0.008847621946856331 0.9882985938094804 -0.14551013426143872 0.9882985938094812 -0.1455101342615474 0.002450971676629954 0.008665376862665126
