! Created with skrf (http://scikit-rf.org).
# Hz S RI R 50.0 
!freq ReS11 ImS11 ReS21 ImS21 ReS12 ImS12 ReS22 ImS22
100000000.0 0.000588759498403004 -0.0007092403617379293 0.999392095225476 -0.003148709802077044 0.9993920952254137 -0.0031487097925662275 0.000590158395158352 -0.0007102917104056041
775757575.7575758 0.00039724844238937904 -0.005497985030122341 0.9990272815921383 -0.02442192991266637 0.9990272815921595 -0.024421929911745587 0.00048155300891964905 -0.0055082947090576515
1451515151.5151515 -4.4609219476186634e-05 -0.010270834674260316 0.998169738980079 -0.04567832968190088 0.9981697389800189 -0.04567832968322441 0.0002502406564916296 -0.010300663892858991
2127272727.2727273 -0.0007443315255232808 -0.015015156392108776 0.9968288005517858 -0.06690564886690384 0.9968288005517086 -0.06690564886808241 -0.0001121262737809109 -0.015083341360308497
2803030303.030303 -0.0017087176603015352 -0.019718131803454664 0.9950140409636111 -0.08809222284250322 0.9950140409636841 -0.08809222284169595 -0.0006135828453572438 -0.0198514200493575
3478787878.787879 -0.0029354616625084703 -0.02436711626451738 0.9927268891643719 -0.10922627475013666 0.9927268891642859 -0.10922627475096011 -0.001253488613178917 -0.024600265233676796
4154545454.5454545 -0.004421664620101648 -0.02894959441139693 0.9899691305038488 -0.1302960908019459 0.9899691305037287 -0.13029609080284518 -0.0020310295884014605 -0.029325273485718013
4830303030.30303 -0.006163842293055276 -0.033453208838161545 0.9867429032311477 -0.15129003426501872 0.9867429032311478 -0.15129003426499932 -0.002945219983689033 -0.034021880055107936
5506060606.060606 -0.008154290915352391 -0.037865875420119925 0.9830470919330726 -0.172196069176289 0.983047091933055 -0.17219606917643232 -0.003991416969161248 -0.03868644100766274
6181818181.818182 -0.010390790089593458 -0.04217560652583244 0.9788869308269206 -0.19300293664787663 0.9788869308269035 -0.1930029366479243 -0.005170692852766959 -0.04331415033464647
6857575757.575758 -0.01286937662716102 -0.046370661741909416 0.9742668001898701 -0.21369945504838217 0.9742668001898113 -0.21369945504862745 -0.006482754050631494 -0.04790033860582851
7533333333.333333 -0.015584327380290976 -0.05043959323687841 0.9691902034893345 -0.23427442903155857 0.9691902034895042 -0.2342744290308376 -0.00792596609388275 -0.05244066085382451
8209090909.090909 -0.018529393594739194 -0.05437124582817597 0.9636609697279765 -0.25471680589814916 0.9636609697280026 -0.2547168058980553 -0.009498536321186463 -0.05693084491374678
8884848484.848484 -0.021697816833996707 -0.05815478151856143 0.9576832460838488 -0.2750156876602586 0.9576832460836123 -0.2750156876611148 -0.011198517611497837 -0.061366697852276275
9560606060.60606 -0.025082346099479347 -0.06177970307532815 0.9512614899952736 -0.2951603426395081 0.9512614899951625 -0.29516034263986624 -0.01302381241473538 -0.06574411218680273
10236363636.363636 -0.028683370866180075 -0.06523446640851663 0.9444085244472415 -0.31514230347588684 0.9444085244472444 -0.3151423034758751 -0.014979771021509693 -0.07005649487027535
10912121212.121212 -0.032499630222630686 -0.06850774945134604 0.9371362424744943 -0.33495354578779085 0.9371362424743539 -0.3349535457881814 -0.017070218691684628 -0.07429712164995331
11587878787.878788 -0.03650739399194905 -0.07159265450024473 0.9294349353869309 -0.35458029163910515 0.9294349353871164 -0.3545802916386123 -0.019278336686210245 -0.07846670225000466
12263636363.636364 -0.04069762674148102 -0.07448026047104368 0.9213101953021078 -0.37401258709572804 0.9213101953020306 -0.3740125870959284 -0.021601435311822136 -0.08256155578216234
12939393939.39394 -0.045060901626563094 -0.07716208840847585 0.9127678767597113 -0.3932406948388539 0.9127678767598071 -0.3932406948386441 -0.02403670006680436 -0.08657811564319051
13615151515.151516 -0.049587423227811976 -0.07963011819871768 0.9038140861382485 -0.4122551024196817 0.9038140861381236 -0.4122551024199655 -0.026581197176762685 -0.0905129340254352
14290909090.90909 -0.054267051081965015 -0.08187680400482282 0.8944551707630755 -0.43104652991925096 0.8944551707632512 -0.43104652991887793 -0.029231879292524045 -0.0943626861114102
14966666666.666666 -0.05908932381903489 -0.08389508838934547 0.8846977077545455 -0.4496059369752381 0.8846977077545862 -0.4496059369751457 -0.031985591343207866 -0.09812417396268049
15642424242.424242 -0.06404348383432722 -0.085678415114844 0.8745484926479379 -0.46792452918760474 0.8745484926478728 -0.46792452918771504 -0.03483907651375916 -0.10179433008625932
16318181818.181818 -0.06911850240789985 -0.0872207405994613 0.8640145278311171 -0.4859937638815577 0.8640145278311915 -0.48599376388142573 -0.03778898233754246 -0.10537022068283608
16993939393.939394 -0.07430310519436996 -0.08851654401695097 0.8531030108349588 -0.5038053552353334 0.8531030108348778 -0.5038053552354723 -0.04083186687714221 -0.10884904857187454
17669696969.696968 -0.07958579800452363 -0.08956083604773393 0.8418213225171514 -0.5213512787682101 0.8418213225170488 -0.5213512787683732 -0.043964204977496577 -0.11222815579215185
18345454545.454544 -0.08495489279814693 -0.09034916626649019 0.8301770151786204 -0.5386237751895855 0.8301770151786563 -0.5386237751895269 -0.047182394572544105 -0.11550502587995123
19021212121.21212 -0.09039853381219286 -0.09087762918649916 0.8181778006494516 -0.5556153536158424 0.8181778006494407 -0.5556153536158499 -0.05048276302625528 -0.11867728582692931
19696969696.969696 -0.09590472374856004 -0.09114286896081332 0.805831538381366 -0.5723187941618231 0.8058315383813395 -0.572318794161855 -0.05386157348795082 -0.12174270771683372
20372727272.727272 -0.10146134994842652 -0.09114208276174114 0.7931462235836299 -0.5887271499137622 0.7931462235836697 -0.5887271499137109 -0.05731503124882978 -0.12469921005141454
21048484848.484848 -0.10705621048057186 -0.09087302285254416 0.78012997543628 -0.6048337482980224 0.7801299754362363 -0.6048337482980677 -0.06083929007704449 -0.12754485876418864
21724242424.242424 -0.11267704007728853 -0.09033399738119105 0.7667910254141628 -0.6206321918574604 0.7667910254141855 -0.6206321918574452 -0.06443045851940013 -0.13027786793300017
22400000000.0 -0.11831153584962181 -0.08952386991848378 0.7531377057559945 -0.6361163584491356 0.753137705756166 -0.6361163584489308 -0.06808460615204377 -0.13289660019505697
23075757575.757576 -0.12394738271971723 -0.0884420577696844 0.7391784381054171 -0.651280400884867 0.7391784381055014 -0.651280400884769 -0.07179776976334436 -0.13539956687407292
23751515151.515152 -0.12957227851186123 -0.08708852910158159 0.7249217223564003 -0.6661187460286847 0.7249217223564924 -0.666118746028574 -0.07556595945883213 -0.13778542782811407
24427272727.272728 -0.13517395864314374 -0.08546379891177024 0.7103761257286083 -0.680626093374251 0.7103761257285983 -0.6806260933742582 -0.07938516467084798 -0.14005299102585206
25103030303.030304 -0.14074022036234735 -0.08356892388747697 0.6955502720990563 -0.6947974131222745 0.6955502720989972 -0.6947974131223371 -0.08325136006251908 -0.14220121186434792
25778787878.78788 -0.14625894648698434 -0.08140549619023552 0.68045283161316 -0.7086279437816982 0.6804528316130939 -0.7086279437817614 -0.08716051131438575 -0.14422919223522845
26454545454.545456 -0.15171812859243303 -0.07897563621371154 0.6650925105983844 -0.7221131893171904 0.6650925105983998 -0.7221131893171836 -0.09110858078124168 -0.14613617935295597
27130303030.303032 -0.15710588960960986 -0.07628198435798673 0.6494780417983322 -0.7352489158698734 0.6494780417983566 -0.7352489158698507 -0.09509153301087983 -0.14792156435608428
27806060606.060604 -0.1624105057949753 -0.07332769186772403 0.6336181749475013 -0.7480311480741176 0.6336181749476407 -0.7480311480740031 -0.0991053401160284 -0.14958488069162865
28481818181.81818 -0.16762042803509566 -0.07011641078383286 0.6175216677034544 -0.7604561649966751 0.6175216677034934 -0.7604561649966403 -0.10314598699055963 -0.15112580229804634
29157575757.575756 -0.17272430245624254 -0.06665228305399112 0.6011972769474124 -0.7725204957275414 0.6011972769473601 -0.7725204957275869 -0.1072094763619936 -0.15254414159577417
29833333333.333332 -0.17771099030876708 -0.06293992885424671 0.5846537504689886 -0.7842209146463405 0.584653750468929 -0.7842209146463921 -0.1112918336768974 -0.1538398472985051
30509090909.090908 -0.18256958710543184 -0.05898443417174946 0.5678998190458381 -0.7955544363909225 0.5678998190458903 -0.7955544363908806 -0.1153891118122267 -0.15501300206047053
31184848484.848484 -0.18728944098888342 -0.05479133769572557 0.5509441889247888 -0.8065183105580006 0.5509441889248219 -0.8065183105579747 -0.11949739560735696 -0.1560638199672554
31860606060.60606 -0.19186017031370367 -0.05036661706909451 0.5337955347121447 -0.8171100161614522 0.5337955347120464 -0.8171100161615151 -0.123612806214706 -0.15699264388712952
32536363636.363636 -0.19627168042747242 -0.04571667454922152 0.5164624926806356 -0.8273272558738533 0.5164624926806518 -0.8273272558738403 -0.12773150526632157 -0.1577999426925318
33212121212.121212 -0.20051417963930385 -0.04084832212428657 0.49895365449437945 -0.8371679500795958 0.498953654494396 -0.8371679500795829 -0.1318496988533531 -0.15848630836575553
33887878787.878788 -0.20457819436818564 -0.03576876613834142 0.48127756135443955 -0.846630230765777 0.48127756135432287 -0.8466302307658446 -0.1359636413181889 -0.15905245299754017
34563636363.63636 -0.2084545834668033 -0.030485591466525352 0.46344269856638287 -0.8557124352752131 0.4634426985663098 -0.855712435275256 -0.14006963885866663 -0.15949920569510134
35239393939.393936 -0.2121345517154083 -0.025006745289357 0.4454574905279576 -0.8644130999484829 0.4454574905280086 -0.8644130999484493 -0.14416405294459197 -0.15982750940636498
35915151515.15151 -0.2156096624880721 -0.01934052051042036 0.42733029613511253 -0.8727309536785802 0.4273302961349825 -0.872730953678649 -0.14824330354735848 -0.16003841767474963
36590909090.90909 -0.21887184959363598 -0.01349553886065569 0.4090694046020298 -0.8806649114028823 0.4090694046020025 -0.880664911402892 -0.15230387218441688 -0.16013309133238338
37266666666.666664 -0.2219134282933418 -0.007480733729841997 0.39068303169167135 -0.8882140675547231 0.3906830316916572 -0.8882140675547319 -0.1563423047810704 -0.16011279514568194
37942424242.42424 -0.22472710550432537 -0.0013053327682131578 0.3721793163494333 -0.8953776894980585 0.3721793163494288 -0.8953776894980561 -0.16035521435183026 -0.1599788944185449
38618181818.181816 -0.22730598919546668 0.005021159707201203 0.35356631773226266 -0.9021552109668062 0.3535663177322956 -0.9021552109667955 -0.16433928350361954 -0.15973285156690736
39293939393.93939 -0.22964359698671225 0.011488980460153378 0.3348520126281146 -0.9085462255281275 0.33485201262811953 -0.9085462255281297 -0.16829126676720146 -0.15937622267161858
39969696969.69697 -0.23173386396248438 0.0180881252051574 0.31604429325259387 -0.9145504800918247 0.316044293252563 -0.9145504800918359 -0.17220799275730947 -0.15891065401695081
40645454545.454544 -0.2335711497127176 0.02480836656476504 0.29715096541623426 -0.920167868482793 0.2971509654162555 -0.9201678684827822 -0.17608636616870443 -0.1583378786256235
41321212121.21212 -0.23515024461490588 0.031639272082966755 0.278179747049861 -0.9253984250956886 0.2781797470498269 -0.925398425095698 -0.17992336961115152 -0.15765971279548494
41996969696.969696 -0.2364663753729796 0.038570222265635 0.25913826707720916 -0.9302423186482776 0.25913826707718546 -0.9302423186482859 -0.1837160652897585 -0.15687805264611715
42672727272.72727 -0.2375152098277272 0.04559042861942104 0.24003406462311516 -0.9346998460499555 0.24003406462320231 -0.9346998460499308 -0.18746159653364303 -0.15599487068092868
43348484848.48485 -0.23829286105590328 0.052688951663562286 0.2208745885441769 -0.9387714264002109 0.22087458854414316 -0.9387714264002199 -0.1911571891809968 -0.15501221237130047
44024242424.242424 -0.23879589077647723 0.05985471889071279 0.2016671972687699 -0.9424575951312681 0.2016671972687914 -0.9424575951312614 -0.19480015282414587 -0.1539321927688122
44700000000.0 -0.23902131207832222 0.067076542652703 0.18241915893473262 -0.9457589983080171 0.18241915893466745 -0.945758998308027 -0.19838788192164372 -0.15275699314927638
45375757575.757576 -0.23896659149026728 0.07434313795354668 0.16313765180748913 -0.9486763870978988 0.16313765180742987 -0.9486763870979116 -0.2019178567816551 -0.15148885769361653
46051515151.51515 -0.23862965041042536 0.08164314012707799 0.1438297649688182 -0.9512106124210465 0.14382976496876668 -0.9512106124210541 -0.2053876444248768 -0.15013009021046836
46727272727.27273 -0.23800886591135292 0.08896512238447687 0.12450249925780345 -0.9533626197923959 0.12450249925772627 -0.9533626197924058 -0.2087948993298034 -0.14868305090244635
47403030303.030304 -0.23710307094175215 0.09629761321401022 0.10516276845298252 -0.9551334443638558 0.10516276845295314 -0.9551334443638626 -0.21213736406967296 -0.1471501531804415
48078787878.78788 -0.23591155393949798 0.10362911362031482 0.08581740067785933 -0.9565242061763548 0.08581740067797029 -0.956524206176343 -0.21541286984323935 -0.1455338605283964
48754545454.545456 -0.23443405787538124 0.11094811418762389 0.06647314001843278 -0.9575361056284171 0.06647314001846864 -0.95753610562841 -0.2186193369088091 -0.1438366834198259
49430303030.30303 -0.23267077874455283 0.11824311195781556 0.04713664833447598 -0.9581704191689109 0.047136648334519624 -0.9581704191689051 -0.22175477492477622 -0.14206117628930187
50106060606.06061 -0.23062236352116677 0.12550262711135898 0.027814507252684945 -0.9584284952196382 0.027814507252755777 -0.9584284952196248 -0.2248172832030699 -0.14020993455954397
50781818181.818184 -0.2282899075926637 0.132715219441163 0.008513220325260912 -0.9583117503332795 0.008513220325235717 -0.9583117503332858 -0.22780505088143996 -0.1382855917245892
51457575757.57576 -0.22567495169106264 0.13986950461331019 -0.010760784660943625 -0.9578216655910041 -0.010760784660942203 -0.9578216655910085 -0.23071635701912088 -0.13629081649150845
52133333333.333336 -0.22277947833326367 0.146954170204353 -0.030001153236996154 -0.9569597832437711 -0.03000115323702028 -0.9569597832437667 -0.23354957062201612 -0.13422830997813723
52809090909.09091 -0.2196059077870922 0.153957991511725 -0.04920160168501287 -0.955727703600115 -0.049201601685076334 -0.9557277036001098 -0.2363031506016113 -0.13210080297062507
53484848484.84849 -0.21615709357518437 0.16086984712896013 -0.06835591436165514 -0.9541270821633105 -0.0683559143616127 -0.9541270821633138 -0.23897564567264537 -0.12991105323622204
54160606060.606064 -0.21243631752999034 0.16767873428195718 -0.0874579409289602 -0.9521596270191511 -0.08745794092893645 -0.9521596270191475 -0.24156569419476484 -0.12766184289481172
54836363636.36363 -0.20844728441281477 0.17437378392275016 -0.10650159350636185 -0.949827096475678 -0.10650159350637993 -0.9498270964756774 -0.24407202396206404 -0.12535597584487845
55512121212.12121 -0.20419411610630836 0.18094427557467602 -0.12548084375706117 -0.9471312969556477 -0.1254808437570246 -0.9471312969556542 -0.2464934519441846 -0.12299627524576755
56187878787.878784 -0.19968134539230092 0.18737965192742523 -0.14438971992234004 -0.9440740811413475 -0.14438971992232322 -0.9440740811413475 -0.24882888398438188 -0.12058558105215487
56863636363.63636 -0.19491390932502584 0.19366953317781538 -0.16322230381832983 -0.9406573463711874 -0.16322230381834218 -0.9406573463711869 -0.2510773144571526 -0.11812674760189518
57539393939.393936 -0.18989714220664028 0.19980373111377378 -0.18197272780823565 -0.936883033287352 -0.18197272780818396 -0.9368830332873624 -0.2532378258886178 -0.11562264125279904
58215151515.15151 -0.18463676817589086 0.20577226293858236 -0.2006351717609793 -0.9327531247322813 -0.20063517176098344 -0.9327531247322834 -0.2553095885447011 -0.11307613806978367
58890909090.90909 -0.17913889341492484 0.21156536483218186 -0.21920386001355727 -0.9282696448923146 -0.2192038600135189 -0.9282696448923223 -0.25729185998738774 -0.11049012155675676
59566666666.666664 -0.17340999798206874 0.21717350524846357 -0.2376730583444402 -0.9234346586857539 -0.23767305834454028 -0.9234346586857304 -0.2591839846043925 -0.10786748043387759
60242424242.42424 -0.16745692727667655 0.2225873979434651 -0.25603707097493117 -0.9182502713920877 -0.2560370709749428 -0.9182502713920803 -0.26098539311282054 -0.10521110645676024
60918181818.181816 -0.1612868831404082 0.22779801473291902 -0.2742902376065787 -0.9127186285194704 -0.2742902376065685 -0.912718628519472 -0.262695602039922 -0.10252389227521193
61593939393.93939 -0.1549074146003932 0.23279659797601324 -0.29242693051024404 -0.9068419159056281 -0.29242693051034896 -0.9068419159055969 -0.2643142131829505 -0.09980872932997532
62269696969.69697 -0.14832640825799911 0.23757467278085526 -0.3104415516760647 -0.9006223600486303 -0.31044155167603327 -0.9006223600486497 -0.26584091304855717 -0.09706850578363341
62945454545.454544 -0.14155207832599595 0.2421240589283136 -0.3283285300351162 -0.8940622286627952 -0.3283285300351667 -0.8940622286627818 -0.2672754722750983 -0.09430610448460038
63621212121.21212 -0.13459295631898854 0.24643688251017049 -0.3460823187666618 -0.887163831453633 -0.34608231876669276 -0.8871638314536242 -0.2686177450373002 -0.09152440096106089
64296969696.969696 -0.12745788039660688 0.2505055872758813 -0.3636973926992039 -0.8799295211076393 -0.3636973926992561 -0.8799295211076167 -0.26986766843475973 -0.08872626144159129
64972727272.72727 -0.12015598436503219 0.2543229456833063 -0.3811682458167155 -0.8723616944900321 -0.38116824581677017 -0.8723616944900098 -0.27102526186547116 -0.08591454090187702
65648484848.48485 -0.11269668633590466 0.257882069647265 -0.39848938888082996 -0.8644627940446599 -0.3984893888808411 -0.8644627940446525 -0.27209062638368825 -0.08309208113299571
66324242424.242424 -0.10508967704588527 0.2611764209784512 -0.4156553471784284 -0.8562353093893448 -0.41565534717837493 -0.8562353093893723 -0.27306394404304757 -0.08026170883005396
67000000000.0 -0.09734490783705038 0.26419982150698157 -0.43266065840463735 -0.8476817790995247 -0.4326606584046403 -0.8476817790995215 -0.2739454772248332 -0.07742623369859877
