! Created with skrf (http://scikit-rf.org).
# Hz S RI R 50.0 
!freq ReS11 ImS11 ReS21 ImS21 ReS12 ImS12 ReS22 ImS22
100000000.0 0.00015709932657370873 8.095773530777954e-05 0.9998386105830299 -0.0013287165954127692 0.9998386105828352 -0.0013287167124877938 0.00015718813189767136 8.087102794272049e-05
200000000.0 0.00015970156697333178 0.00016189762010760018 0.9998300720998536 -0.00265741484060362 0.9998300721000044 -0.002657414921860767 0.00016005737730244012 0.00016174414290360352
300000000.0 0.00016242987971585812 0.00024282010406067607 0.9998197613719516 -0.003986092421080283 0.9998197613719889 -0.003986092402634469 0.00016323096977545628 0.00024261891260082792
400000000.0 0.0001652842057950639 0.0003237251817272024 0.9998076784415928 -0.005314746874358616 0.9998076784415909 -0.005314746885888774 0.00016670892361162485 0.00032349454491099454
500000000.0 0.0001682644863624252 0.00040461282432552683 0.9997938233550829 -0.00664337591019448 0.9997938233550338 -0.006643375925937131 0.0001704912512902337 0.00040437035217274684
600000000.0 0.0001817485695489552 0.0004854377814138762 0.9997678186669882 -0.007971889367952577 0.9997678186669683 -0.007971889379297211 0.0001849549245796249 0.00048511549642230056
700000000.0 0.00019535809340543117 0.0005662303070581 0.9997400425744813 -0.009300343468199298 0.9997400425743559 -0.009300343476763171 0.00019972200224184397 0.0005658160871306891
800000000.0 0.00020909299065051303 0.0006469904677520204 0.9997104951934209 -0.010628735802831484 0.9997104951933508 -0.01062873580921448 0.00021479236403295967 0.0006464715240634943
900000000.0 0.00022295319472437496 0.0007277183317541046 0.9996791766423846 -0.011957064062442376 0.9996791766424196 -0.011957064060013307 0.0002301658879110114 0.0007270811346714074
1000000000.0 0.00023693864001818514 0.0008084138970684399 0.999646087043338 -0.013285325867966906 0.9996460870432944 -0.013285325870988497 0.000245842450076468 0.0008076442200586913
1100000000.0 0.0002441888217351476 0.0008891741312430188 0.9996180869178407 -0.014613625327153809 0.9996180869180321 -0.014613625312094517 0.00025496189288203144 0.0008882760887513767
1200000000.0 0.0002515647309148975 0.0009699198186194516 0.999588315371813 -0.015941872960940733 0.9995883153718208 -0.01594187295883167 0.0002643848825151507 0.0009688812054945296
1300000000.0 0.00025906634526025676 0.0010506509701125114 0.9995567724936274 -0.017270066467257567 0.9995567724936715 -0.017270066463857186 0.00027411135077399254 0.0010494589083588097
1400000000.0 0.00026669364439183116 0.0011313676702343345 0.9995234583752496 -0.018598203484169275 0.9995234583753714 -0.01859820347820531 0.0002841412291289379 0.0011300085563745834
1500000000.0 0.00027444660800231274 0.0012120699499555223 0.999488373112281 -0.01992628163929615 0.9994883731122499 -0.019926281640769622 0.00029447444625598304 0.0012105294600629974
1600000000.0 0.0002823252175788651 0.0012927578694686707 0.999451516801968 -0.021254298613844987 0.9994515168018594 -0.02125429861928886 0.0003051109313330602 0.0012910209829316646
1700000000.0 0.00029032945432173684 0.0013734314477502909 0.9994128895456483 -0.022582252045744388 0.9994128895456419 -0.02258225204578198 0.00031605061144550416 0.001371482452828158
1800000000.0 0.000298459301854053 0.0014540907631078119 0.9993724914472314 -0.02391013958601069 0.999372491447272 -0.02391013958399424 0.00032729341272358354 0.0014519132116526863
1900000000.0 0.0003067147437416409 0.0015347358656399724 0.999330322613836 -0.02523795888210094 0.9993303226138367 -0.025237958881936844 0.0003388392606551167 0.0015323126101920083
2000000000.0 0.00031509576475932427 0.0016153667821899077 0.9992863831555171 -0.026565707582945557 0.9992863831553507 -0.026565707590842442 0.00035068807838785923 0.0016126799655880753
2100000000.0 0.00032360235050242085 0.0016959835727520295 0.9992406731849386 -0.02789338335623277 0.9992406731849749 -0.027893383355913792 0.0003628397894350698 0.0016930146401086413
2200000000.0 0.0003322344874547604 0.0017765862798105304 0.9991931928183044 -0.02922098384712373 0.9991931928184741 -0.02922098384028455 0.0003752943151913417 0.0017733159707593992
2300000000.0 0.0003409921636884516 0.0018571749689833713 0.9991439421751945 -0.030548506682786507 0.9991439421751803 -0.03054850668370795 0.00038805157594362427 0.001853583286004346
2400000000.0 0.000349875366835433 0.0019377496611936334 0.9990929213771679 -0.03187594953941392 0.9990929213773433 -0.031875949533111805 0.0004011114914543409 0.0019338159409510534
2500000000.0 0.00035888408727133427 0.0020183104292630562 0.9990401305494759 -0.03320331005879269 0.9990401305495445 -0.033203310056365565 0.00041447397939610957 0.002014013261827364
2600000000.0 0.00036801831451219814 0.0020988573163036794 0.9989855698200956 -0.03453058589717879 0.9989855698198794 -0.034530585904258206 0.00042813895743024376 0.002094174601839037
2700000000.0 0.00037727804008521725 0.0021793903509819655 0.9989292393198257 -0.03585777471611636 0.9989292393200123 -0.0358577747106475 0.00044210634135295155 0.002174299303867511
2800000000.0 0.0003866632561491796 0.002259909599097461 0.998871139183398 -0.03718487414873694 0.9988711391835329 -0.03718487414461687 0.0004563760456600374 0.0022543866964811225
2900000000.0 0.00039617395601691287 0.0023404151107517266 0.9988112695476026 -0.0385118818551165 0.9988112695476321 -0.03851188185458705 0.00047094798449013247 0.002334436133480844
3000000000.0 0.00040581013359718105 0.0024209069291827525 0.9987496305522491 -0.03983879549834105 0.9987496305523725 -0.039838795494673 0.0004858220704744224 0.0024144469612850427
3100000000.0 0.0004155717836471992 0.002501385099791173 0.9986862223413401 -0.04116561270763586 0.9986862223411705 -0.04116561271207734 0.000500998214067787 0.002494418498589923
3200000000.0 0.00042545890240308003 0.002581849670174913 0.9986210450600932 -0.04249233115897025 0.9986210450599525 -0.04249233116257869 0.0005164763266662277 0.00257435011321229
3300000000.0 0.0004354714861402163 0.002662300685172763 0.998554098857848 -0.0438189485013529 0.9985540988580559 -0.043818948496660876 0.0005322563168375335 0.002654241135605155
3400000000.0 0.0004456095334362677 0.0027427382076667364 0.998485383886967 -0.045145462381098525 0.9984853838869396 -0.04514546238160693 0.000548338092932456 0.0027340909127571917
3500000000.0 0.0004558730420595434 0.0028231622692106 0.9984149003028503 -0.04647187044890029 0.9984149003029312 -0.04647187044714822 0.000564721561325992 0.002813898781054779
3600000000.0 0.0004662620124384716 0.0029035729276593114 0.9983426482629664 -0.04779817037244776 0.9983426482631033 -0.047798170369261435 0.00058140662830052 0.0028936640940848838
3700000000.0 0.0004767764444560722 0.0029839702210143755 0.9982686279289675 -0.049124359795795894 0.9982686279291795 -0.04912435979108178 0.0005983931981689549 0.002973386187423593
3800000000.0 0.0004874163398077385 0.0030643542043841585 0.998192839465082 -0.05045043637191103 0.9981928394651043 -0.05045043637157108 0.0006156811740957435 0.003053064400091343
3900000000.0 0.000498181701252548 0.0031447249265443185 0.9981152830381799 -0.05177639776148045 0.9981152830382121 -0.05177639776086018 0.0006332704591255506 0.0031326980888807913
4000000000.0 0.0005090725314360526 0.003225082429531071 0.9980359588187104 -0.05310224161454469 0.9980359588186156 -0.05310224161647629 0.0006511609541227231 0.0032122865891190755
4100000000.0 0.0005200888344831133 0.0033054267530484107 0.9979548669796596 -0.05442796559126763 0.9979548669798212 -0.05442796558824357 0.0006693525587044131 0.0032918292436995788
4200000000.0 0.0005312306163258125 0.003385757960972448 0.9978720076975209 -0.055753567339229 0.9978720076974852 -0.055753567339771166 0.0006878451725461502 0.0033713254021684566
4300000000.0 0.0005424978825089684 0.0034660760877142675 0.9977873811508682 -0.05707904452594952 0.9977873811510612 -0.05707904452262901 0.0007066386933047645 0.0034507744084209934
4400000000.0 0.0005538906400386321 0.003546381187876087 0.9977009875227273 -0.058404394793401516 0.9977009875226507 -0.05840439479497545 0.0007257330170297537 0.0035301755998115173
4500000000.0 0.0005654088969294666 0.0036266733028793795 0.9976128269979103 -0.059729615804214126 0.9976128269979546 -0.05972961580350225 0.0007451280401548872 0.003609528331691785
4600000000.0 0.0005770526622159544 0.003706952484349192 0.9975228997644222 -0.061054705217656574 0.9975228997643991 -0.06105470521811432 0.000764823656781578 0.0036888319449688844
4700000000.0 0.0005888219450114896 0.003787218770110872 0.9974312060139013 -0.06237966068440464 0.9974312060139945 -0.062379660682811 0.000784819759590766 0.0037680857793893617
4800000000.0 0.0006007167567280505 0.0038674722170344883 0.9973377459402588 -0.06370447986479111 0.9973377459401996 -0.06370447986568091 0.0008051162416725564 0.003847289187670597
4900000000.0 0.0006127371084103227 0.0039477128603059184 0.9972425197409653 -0.06502916041331859 0.9972425197410201 -0.06502916041233286 0.0008257129933684314 0.0039264415124402674
5000000000.0 0.0006248830128660585 0.004027940756571999 0.9971455276160444 -0.06635369998983194 0.9971455276160625 -0.06635369998957964 0.0008466099051144688 0.004005542103894897
5100000000.0 0.0006340957850738397 0.004108356457611838 0.9970498282584923 -0.06767831652226688 0.9970498282584965 -0.06767831652212672 0.000864751658003081 0.0040848301173543565
5200000000.0 0.0006434348393133718 0.004188767335910497 0.9969523626688331 -0.06900279601082478 0.9969523626689243 -0.06900279600951084 0.0008831943202084763 0.004164074451262467
5300000000.0 0.0006529002094849072 0.004269173436184486 0.9968531310375012 -0.0703271361142511 0.9968531310375839 -0.07032713611297638 0.000901937804437562 0.004243274451542265
5400000000.0 0.0006624919298330589 0.004349574806018137 0.9967521335582566 -0.07165133448733904 0.9967521335582837 -0.07165133448688599 0.0009209820220573113 0.004322429460572539
5500000000.0 0.0006722100357216426 0.00442997148781475 0.9966493704279729 -0.0729753887838671 0.996649370427689 -0.07297538878791811 0.0009403268829969255 0.00440153882122707
5600000000.0 0.0006820545629056004 0.004510363513689353 0.996544841845785 -0.07429929666863615 0.9965448418457084 -0.07429929666956761 0.0009599722963986334 0.004480601877114721
5700000000.0 0.0006920255498703131 0.004590750947895071 0.9964385480145087 -0.07562305579508849 0.9964385480142642 -0.07562305579830618 0.0009799181707192284 0.0045596179793022835
5800000000.0 0.0007021230330980572 0.0046711338121842826 0.9963304891399386 -0.07694666382056847 0.9963304891398196 -0.07694666382207557 0.0010001644122025226 0.004638586463092245
5900000000.0 0.0007123470526465786 0.004751512161482602 0.9962206654309017 -0.07827011839970514 0.9962206654307397 -0.0782701184019518 0.0010207109264432476 0.004717506675869995
6000000000.0 0.0007226976478254242 0.004831886034033599 0.9961090770986842 -0.07959341719648344 0.9961090770986749 -0.07959341719669023 0.0010415576183445598 0.004796377964543078
6100000000.0 0.0007331748596466644 0.004912255470783087 0.9959957243582812 -0.08091655786447687 0.9959957243582551 -0.08091655786487031 0.001062704390842396 0.0048751996676763484
6200000000.0 0.000743778729908049 0.004992620517640569 0.9958806074271019 -0.08223953806571742 0.9958806074271611 -0.08223953806500506 0.0010841511467433278 0.004953971136973797
6300000000.0 0.0007545093010754935 0.005072981213754571 0.9957637265262705 -0.08356235545397221 0.9957637265262754 -0.08356235545407735 0.0011058977864802178 0.005032691711302119
6400000000.0 0.0007653666165663725 0.005153337600736051 0.9956450818790128 -0.0848850076940339 0.9956450818790775 -0.08488500769331238 0.0011279442106925733 0.005111360741239551
6500000000.0 0.0007763507211453005 0.005233689721007907 0.9955246737121896 -0.08620749244287992 0.9955246737123796 -0.08620749244060162 0.0011502903180027973 0.005189977570368772
6600000000.0 0.0007874616597467752 0.005314037614670935 0.9954025022558127 -0.08752980735691457 0.9954025022557318 -0.08752980735780234 0.0011729360056292187 0.005268541539322144
6700000000.0 0.0007986994785670766 0.005394381319909825 0.9952785677418983 -0.08885195010394326 0.9952785677422364 -0.0888519501001671 0.0011958811708669714 0.005347052001182021
6800000000.0 0.000810064225050333 0.005474720883658947 0.9951528704068089 -0.09017391833687083 0.9951528704070012 -0.09017391833474162 0.0012191257087829487 0.005425508297786351
6900000000.0 0.0008215559472178879 0.005555056343278653 0.9950254104890983 -0.09149570971749728 0.9950254104889968 -0.0914957097185818 0.0012426695138219711 0.005503909774792843
7000000000.0 0.0008331746934452 0.0056353877346606894 0.9948961882303267 -0.09281732190904912 0.9948961882303113 -0.09281732190927723 0.0012665124789441077 0.00558225577884033
7100000000.0 0.0008449205140845248 0.005715715103417427 0.9947652038750614 -0.09413875257385998 0.994765203875029 -0.0941387525741875 0.0012906544966047847 0.005660545659124761
7200000000.0 0.0008567934596810154 0.005796038483778154 0.9946324576717371 -0.09545999936571296 0.9946324576716372 -0.09545999936679168 0.0013150954568974112 0.005738778754704925
7300000000.0 0.0008687935816290581 0.005876357919204684 0.9944979498702288 -0.09678105995547445 0.9944979498702561 -0.09678105995525438 0.0013398352505197514 0.005816954420644121
7400000000.0 0.0008809209328713962 0.005956673448718418 0.9943616807246624 -0.09810193200077953 0.9943616807247223 -0.09810193200025484 0.0013648737654138464 0.005895071998732833
7500000000.0 0.0008931755663416558 0.0060369851063244145 0.9942236504918298 -0.0994226131633145 0.9942236504918119 -0.09942261316356368 0.0013902108894756947 0.005973130835928826
7600000000.0 0.0009055575365895495 0.0061172929368247635 0.9940838594307433 -0.10074310111300391 0.9940838594310152 -0.10074310111025792 0.0014158465095340657 0.006051130287387411
7700000000.0 0.0009180668991353427 0.006197596976216236 0.9939423078053418 -0.10206339350035287 0.9939423078053824 -0.102063393499986 0.0014417805094957682 0.006129069687076811
7800000000.0 0.0009307037093373458 0.00627789725881224 0.9937989958807933 -0.10338348799492907 0.9937989958807958 -0.10338348799483556 0.0014680127742559444 0.006206948390092665
7900000000.0 0.0009434680248238711 0.006358193828913844 0.9936539239253632 -0.10470338226410653 0.9936539239253032 -0.1047033822646843 0.0014945431871255263 0.006284765745803891
8000000000.0 0.0009563599026553632 0.006438486715658317 0.9935070922115009 -0.1060230739656964 0.9935070922116161 -0.10602307396454021 0.0015213716293105348 0.006362521097984667
8100000000.0 0.0009693794027642227 0.006518775964430325 0.9933585010137371 -0.10734256076506786 0.993358501013538 -0.10734256076699344 0.0015484979814636268 0.006440213794212744
8200000000.0 0.0009825265832162213 0.006599061602518605 0.9932081506094769 -0.10866184033084149 0.9932081506094673 -0.10866184033094702 0.0015759221236263242 0.006517843185691062
8300000000.0 0.000995801506042743 0.006679343676829896 0.9930560412794712 -0.10998091032673894 0.9930560412796343 -0.10998091032521011 0.0016036439344538972 0.006595408623741237
8400000000.0 0.0010092042318737616 0.006759622217056154 0.9929021733078965 -0.11129976841457286 0.9929021733080993 -0.11129976841275825 0.0016316632904089384 0.006672909449511735
8500000000.0 0.0010227348232748742 0.006839897261595148 0.9927465469814499 -0.11261841226006729 0.9927465469813401 -0.11261841226111685 0.0016599800678863857 0.006750345014996731
8600000000.0 0.0010363933429400102 0.006920168842877569 0.9925891625894516 -0.11393683953319514 0.992589162589456 -0.1139368395332345 0.0016885941425296405 0.0068277146712277595
8700000000.0 0.0010501798554945936 0.00700043699829992 0.9924300204249041 -0.11525504789750853 0.9924300204249856 -0.11525504789686997 0.0017175053875482973 0.00690501776449502
8800000000.0 0.0010640944257009467 0.007080701763590329 0.9922691207830913 -0.11657303502361427 0.9922691207832092 -0.11657303502264098 0.0017467136762061135 0.006982253647202218
8900000000.0 0.001078137119160879 0.007160963171141923 0.9921064639634848 -0.11789079857227311 0.9921064639634604 -0.11789079857249767 0.0017762188797911113 0.007059421665710564
9000000000.0 0.0010923080029292256 0.007241221258450705 0.9919420502672892 -0.11920833621504585 0.9919420502674761 -0.1192083362135494 0.001806020869035161 0.007136521172543435
9100000000.0 0.001106607144431021 0.007321476057767266 0.9917758799994612 -0.12052564561787964 0.9917758799993205 -0.12052564561911958 0.0018361195131888347 0.007213551515601129
9200000000.0 0.0011210346118086271 0.00740172759763198 0.9916079534674899 -0.12184272445078431 0.9916079534676902 -0.12184272444920216 0.0018665146805520376 0.0072905120458793115
9300000000.0 0.0011355904747005576 0.007481975918807218 0.9914382709822166 -0.12315957038138378 0.9914382709823848 -0.12315957038002956 0.0018972062382029815 0.007367402113097587
9400000000.0 0.0011502748035504514 0.0075622210525318504 0.991266832857246 -0.12447618107890765 0.9912668328573752 -0.12447618107785387 0.0019281940524972236 0.007444221070928767
9500000000.0 0.0011650876691831102 0.007642463030624313 0.9910936394097306 -0.12579255420942714 0.9910936394096098 -0.12579255421047805 0.001959477987636881 0.007520968265013493
9600000000.0 0.0011800291430673366 0.007722701880919949 0.9909186909586627 -0.12710868744860007 0.9909186909588694 -0.127108687446997 0.001991057907665663 0.00759764304987221
9700000000.0 0.0011950992985965074 0.007802937640903985 0.990741987827515 -0.12842457845978142 0.9907419878275774 -0.1284245784593029 0.0020229336751962155 0.007674244774538637
9800000000.0 0.0012102982094542468 0.007883170341089693 0.9905635303412289 -0.12974022491952983 0.990563530341332 -0.12974022491877973 0.0020551051517198465 0.007750772793118109
9900000000.0 0.0012256259500101829 0.00796340001099323 0.9903833188287601 -0.13105562449663352 0.9903833188288951 -0.13105562449563077 0.0020875721975342713 0.007827226455787302
10000000000.0 0.0012410825959258867 0.008043626684324788 0.9902013536223013 -0.1323707748580981 0.9902013536220317 -0.13237077486017468 0.002120334671940005 0.007903605113203444
10100000000.0 0.0012553381960730644 0.008124023798781537 0.9900189647655419 -0.13368586429791612 0.9900189647657159 -0.1336858642966524 0.0021520682839299633 0.007980115229230486
10200000000.0 0.001269723415926402 0.008204421375416134 0.9898348223137042 -0.13500070361216066 0.9898348223139637 -0.13500070361026195 0.0021840978308232187 0.008056553089610506
10300000000.0 0.0012842383414797605 0.008284819443552888 0.9896489265995784 -0.13631529047056334 0.9896489265996551 -0.13631529047001245 0.0022164231798673436 0.00813291804420943
10400000000.0 0.0012988830598149115 0.00836521803028122 0.989461277958016 -0.13762962254964287 0.9894612779580928 -0.1376296225490763 0.002249044197128005 0.008209209446953471
10500000000.0 0.0013136576583731524 0.008445617163894324 0.9892718767278746 -0.1389436975192191 0.989271876727907 -0.13894369751906313 0.002281960747163212 0.00828542664543127
10600000000.0 0.0013285622252806873 0.008526016869830441 0.9890807232509773 -0.14025751304991352 0.989080723250977 -0.14025751305004178 0.002315172693704887 0.008361568991113915
10700000000.0 0.0013435968499173588 0.008606417173211022 0.9888878178717798 -0.14157106681535264 0.9888878178718081 -0.14157106681520357 0.0023486798989866622 0.008437635833313289
10800000000.0 0.0013587616230691462 0.00868681810308335 0.9886931609374386 -0.14288435649104636 0.9886931609376693 -0.14288435648948639 0.00238248222473981 0.008513626526219122
10900000000.0 0.0013740566354981739 0.008767219686708263 0.9884967527988002 -0.14419737974854568 0.9884967527989424 -0.14419737974761568 0.0024165795310793184 0.008589540419219131
11000000000.0 0.0013894819791323858 0.008847621946923971 0.9882985938094658 -0.14551013426153483 0.9882985938094903 -0.14551013426146522 0.0024509716766613963 0.008665376862795723
