! Created with skrf (http://scikit-rf.org).
# Hz S RI R 50.0 
!freq ReS11 ImS11 ReS21 ImS21 ReS12 ImS12 ReS22 ImS22
100000000.0 0.008157471871181174 0.0010490189139499445 0.9918316860261573 -0.003449368578774767 0.9918316860261631 -0.003449368577493763 0.008159779924402994 0.0010306726981193718
200000000.0 0.008103372777995544 0.0020986616229786387 0.991866755368698 -0.006899187333302014 0.9918667553686982 -0.0068991873334743724 0.008112707071040464 0.0020616999137194132
300000000.0 0.008054193780155358 0.0031488996024010025 0.9918887183084674 -0.01034939668562748 0.9918887183084693 -0.010349396685469268 0.00807527034022976 0.003093003423947671
400000000.0 0.008009940231159808 0.0041997042779953146 0.9918975709931718 -0.013799937006530238 0.9918975709931727 -0.013799937006492524 0.008047472485898134 0.004124504961715721
500000000.0 0.00797061728741044 0.0052510470270590555 0.9918933099282724 -0.0172507486272238 0.9918933099282723 -0.017250748627258363 0.008029315624708037 0.005156126228505775
600000000.0 0.007891389768546985 0.00630343371702932 0.9919207550371316 -0.02070299457230634 0.9919207550371272 -0.02070299457252963 0.007975997598149442 0.006189699720530445
700000000.0 0.007817089934734824 0.007356479778447888 0.9919350815407734 -0.024155800396118608 0.9919350815407735 -0.02415580039610179 0.007932335097946556 0.007223873528733351
800000000.0 0.00774772294393038 0.008410156663354252 0.9919362839006606 -0.027609106465663294 0.991936283900663 -0.02760910646557785 0.00789833435945088 0.008258569312549853
900000000.0 0.007683293757728658 0.009464435778155639 0.9919243569351595 -0.031062853092598437 0.9919243569351602 -0.031062853092603815 0.007874000981133694 0.009293708664047159
1000000000.0 0.007623807140938216 0.010519288485954988 0.9918992958201314 -0.03451698053654401 0.9918992958201307 -0.03451698053655779 0.007859339923807331 0.01032921311326748
1100000000.0 0.00764015026517308 0.01157124531142567 0.9917902255760531 -0.03796788962650624 0.991790225576051 -0.037967889626602594 0.007925209228678698 0.01136136635083723
1200000000.0 0.007661426835264708 0.012623092368643899 0.991668035206324 -0.041418416140390615 0.9916680352063242 -0.04141841614037669 0.00800072993977451 0.012393066116552942
1300000000.0 0.00768763613500563 0.01367480094679285 0.9915327264343102 -0.0448685003066005 0.9915327264343108 -0.04486850030658104 0.008085898813295134 0.013424233986796642
1400000000.0 0.0077187772492920345 0.014726342340003442 0.9913843013427824 -0.04831808236497727 0.991384301342783 -0.04831808236496928 0.008180711966413165 0.01445479156346459
1500000000.0 0.007754849064170378 0.015777687849582927 0.9912227623737859 -0.05176710257001112 0.9912227623737851 -0.051767102570038775 0.008285164877510076 0.015484660479532187
1600000000.0 0.007795850266889509 0.01682880878523234 0.9910481123285496 -0.0552155011928588 0.9910481123285556 -0.05521550119276534 0.008399252386429601 0.01651376240450434
1700000000.0 0.007841779346001918 0.01787967646722103 0.9908603543673045 -0.05866321852470975 0.990860354367309 -0.058663218524615666 0.008522968694849843 0.017542019050030888
1800000000.0 0.007892634591450294 0.01893026222751679 0.9906594920090778 -0.06211019487972786 0.9906594920090795 -0.06211019487971483 0.00865630736666699 0.018569352175542262
1900000000.0 0.007948414094691613 0.01998053741173483 0.99044552913148 -0.06555637059803296 0.9904455291314742 -0.06555637059810591 0.008799261328458888 0.01959568359382118
2000000000.0 0.008009115748802132 0.021030473380533626 0.990218469970448 -0.06900168604838032 0.9902184699704525 -0.06900168604831479 0.008951822870008086 0.020620935176882352
2100000000.0 0.00807473724865669 0.022080041511568838 0.9899783191200334 -0.0724460816304262 0.9899783191200342 -0.07244608163042163 0.009113983644765717 0.02164502886039235
2200000000.0 0.008145276091062862 0.023129213200702603 0.9897250815319808 -0.07588949777897179 0.9897250815319808 -0.07588949777896468 0.009285734670605653 0.0226678866507282
2300000000.0 0.008220729574951735 0.024177959864007295 0.9894587625154807 -0.07933187496569603 0.9894587625154844 -0.07933187496565389 0.009467066330393634 0.023689430629474442
2400000000.0 0.008301094801558873 0.025226252939188037 0.989179367736792 -0.08277315370230998 0.9891793677367899 -0.08277315370231961 0.009657968372739077 0.024709582959313674
2500000000.0 0.008386368674652386 0.02627406388722155 0.9888869032188072 -0.08621327454372675 0.9888869032188088 -0.0862132745437297 0.009858429912793856 0.025728265889607214
2600000000.0 0.00847654790073683 0.027321364193958295 0.9885813753406975 -0.08965217809044662 0.9885813753406965 -0.08965217809045772 0.01006843943303138 0.02674540176165816
2700000000.0 0.008571628989311483 0.028368125371924204 0.9882627908373923 -0.09308980499188359 0.9882627908373925 -0.09308980499186861 0.010287984784214475 0.027760913014673174
2800000000.0 0.008671608253104408 0.02941431896168796 0.9879311567991753 -0.09652609594864765 0.9879311567991731 -0.09652609594867124 0.010517053186226753 0.028774722190621244
2900000000.0 0.008776481808368148 0.03045991653354787 0.9875864806711151 -0.09996099171598387 0.987586480671116 -0.09996099171598043 0.010755631229170231 0.029786751940338963
3000000000.0 0.008886245575156364 0.03150488968931028 0.9872287702525775 -0.10339443310610368 0.9872287702525794 -0.10339443310607514 0.01100370487434781 0.030796925028669778
3100000000.0 0.009000895277619877 0.03254921006364635 0.9868580336966396 -0.1068263609912686 0.9868580336966422 -0.10682636099124973 0.01126125945537816 0.03180516433998979
3200000000.0 0.009120426444335254 0.0335928493258337 0.9864742795095062 -0.11025671630664025 0.9864742795095053 -0.11025671630664349 0.011528279679352372 0.032811392883650994
3300000000.0 0.009244834408629003 0.034635779181259124 0.9860775165499004 -0.11368544005286058 0.9860775165499006 -0.11368544005285262 0.011804749628038848 0.0338155337994445
3400000000.0 0.009374114308944465 0.035677971373208994 0.9856677540284006 -0.1171124732991321 0.9856677540284016 -0.11711247329912292 0.012090652759152908 0.03481751036313067
3500000000.0 0.009508261089195925 0.03671939768421885 0.9852450015067826 -0.12053775718583645 0.9852450015067811 -0.12053775718583667 0.012385971907651696 0.03581724599161532
3600000000.0 0.009647269499134676 0.03776002993782436 0.9848092688973176 -0.12396123292735388 0.9848092688973156 -0.1239612329273594 0.012690689287100243 0.036814664248561134
3700000000.0 0.009791134094764734 0.03879983999999685 0.9843605664620365 -0.12738284181488627 0.98436056646204 -0.12738284181486284 0.013004786491106531 0.037809688849652606
3800000000.0 0.009939849238758033 0.03983879978099278 0.983898904811985 -0.13080252521916866 0.9838989048119843 -0.13080252521917538 0.013328244494760397 0.03880224366798681
3900000000.0 0.010093409100862259 0.04087688123656454 0.9834242949064176 -0.13422022459337424 0.9834242949064186 -0.1342202245933598 0.013661043656203537 0.03979225273951192
4000000000.0 0.010251807658336953 0.041914056369764106 0.9829367480520342 -0.1376358814755599 0.9829367480520341 -0.13763588147555997 0.01400316371812375 0.040779640268118235
4100000000.0 0.01041503869644932 0.0429502972324934 0.9824362759020736 -0.1410494374918838 0.9824362759020739 -0.14104943749187737 0.01435458380948242 0.04176433063135199
4200000000.0 0.010583095808892976 0.043985575926940405 0.9819228904555266 -0.14446083435883264 0.9819228904555267 -0.14446083435881465 0.014715282447085018 0.042746248385227045
4300000000.0 0.010755972398312443 0.04501986460726132 0.9813966040561876 -0.1478700138862796 0.9813966040561887 -0.14787001388627266 0.015085237537380633 0.04372531826988732
4400000000.0 0.010933661676792175 0.046053135481063635 0.9808574293917558 -0.15127691798014575 0.9808574293917555 -0.15127691798015125 0.015464426378217691 0.044701465214740055
4500000000.0 0.011116156666370102 0.047085360810943236 0.9803053794928888 -0.15468148864506637 0.9803053794928862 -0.15468148864508288 0.015852825660670505 0.04567461434364154
4600000000.0 0.011303450199561665 0.04811651291602624 0.9797404677322488 -0.15808366798698834 0.9797404677322464 -0.15808366798700088 0.016250411470912364 0.04664469098017169
4700000000.0 0.01149553491992918 0.04914656417352642 0.9791627078234713 -0.16148339821606966 0.9791627078234734 -0.16148339821605953 0.016657159292158562 0.04761162065285485
4800000000.0 0.011692403282608649 0.0501754870202484 0.978572113820184 -0.16488062164911926 0.9785721138201876 -0.16488062164909986 0.01707304400661907 0.04857532910021059
4900000000.0 0.011894047554907593 0.051203253954056005 0.9779687001149295 -0.16827528071239106 0.9779687001149275 -0.1682752807123918 0.01749803989755124 0.04953574227601569
5000000000.0 0.012100459816900095 0.05222983753552192 0.9773524814380745 -0.17166731794429752 0.9773524814380717 -0.17166731794431672 0.01793212065135094 0.050492786354535246
5100000000.0 0.012335700522853894 0.05325186872813657 0.9766997649870303 -0.1750510923862882 0.9766997649870333 -0.17505109238626804 0.018398364629299026 0.05143860788277747
5200000000.0 0.012575660623801428 0.05427253448693062 0.9760343341920257 -0.1784319183677498 0.976034334192023 -0.17843191836775874 0.01887353217879145 0.05238062202605744
5300000000.0 0.012820330685978081 0.05529180789826243 0.9753562065115068 -0.18180973939289047 0.9753562065115045 -0.18180973939289866 0.019357592221716992 0.053318756857308844
5400000000.0 0.013069701094584383 0.05630966212581538 0.9746653997302896 -0.1851844991039451 0.9746653997302899 -0.18518449910393767 0.01985051310553882 0.054252940719879
5500000000.0 0.013323762054498495 0.05732607041175823 0.9739619319582341 -0.1885561412835776 0.9739619319582353 -0.18855614128357442 0.02035226260586289 0.05518310223219432
5600000000.0 0.013582503591047367 0.05834100607830721 0.973245821628814 -0.19192460985754453 0.9732458216288147 -0.1919246098575374 0.020862807929182513 0.056109170292798854
5700000000.0 0.013845915550773412 0.05935444252902947 0.9725170874977359 -0.1952898488970394 0.9725170874977359 -0.19528984889703335 0.02138211571553356 0.05703107408494968
5800000000.0 0.014113987602218488 0.06036635325029473 0.9717757486415082 -0.19865180262110488 0.9717757486415087 -0.19865180262110227 0.021910152041303393 0.0579487430814907
5900000000.0 0.01438670923674668 0.06137671181274946 0.9710218244559633 -0.20201041539920112 0.9710218244559722 -0.2020104153991639 0.022446882422013138 0.058862107049543894
6000000000.0 0.014664069769337257 0.062385491872624474 0.9702553346548142 -0.20536563175344993 0.9702553346548141 -0.20536563175344835 0.022992271815167935 0.05977109605514945
6100000000.0 0.01494605833938872 0.06339266717301956 0.9694762992681105 -0.20871739636123138 0.9694762992681099 -0.2087173963612369 0.023546284623167844 0.06067564046802325
6200000000.0 0.015232663911593253 0.0643982115454253 0.9686847386407633 -0.2120656540573692 0.9686847386407605 -0.2120656540573811 0.02410888469620729 0.06157567096608842
6300000000.0 0.015523875276775094 0.06540209891101846 0.9678806734309584 -0.2154103498366235 0.9678806734309571 -0.21541034983663118 0.024680035335298077 0.06247111854014303
6400000000.0 0.015819681052744998 0.06640430328204314 0.9670641246086196 -0.21875142885597387 0.9670641246086212 -0.21875142885595894 0.025259699295257877 0.06336191449839695
6500000000.0 0.01612006968517057 0.06740479876306212 0.9662351134538104 -0.22208883643694724 0.9662351134538125 -0.22208883643693833 0.025847838787770267 0.06424799047093381
6600000000.0 0.01642502944848149 0.06840355955237634 0.9653936615551092 -0.22542251806800484 0.9653936615551121 -0.22542251806798733 0.02644441548451001 0.06512927841434969
6700000000.0 0.016734548446748158 0.06940055994330366 0.964539790808011 -0.22875241940667934 0.9645397908080073 -0.22875241940669164 0.027049390520261427 0.06600571061607176
6800000000.0 0.01704861461459353 0.07039577432544832 0.9636735234132351 -0.2320784862820511 0.9636735234132344 -0.23207848628205163 0.027662724496130442 0.06687721969890566
6900000000.0 0.017367215718126678 0.07138917718610688 0.9627948818750915 -0.23540066469679652 0.9627948818750884 -0.23540066469680773 0.028284377482729384 0.06774373862530647
7000000000.0 0.017690339355869857 0.07238074311144094 0.9619038889997604 -0.23871890082956163 0.9619038889997571 -0.23871890082957178 0.028914309023474357 0.06860520070183403
7100000000.0 0.01801797295968871 0.07337044678781786 0.9610005678935828 -0.2420331410371562 0.9610005678935869 -0.24203314103713744 0.029552478137874538 0.06946153958343805
7200000000.0 0.018350103795788657 0.0743582630030924 0.960084941961351 -0.2453433318566375 0.9600849419613515 -0.24534333185663795 0.030198843324849716 0.0703126892776728
7300000000.0 0.018686718965619947 0.07534416664778266 0.9591570349045176 -0.24864942000766377 0.9591570349045175 -0.24864942000766188 0.030853362566154435 0.07115858414909655
7400000000.0 0.019027805406907346 0.07632813271638793 0.958216870719458 -0.2519513523944943 0.9582168707194602 -0.2519513523944926 0.031515993329738375 0.07199915892332831
7500000000.0 0.01937334989461754 0.07731013630862951 0.9572644736956522 -0.2552490761082365 0.9572644736956502 -0.25524907610824665 0.03218669257325195 0.07283434869130898
7600000000.0 0.019723339041958037 0.0782901526305981 0.956299868413884 -0.2585425384289062 0.9562998684138858 -0.25854253842889796 0.03286541674750037 0.07366408891342442
7700000000.0 0.020077759301400336 0.07926815699607598 0.9553230797444141 -0.26183168682752406 0.9553230797444103 -0.2618316868275382 0.03355212179997506 0.07448831542355298
7800000000.0 0.020436596965675274 0.08024412482757348 0.9543341328451297 -0.2651164689682132 0.9543341328451314 -0.2651164689682018 0.034246763178427314 0.07530696443321214
7900000000.0 0.02079983816882941 0.08121803165775748 0.9533330531596863 -0.26839683271019227 0.9533330531596846 -0.2683968327101954 0.03494929583443602 0.07611997253545488
8000000000.0 0.021167468887249446 0.08218985313039379 0.952319866415596 -0.27167272610994375 0.9523198664155983 -0.27167272610993176 0.03565967422708604 0.07692727670900071
8100000000.0 0.021539474940724137 0.0831595650016586 0.9512945986223673 -0.27494409742303677 0.9512945986223713 -0.27494409742302267 0.036377852326568885 0.07772881432202704
8200000000.0 0.021915841993494077 0.0841271431412501 0.950257276069553 -0.2782108951062832 0.9502572760695567 -0.27821089510626523 0.037103783617937876 0.07852452313617773
8300000000.0 0.022296555555323023 0.08509256353351848 0.9492079253248313 -0.28147306781959847 0.9492079253248247 -0.2814730678196193 0.0378374211047945 0.07931434131033385
8400000000.0 0.022681600982591702 0.08605580227860578 0.9481465732320112 -0.28473056442809663 0.9481465732320127 -0.2847305644280942 0.038578717313134774 0.0800982074046273
8500000000.0 0.023070963479370883 0.08701683559360435 0.9470732469091538 -0.2879833340037556 0.9470732469091538 -0.287983334003751 0.03932762429500364 0.08087606038388159
8600000000.0 0.02346462809853678 0.08797563981362878 0.9459879737464819 -0.29123132582759503 0.9459879737464857 -0.2912313258275814 0.0400840936324669 0.08164783962170045
8700000000.0 0.023862579742853936 0.08893219139289896 0.9448907814044623 -0.2944744893913434 0.9448907814044605 -0.2944744893913479 0.040848076441368016 0.08241348490391705
8800000000.0 0.024264803166116657 0.08988646690586806 0.9437816978117194 -0.29771277439947835 0.9437816978117164 -0.29771277439948796 0.04161952337529911 0.08317293643243674
8900000000.0 0.02467128297425279 0.09083844304821097 0.9426607511630481 -0.30094613077094645 0.9426607511630495 -0.30094613077093463 0.042398384629449 0.08392613482866673
9000000000.0 0.02508200362649654 0.09178809663803829 0.9415279699173469 -0.30417450864098095 0.9415279699173466 -0.3041745086409832 0.043184609944598724 0.08467302113724372
9100000000.0 0.025496949436482234 0.09273540461680022 0.9403833827955601 -0.30739785836294276 0.940383382795558 -0.3073978583629479 0.04397814861109588 0.08541353682949161
9200000000.0 0.02591610457341168 0.09368034405031049 0.9392270187786007 -0.31061613051005516 0.9392270187786007 -0.3106161305100554 0.04477894947282313 0.08614762380688228
9300000000.0 0.02633945306324303 0.09462289212993878 0.9380589071052402 -0.3138292758771728 0.9380589071052442 -0.31382927587716214 0.04558696093130489 0.08687522440457086
9400000000.0 0.02676697878981719 0.09556302617343168 0.9368790772700333 -0.31703724548246737 0.9368790772700378 -0.31703724548244794 0.046402130949691596 0.08759628139469244
9500000000.0 0.027198665496072878 0.09650072362606966 0.9356875590211674 -0.320239990569152 0.9356875590211657 -0.320239990569158 0.04722440705691765 0.08831073798980339
9600000000.0 0.027634496785173154 0.0974359620614494 0.9344843823583457 -0.32343746260718553 0.9344843823583431 -0.32343746260719236 0.04805373635176983 0.08901853784614677
9700000000.0 0.02807445612175937 0.09836871918267139 0.9332695775306321 -0.32662961329486406 0.9332695775306327 -0.32662961329486223 0.04889006550706188 0.08971962506694607
9800000000.0 0.028518526833118077 0.09929897282320094 0.9320431750343053 -0.32981639456046075 0.9320431750343032 -0.3298163945604613 0.04973334077378023 0.09041394420561798
9900000000.0 0.028966692110379517 0.10022670094777814 0.9308052056106606 -0.332997758563893 0.9308052056106583 -0.3329977585638954 0.050583507985296344 0.09110144026896587
10000000000.0 0.029418935009735192 0.10115188165340218 0.9295557002438566 -0.3361736576982088 0.9295557002438579 -0.3361736576982041 0.05144051256156127 0.09178205872029123
10100000000.0 0.02989378485355916 0.1020667991750677 0.9282766357486875 -0.33933520668735995 0.9282766357486864 -0.33933520668736145 0.05232152513355009 0.09244588129402305
10200000000.0 0.030372599141700568 0.1029789916224884 0.9269861947307036 -0.34249104529880914 0.9269861947307012 -0.34249104529881325 0.05320913763232497 0.09310255765217279
10300000000.0 0.030855359585644157 0.10388843825245317 0.9256844100055336 -0.3456411276301132 0.9256844100055298 -0.34564112763012356 0.05410329284609506 0.09375203606915389
10400000000.0 0.031342047774663186 0.1047951184647382 0.9243713146116838 -0.34878540802693236 0.9243713146116822 -0.3487854080269346 0.05500393318305424 0.09439426530036119
10500000000.0 0.031832645177147255 0.10569901180290579 0.9230469418082413 -0.3519238410842921 0.923046941808242 -0.3519238410842898 0.05591100067579483 0.09502919458486013
10600000000.0 0.032327133141875276 0.10660009795500225 0.9217113250725455 -0.35505638164792436 0.9217113250725515 -0.35505638164790787 0.05682443698574744 0.0956567736480116
10700000000.0 0.032825492899354554 0.10749835675439462 0.9203644980978549 -0.35818298481549776 0.9203644980978598 -0.358182984815487 0.05774418340767946 0.09627695270415136
10800000000.0 0.03332770556313343 0.10839376818044366 0.9190064947909784 -0.36130360593796546 0.9190064947909808 -0.36130360593795674 0.058670180874202435 0.09688968245916324
10900000000.0 0.03383375213111312 0.10928631235924086 0.9176373492699678 -0.364418200620658 0.917637349269965 -0.36441820062066616 0.05960236996022864 0.09749491411293827
11000000000.0 0.034343613486887636 0.1101759695643281 0.9162570958617123 -0.36752672472462034 0.9162570958617141 -0.3675267247246166 0.06054069088756515 0.0980925993619776
11100000000.0 0.03485727040107442 0.11106272021742548 0.9148657690996149 -0.3706291343676639 0.9148657690996131 -0.3706291343676695 0.0614850835293885 0.0986826904016866
11200000000.0 0.035374703532639454 0.11194654488904678 0.913463403721191 -0.3737253859256021 0.9134634037211923 -0.3737253859256003 0.06243548741484908 0.09926513992889004
11300000000.0 0.03589589343022793 0.11282742429920696 0.9120500346657132 -0.37681543603331613 0.9120500346657126 -0.3768154360333165 0.0633918417336083 0.09983990114406815
11400000000.0 0.03642082053353514 0.11370533931808233 0.9106256970717986 -0.3798992415858971 0.9106256970717997 -0.3798992415858975 0.06435408534045228 0.10040692775373493
