! Created with skrf (http://scikit-rf.org).
# Hz S RI R 50.0 
!freq ReS11 ImS11 ReS21 ImS21 ReS12 ImS12 ReS22 ImS22
100000000.0 0.0010442770322647557 0.0001001180178849816 0.9989541219020729 -0.0006094249901266655 0.9989541219021109 -0.0006094249956806324 0.0010443386663286619 9.966813473118306e-05
200000000.0 0.001030784007866244 0.000200257002838904 0.9989656912136671 -0.0012188672722441085 0.9989656912136631 -0.001218867271044653 0.0010310330866526599 0.00019935302582980676
300000000.0 0.001017349883044584 0.0003004169284832693 0.9989768789836486 -0.0018283265847057085 0.9989768789836507 -0.0018283265862092117 0.0010179122140517598 0.0002990543984440821
400000000.0 0.0010039746854940443 0.0004005977519286099 0.9989876851897234 -0.002437802682906396 0.9989876851897294 -0.0024378026817026576 0.0010049760726390392 0.00039877199125951053
500000000.0 0.000990658442966131 0.0005007994526638844 0.9989981098097116 -0.003047295312016107 0.9989981098097045 -0.0030472953150014934 0.0009922246862168174 0.000498505540206489
600000000.0 0.0009772526744050436 0.0006010073227925975 0.9990083012286582 -0.0036568048681868462 0.9990083012286533 -0.003656804866640304 0.0009795097683290206 0.0005982707351325364
700000000.0 0.0009639058471800423 0.0007012311181248958 0.9990181110301452 -0.004266330668526664 0.999018111030146 -0.004266330668367458 0.0009669796928826676 0.0006980566798579406
800000000.0 0.000950617978143743 0.0008014708015463829 0.9990275391936275 -0.004875872468429789 0.9990275391936317 -0.004875872467764791 0.0009546344905102977 0.0007978631141160675
900000000.0 0.0009373890841419055 0.0009017263440299902 0.9990365856987328 -0.0054854300124994185 0.9990365856987334 -0.005485430012802437 0.0009424741914845957 0.0008976897742997944
1000000000.0 0.0009242191820196018 0.0010019977101326473 0.9990452505252587 -0.006095003054894625 0.9990452505252605 -0.00609500305413372 0.0009304988257415653 0.0009975363990463745
1100000000.0 0.0009206896408724178 0.001102213797154635 0.9990439523659347 -0.006704516475157291 0.9990439523659361 -0.006704516474847019 0.0009282896287348131 0.0010973240657290945
1200000000.0 0.0009172193377584208 0.001202432720028933 0.9990422722981857 -0.007314031273835994 0.999042272298185 -0.007314031273956886 0.0009262655850621608 0.001197116865573778
1300000000.0 0.000913808275853954 0.0013026544488335735 0.9990402103186664 -0.007923547204210254 0.9990402103186655 -0.00792354720461409 0.000924426703775845 0.0012969145379814293
1400000000.0 0.0009104564582557754 0.001402878949012711 0.9990377664242689 -0.008533064011973984 0.9990377664242707 -0.008533064011920603 0.000922772993526972 0.0013967168179377359
1500000000.0 0.0009071638881079359 0.001503106190847812 0.9990349406120171 -0.009142581447394554 0.9990349406120178 -0.009142581447236836 0.0009213044626592459 0.0014965234438570464
1600000000.0 0.000903930568514789 0.0016033361397135553 0.9990317328791399 -0.009752099258283985 0.9990317328791416 -0.009752099258439713 0.0009200211191218291 0.0015963341507201157
1700000000.0 0.0009007565025885626 0.0017035687634377977 0.9990281432230225 -0.010361617195344492 0.9990281432230292 -0.010361617194742994 0.000918922970541561 0.0016961486772757136
1800000000.0 0.0008976416934487558 0.0018038040317299071 0.9990241716412394 -0.010971135005774438 0.9990241716412418 -0.0109711350056472 0.0009180100241783835 0.0017959667595032734
1900000000.0 0.0008945861441745214 0.0019040419107382426 0.9990198181315421 -0.011580652439124513 0.9990198181315397 -0.011580652439344058 0.0009172822869336383 0.001895788134212381
2000000000.0 0.0008915898578538656 0.0020042823678193484 0.9990150826918458 -0.012190169245509135 0.9990150826918452 -0.01219016924538348 0.0009167397653578862 0.001995612538446322
2100000000.0 0.0008886528375782214 0.002104525372220364 0.9990099653202592 -0.012799685172252478 0.9990099653202541 -0.012799685172768532 0.00091638246566089 0.0020954397092880165
2200000000.0 0.0008857750864110808 0.002204770889734383 0.9990044660150561 -0.01340919996972509 0.9990044660150547 -0.013409199969672611 0.000916210393668625 0.0021952693832108005
2300000000.0 0.000882956607416747 0.002305018889469101 0.9989985847746996 -0.014018713385834469 0.9989985847746968 -0.014018713386060247 0.0009162235548867444 0.0022951012969347423
2400000000.0 0.0008801974036553818 0.002405269338370724 0.9989923215978297 -0.014628225169092792 0.9989923215978265 -0.01462822516959984 0.0009164219544303748 0.0023949351872894695
2500000000.0 0.0008774974781802984 0.0025055222036460523 0.9989856764832385 -0.015237735069990151 0.9989856764832394 -0.01523773506995221 0.0009168055971018662 0.0024947707912306837
2600000000.0 0.000874856834032431 0.0026057774543261783 0.9989786494299244 -0.015847242836557193 0.9989786494299238 -0.015847242836601473 0.000917374487321287 0.0025946078459311937
2700000000.0 0.0008722754742429143 0.002706035056639609 0.9989712404370482 -0.016456748217863342 0.9989712404370577 -0.016456748217291338 0.0009181286291595528 0.0026944460875718813
2800000000.0 0.0008697534018470538 0.002806294979571601 0.9989634495039766 -0.017066250961275318 0.9989634495039735 -0.017066250961366308 0.0009190680263131111 0.0027942852520661653
2900000000.0 0.0008672906198616987 0.002906557189347245 0.998955276630184 -0.017675750818613133 0.9989552766301871 -0.017675750818468325 0.0009201926821809524 0.0028941250777403567
3000000000.0 0.0008648871313015849 0.0030068216547345862 0.9989467218154013 -0.018285247536581832 0.9989467218153999 -0.018285247536685683 0.0009215025997526534 0.002993965300680152
3100000000.0 0.0008625429391674379 0.003107088342939231 0.9989377850594899 -0.018894740864785084 0.9989377850594852 -0.018894740865163285 0.0009229977816861087 0.0030938056574737623
3200000000.0 0.0008602580464569108 0.003207357220968673 0.9989284663624983 -0.019504230552485416 0.9989284663624997 -0.019504230552325467 0.0009246782302861343 0.0031936458852017146
3300000000.0 0.0008580324561638538 0.003307628257309784 0.9989187657246583 -0.02011371634799785 0.9989187657246628 -0.02011371634779813 0.0009265439474907203 0.0032934857202442536
3400000000.0 0.0008558661712779114 0.0034079014197229275 0.9989086831463666 -0.020723198000691754 0.9989086831463695 -0.020723198000638255 0.0009285949349095721 0.003393324899621252
3500000000.0 0.0008537591947622349 0.003508176675098494 0.9988982186282147 -0.02133267525927261 0.9988982186282169 -0.021332675259097426 0.0009308311937667643 0.0034931631600219875
3600000000.0 0.0008517115295860841 0.0036084539913637543 0.9988873721709667 -0.021942147872127376 0.9988873721709672 -0.021942147872121124 0.0009332527249344103 0.0035930002377620738
3700000000.0 0.0008497231787204096 0.0037087333364169395 0.9988761437755385 -0.022551615588995346 0.998876143775535 -0.022551615589161803 0.0009358595289692969 0.003692835870000924
3800000000.0 0.0008477941450907654 0.00380901467684357 0.9988645334430708 -0.0231610781579276 0.9988645334430708 -0.023161078157990473 0.0009386516060125387 0.00379266979277925
3900000000.0 0.0008459244316752323 0.003909297981397034 0.9988525411748252 -0.02377053532884827 0.9988525411748257 -0.023770535328827423 0.0009416289559159342 0.0038925017437020804
4000000000.0 0.0008441140413973917 0.004009583217308308 0.9988401669722885 -0.024379986849730022 0.9988401669722886 -0.02437998684973252 0.0009447915781312583 0.003992331459090654
4100000000.0 0.0008423629771782539 0.004109870351791652 0.9988274108371027 -0.02498943246975832 0.9988274108371056 -0.024989432469637345 0.0009481394717647914 0.00409215867539401
4200000000.0 0.000840671241961317 0.0042101593532486254 0.9988142727710831 -0.025598871937957016 0.9988142727710825 -0.025598871938043048 0.0009516726355828611 0.004191983129378349
4300000000.0 0.0008390388386321383 0.0043104501881586505 0.9988007527762449 -0.026208305002774632 0.9988007527762415 -0.02620830500290959 0.000955391067976993 0.004291804557878946
4400000000.0 0.0008374657701212156 0.004410742824721164 0.9987868508547444 -0.026817731413701223 0.9987868508547472 -0.02681773141363449 0.0009592947670084681 0.004391622697667412
4500000000.0 0.0008359520393196501 0.0045110372304993825 0.9987725670089559 -0.027427150918877215 0.9987725670089537 -0.027427150919040102 0.000963383730349069 0.004491437284903713
4600000000.0 0.0008344976491262679 0.004611333373182025 0.9987579012413806 -0.02803656326841327 0.9987579012413832 -0.02803656326826695 0.0009676579553728903 0.004591248057359331
4700000000.0 0.0008331026024036842 0.004711631219508702 0.9987428535547703 -0.028645968209501813 0.9987428535547698 -0.02864596820950671 0.0009721174390196043 0.004691054750149399
4800000000.0 0.0008317669020590642 0.004811930738438425 0.998727423951973 -0.029255365492195536 0.998727423951974 -0.02925536549218193 0.0009767621779633296 0.004790857101588461
4900000000.0 0.0008304905509420005 0.00491223189668989 0.9987116124360645 -0.029864754865181083 0.9987116124360642 -0.02986475486523449 0.000981592168455113 0.004890654847440614
5000000000.0 0.00082927355191487 0.005012534661613435 0.998695419010286 -0.03047413607720336 0.9986954190102895 -0.030474136077099076 0.0009866074064183393 0.004990447724617054
5100000000.0 0.0008307399516991589 0.005112798938328711 0.9986762210811927 -0.031083413811169597 0.9986762210811941 -0.031083413811155675 0.000994427766091671 0.005090085450337366
5200000000.0 0.0008322656890406869 0.005213063185631223 0.99865664137784 -0.03169267915488209 0.9986566413778414 -0.03169267915489282 0.001002433026452035 0.005189711903759464
5300000000.0 0.0008338507653714834 0.005313327371196886 0.9986366799083716 -0.032301931857927 0.9986366799083775 -0.03230193185775389 0.001010623172084152 0.0052893268227855806
5400000000.0 0.0008354951820948619 0.005413591462389157 0.9986163366811621 -0.03291117166839738 0.9986163366811609 -0.032911171668439196 0.0010189981871707014 0.005388929943796656
5500000000.0 0.0008371989406361722 0.005513855427034285 0.9985956117046957 -0.03352039833622112 0.9985956117046988 -0.03352039833608752 0.0010275580556008408 0.005488521005142685
5600000000.0 0.0008389620423736637 0.0056141192324685165 0.9985745049877055 -0.03412961160946531 0.9985745049877068 -0.03412961160943225 0.0010363027608534148 0.005588099743451719
5700000000.0 0.0008407844886911314 0.005714382846034913 0.9985530165390425 -0.03473881123791181 0.9985530165390442 -0.03473881123786602 0.0010452322860942773 0.00568766589623954
5800000000.0 0.000842666281005423 0.005814646235671995 0.9985311463677606 -0.03534799697027657 0.9985311463677572 -0.035347996970397026 0.0010543466141196235 0.005787219200978766
5900000000.0 0.000844607420659114 0.005914909368597282 0.9985088944830942 -0.03595716855558184 0.9985088944830919 -0.03595716855569013 0.0010636457273764815 0.005886759395222532
6000000000.0 0.0008466079090351765 0.006015172212200411 0.9984862608944345 -0.0365663257433645 0.9984862608944389 -0.03656632574321722 0.00107312960795718 0.005986286216289656
6100000000.0 0.0008486677474941751 0.006115434734509241 0.9984632456113799 -0.037175468281993564 0.998463245611381 -0.03717546828194766 0.0010827982375967793 0.006085799401711932
6200000000.0 0.0008507869373872293 0.006215696902521847 0.9984398486436781 -0.03778459592096254 0.9984398486436826 -0.03778459592081743 0.0010926515976869267 0.006185298688950218
6300000000.0 0.0008529654800513654 0.006315958684107516 0.9984160700012894 -0.038393708408752884 0.998416070001283 -0.038393708408928216 0.0011026896692335137 0.006284783815201358
6400000000.0 0.0008552033768165321 0.0064162200461957124 0.9983919096943047 -0.039002805495055116 0.9983919096943047 -0.03900280549506593 0.0011129124329432253 0.006384254518474348
6500000000.0 0.0008575006290372234 0.006516480956994112 0.9983673677330143 -0.03961188692888161 0.9983673677330175 -0.039611886928797316 0.0011233198691347518 0.006483710536315338
6600000000.0 0.0008598572380152822 0.006616741383618724 0.9983424441278983 -0.040220952459044446 0.9983424441278991 -0.04022095245897607 0.0011339119577813386 0.006583151606103425
6700000000.0 0.0008622732050664291 0.0067170012936091875 0.9983171388896019 -0.0408300018346518 0.9983171388895996 -0.04083000183471611 0.0011446886784869765 0.00668257746538286
6800000000.0 0.0008647485314959349 0.0068172606543714254 0.9982914520289415 -0.04143903480497481 0.9982914520289398 -0.04143903480498631 0.0011556500105320507 0.00678198785200068
6900000000.0 0.0008672832186123439 0.006917519433666541 0.9982653835569104 -0.0420480511191265 0.9982653835569123 -0.04204805111911507 0.0011667959328273351 0.006881382503631512
7000000000.0 0.0008698772676911526 0.0070177775987258365 0.9982389334846984 -0.04265705052611158 0.9982389334846945 -0.042657050526240525 0.0011781264239265467 0.006980761157887462
7100000000.0 0.0008725306800272733 0.007118035117131203 0.9982121018236438 -0.043266032775241846 0.9982121018236491 -0.04326603277511111 0.0011896414620610788 0.007080123552964731
7200000000.0 0.0008752434568779137 0.0072182919561871815 0.998184888585305 -0.043874997615109435 0.9981848885853039 -0.04387499761514058 0.0012013410250325983 0.007179469425628492
7300000000.0 0.0008780155995343137 0.007318548083732552 0.9981572937813511 -0.04448394479567213 0.9981572937813531 -0.04448394479559828 0.0012132250904138807 0.0072787985149332015
7400000000.0 0.0008808471092329557 0.007418803466875188 0.9981293174237051 -0.045092874065219696 0.9981293174237019 -0.04509287406529476 0.0012252936352818652 0.007378110557546549
7500000000.0 0.0008837379872221576 0.007519058072969971 0.9981009595244078 -0.045701785173469504 0.9981009595244135 -0.04570178517333518 0.00123754663646952 0.007477405291931657
7600000000.0 0.000886688234777038 0.007619311870136044 0.9980722200957024 -0.046310677869379736 0.9980722200957028 -0.04631067786933726 0.0012499840704152203 0.007576682456023709
7700000000.0 0.0008896978531023474 0.007719564825243337 0.9980430991500034 -0.046919551902158865 0.9980430991500019 -0.046919551902208485 0.0012626059132034863 0.007675941787403842
7800000000.0 0.000892766843433381 0.007819816905796964 0.9980135966999145 -0.04752840702086106 0.9980135966999123 -0.04752840702092228 0.0012754121405723524 0.007775183024303357
7900000000.0 0.0008958952069976936 0.007920068079687885 0.9979837127581809 -0.0481372429750663 0.9979837127581774 -0.048137242975139966 0.001288402727923973 0.007874405904857698
8000000000.0 0.0008990829449973559 0.008020318313837104 0.9979534473377757 -0.04874605951350602 0.9979534473377778 -0.04874605951349381 0.001301577650269507 0.007973610166777863
8100000000.0 0.0009023300586346657 0.008120567575794442 0.9979228004518284 -0.04935485638532294 0.997922800451828 -0.04935485638538214 0.0013149368822682882 0.00807279554791501
8200000000.0 0.0009056365491168218 0.008220815833306404 0.9978917721136117 -0.04996363334027212 0.9978917721136082 -0.049963633340374694 0.0013284803982969331 0.00817196178684998
8300000000.0 0.000909002417620224 0.008321063053302866 0.9978603623366267 -0.05057239012714952 0.9978603623366241 -0.05057239012718264 0.0013422081722875379 0.008271108621345752
8400000000.0 0.0009124276653342183 0.008421309203741113 0.9978285711345156 -0.051181126495339645 0.9978285711345214 -0.051181126495225285 0.0013561201778963178 0.008370235789952035
8500000000.0 0.0009159122934323953 0.008521554251800192 0.9977963985211254 -0.051789842193904846 0.9977963985211228 -0.0517898421939662 0.0013702163883591325 0.008469343030427661
8600000000.0 0.0009194563030709323 0.008621798164828031 0.997763844510454 -0.05239853697232662 0.997763844510457 -0.05239853697228295 0.0013844967766094224 0.008568430081161786
8700000000.0 0.0009230596954033797 0.008722040910329474 0.9977309091167088 -0.05300721057946637 0.9977309091167003 -0.05300721057962368 0.0013989613152012295 0.008667496680401673
8800000000.0 0.0009267224715977679 0.008822282455793177 0.9976975923542205 -0.05361586276512436 0.9976975923542174 -0.05361586276516319 0.001413609976375435 0.00876654256665258
8900000000.0 0.000930444632772002 0.00892252276860626 0.9976638942375516 -0.05422449327825474 0.9976638942375489 -0.05422449327834093 0.0014284427319663133 0.008865567478028333
9000000000.0 0.0009342261800721386 0.009022761815987103 0.9976298147814082 -0.05483310186838094 0.9976298147814134 -0.05483310186829158 0.0014434595534866613 0.008964571152950962
9100000000.0 0.0009380671146269242 0.009122999565687646 0.9975953540007091 -0.0554416882843099 0.9975953540007096 -0.055441688284289144 0.001458660412092352 0.009063553329802507
9200000000.0 0.0009419674375398164 0.009223235984873674 0.9975605119105067 -0.05605025227572559 0.9975605119105063 -0.056050252275737254 0.0014740452785902034 0.009162513747069497
9300000000.0 0.0009459271499243316 0.009323471040764997 0.9975252885260489 -0.056658793591991156 0.997525288526059 -0.05665879359176754 0.0014896141234351842 0.009261452143387036
9400000000.0 0.0009499462528916793 0.009423704701234476 0.9974896838627737 -0.05726731198212291 0.9974896838627737 -0.05726731198211632 0.001505366916707945 0.009360368256893304
9500000000.0 0.0009540247475206433 0.009523936933288133 0.9974536979362785 -0.05787580719569306 0.9974536979362804 -0.057875807195650164 0.001521303628181258 0.00945926182657008
9600000000.0 0.0009581626349113024 0.00962416770457847 0.99741733076233 -0.05848427898212173 0.9974173307623269 -0.058484278982202605 0.0015374242272524462 0.009558132590929145
9700000000.0 0.0009623599161308151 0.009724396982237716 0.9973805823569085 -0.05909272709052285 0.9973805823569073 -0.05909272709057521 0.0015537286829403734 0.009656980288493015
9800000000.0 0.0009666165922429405 0.009824624733688572 0.9973434527361429 -0.05970115127027973 0.9973434527361429 -0.059701151270305536 0.0015702169639569042 0.009755804658047823
9900000000.0 0.0009709326643312477 0.00992485092656501 0.997305941916321 -0.06030955127114271 0.997305941916318 -0.060309551271185584 0.0015868890386499606 0.009854605438425219
10000000000.0 0.0009753081334230793 0.01002507552786184 0.9972680499139608 -0.06091792684206494 0.9972680499139556 -0.06091792684215758 0.0016037448749811616 0.009953382368101529
10100000000.0 0.0009825068051098616 0.010125132157343406 0.9972270150059016 -0.061526079237232564 0.9972270150059006 -0.06152607923725149 0.0016235423148629185 0.01005190466689354
10200000000.0 0.0009897646293629688 0.01022518384327529 0.9971855992755291 -0.06213420278144727 0.9971855992755319 -0.06213420278143412 0.0016435229729194764 0.010150398047226153
10300000000.0 0.0009970816036621274 0.010325230553480787 0.9971438027445608 -0.06274229722485697 0.9971438027445616 -0.06274229722483755 0.0016636868091758487 0.010248862248873478
10400000000.0 0.001004457725445645 0.010425272255314349 0.997101625434927 -0.06335036231708092 0.9971016254349224 -0.06335036231713854 0.0016840337832889616 0.010347297011392522
10500000000.0 0.0010118929921639755 0.010525308916561277 0.9970590673687029 -0.0639583978082086 0.9970590673687032 -0.06395839780821727 0.0017045638546023913 0.010445702074893252
10600000000.0 0.0010193874012668156 0.010625340504970203 0.9970161285681497 -0.06456640344825895 0.9970161285681562 -0.06456640344813577 0.0017252769820773112 0.010544077179183441
10700000000.0 0.0010269409501799057 0.010725366988283318 0.9969728090557282 -0.06517437898682672 0.9969728090557238 -0.06517437898691741 0.0017461731243299363 0.010642422064103155
10800000000.0 0.0010345536363317992 0.010825388333936961 0.9969291088540208 -0.06578232417440655 0.9969291088540216 -0.06578232417443784 0.0017672522396603037 0.010740736469964365
10900000000.0 0.0010422254571442724 0.01092540450987195 0.9968850279858353 -0.06639023876081616 0.9968850279858394 -0.06639023876077403 0.0017885142859910893 0.010839020136820273
11000000000.0 0.0010499564100097307 0.01102541548334612 0.9968405664741536 -0.06699812249587796 0.9968405664741562 -0.06699812249583403 0.0018099592208593847 0.01093727280438725
