! Created with skrf (http://scikit-rf.org).
# Hz S RI R 50.0 
!freq ReS11 ImS11 ReS21 ImS21 ReS12 ImS12 ReS22 ImS22
100000000.0 -0.0008148889287237732 -0.02339437466228215 0.9992253606175227 -0.02935991728319985 0.9992253606176524 -0.02935991727865723 -0.0006988196721764731 -0.023398092768007524
300299401.1976048 -0.006894007015439517 -0.06977013484762491 0.9934655491304839 -0.0877294336506801 0.9934655491305154 -0.08772943365039337 -0.0058537313541710875 -0.06986477446046696
500598802.3952096 -0.018729890357045142 -0.11475776215190311 0.9822510268388676 -0.14484162754255148 0.9822510268387833 -0.14484162754314742 -0.015873469874748605 -0.11518669381486679
700898203.5928144 -0.035967047842282114 -0.15752697995750956 0.9659039410461281 -0.19994571816740522 0.9659039410460527 -0.19994571816776305 -0.03046534123066027 -0.15868103631866606
901197604.7904192 -0.05810761817142998 -0.19735087940104612 0.9448752900978187 -0.2523847245421721 0.9448752900977841 -0.25238472454230576 -0.04921966576716263 -0.19975011036697066
1101497005.988024 -0.08454450999330641 -0.233632250218834 0.9197148518596954 -0.3016193396208761 0.919714851859731 -0.3016193396207634 -0.07163706232553277 -0.23790299561327322
1301796407.185629 -0.11459873114819155 -0.26591860007949464 0.891037314535881 -0.34724154216315234 0.891037314535888 -0.3472415421631419 -0.09715917421292314 -0.2727678811387031
1502095808.3832335 -0.14755695883377537 -0.29390588753471886 0.8594881913261709 -0.38897797017900265 0.8594881913261593 -0.388977970179035 -0.125199588109125 -0.30409511603324213
1702395209.5808384 -0.18270598171159735 -0.3174323247502242 0.8257125746470917 -0.4266842870545504 0.8257125746469942 -0.42668428705474326 -0.15517217429972924 -0.331752090000402
1902694610.7784433 -0.2193616103976247 -0.33646449223090186 0.7903289096329036 -0.46033257494860647 0.7903289096330096 -0.460332574948437 -0.186514871491054 -0.3557117902225008
2102994011.976048 -0.25689075076393253 -0.3510783895553749 0.7539089705134661 -0.4899941360994199 0.7539089705134615 -0.4899941360994043 -0.21870784316932004 -0.37603719437760175
2303293413.1736526 -0.29472634734821135 -0.3614379831976713 0.7169643046748907 -0.515820025316218 0.7169643046750243 -0.5158200253160274 -0.2512857659030372 -0.3928636073901032
2503592814.371258 -0.33237569157708413 -0.367773435414701 0.6799386950299836 -0.5380212946219779 0.6799386950299602 -0.5380212946220084 -0.28384465775945616 -0.40638073882138
2703892215.5688624 -0.36942309617941504 -0.37036065708885807 0.643205731850452 -0.5568504400566224 0.64320573185045 -0.5568504400566126 -0.3160440716564595 -0.4168158722828202
2904191616.766467 -0.4055281762352032 -0.3695032530782921 0.607070368501708 -0.5725850195591948 0.6070703685017205 -0.5725850195591813 -0.34760567493316635 -0.42441900553352213
3104491017.964072 -0.44042100324514366 -0.365517412452999 0.5717733121277248 -0.5855139426186263 0.5717733121277806 -0.5855139426185638 -0.3783092574966978 -0.42945041515435955
3304790419.161677 -0.47389528098058964 -0.35871988694556245 0.5374972071414599 -0.5959265613405309 0.5374972071415594 -0.5959265613404406 -0.4079871139237018 -0.4321707631460116
3505089820.3592815 -0.505800496520812 -0.3494189130151972 0.5043737466660977 -0.6041044314338349 0.504373746666143 -0.6041044314337954 -0.43651758399089147 -0.4328336259603229
3705389221.5568867 -0.5360337787078227 -0.3379077568134871 0.4724910477486875 -0.610315451926198 0.4724910477486794 -0.6103154519262021 -0.4638183540271047 -0.431680181659649
3905688622.7544913 -0.5645319842963659 -0.3244604757154402 0.4419008184619169 -0.6148100147894553 0.44190081846189716 -0.6148100147894672 -0.4898399470188432 -0.42893572054501616
4105988023.952096 -0.5912643490322664 -0.30932947009454376 0.4126250110538868 -0.6178187775724343 0.41262501105385774 -0.6178187775724532 -0.5145596787722279 -0.42480762823010626
4306287425.149701 -0.6162258947491915 -0.29274442162239134 0.38466178787011795 -0.6195516926738884 0.384661787870117 -0.6195516926738885 -0.5379762371818955 -0.41948450881082205
4506586826.347305 -0.639431674536718 -0.27491226088541193 0.3579907256680108 -0.6201979690958264 0.35799072566805856 -0.6201979690958016 -0.5601049519583235 -0.4131361540979653
4706886227.54491 -0.6609118619680246 -0.2560178638495148 0.3325772529257451 -0.619926694004384 0.33257725292567974 -0.619926694004418 -0.5809737595977019 -0.4059141116086906
4907185628.742516 -0.6807076412462393 -0.23622523460734557 0.3083763592973802 -0.6188878939454935 0.3083763592973607 -0.6188878939455039 -0.6006198279803863 -0.39795265167292726
5107485029.94012 -0.6988678266251837 -0.21567898549479747 0.28533564220695207 -0.6172138642319206 0.28533564220694296 -0.617213864231925 -0.6190867815534431 -0.38936997817586444
5307784431.137725 -0.7154461258567202 -0.19450597236957717 0.26339776789792363 -0.615020637375149 0.2633977678978901 -0.6150206373751657 -0.6364224568794534 -0.3802695658864803
5508083832.33533 -0.730498958974001 -0.1728169816725319 0.24250242736891262 -0.6124094966414112 0.24250242736893315 -0.6124094966414025 -0.6526771155194915 -0.3707415392714557
5708383233.532934 -0.7440837467544088 -0.15070839702991898 0.2225878648639649 -0.6094684690369694 0.22258786486396345 -0.6094684690369703 -0.6679020437282679 -0.36086403330485173
5908682634.730539 -0.7562575900099365 -0.1282637973586569 0.20359205040661496 -0.6062737539680914 0.203592050406622 -0.6062737539680915 -0.6821484740449474 -0.350704496693334
6108982035.928144 -0.7670762695165585 -0.10555545674569411 0.18545356000620156 -0.6028910603976645 0.18545356000618873 -0.602891060397665 -0.6954667710015332 -0.340320912985558
6309281437.125749 -0.7765935056603471 -0.08264572983825005 0.16811221875615848 -0.5993768375123042 0.16811221875614277 -0.5993768375123064 -0.7079058307959427 -0.3297629261027028
6509580838.323354 -0.7848604259423394 -0.05958831610750607 0.15150955382350187 -0.5957793926187733 0.15150955382350326 -0.5957793926187679 -0.7195126522351073 -0.3190728647343432
6709880239.520959 -0.7919251968920153 -0.036429403012917055 0.13558909670510208 -0.5921398959952087 0.1355890967050918 -0.5921398959952171 -0.7303320431711138 -0.30828666550960865
6910179640.718563 -0.7978327844597057 -0.013208692507868169 0.12029656731014873 -0.5884932763979986 0.12029656731019946 -0.5884932763979869 -0.7404064328340196 -0.29743469847103887
7110479041.916168 -0.8026248135104793 0.010039681904237754 0.10557996649458401 -0.5848690133893748 0.10557996649459941 -0.5848690133893717 -0.749775765852496 -0.28654250063668196
7310778443.113773 -0.8063395026436689 0.03328633879147936 0.09138959860243534 -0.5812918340338276 0.09138959860246705 -0.5812918340338223 -0.758477458348717 -0.2756314247079633
7511077844.311378 -0.809011655271799 0.0565059235894812 0.07767804131426119 -0.5777823221231899 0.07767804131427798 -0.5777823221231884 -0.7665464003617377 -0.2647192105604337
7711377245.508983 -0.8106726918137906 0.07967646491311334 0.06440007656555452 -0.5743574481798819 0.06440007656556332 -0.5743574481798834 -0.7740149920615165 -0.25382048726299716
7911676646.706588 -0.8113507110818892 0.10277880294881761 0.05151259339866759 -0.5710310282306964 0.05151259339868657 -0.5710310282306942 -0.7809132038535176 -0.24294721316771817
8111976047.904192 -0.8110705715794498 0.12579608094474395 0.03897447125120465 -0.5678141188695629 0.03897447125121119 -0.5678141188695633 -0.7872686526218725 -0.2321090612162764
8312275449.101797 -0.8098539855672348 0.14871329139816172 0.026746450280369895 -0.5647153555310421 0.026746450280369698 -0.5647153555310404 -0.7931066880959177 -0.22131375610598397
8512574850.299402 -0.8077196204870841 0.17151686918643302 0.014790993800344208 -0.5617412402383759 0.014790993800336074 -0.5617412402383742 -0.7984504847199029 -0.21056736940354723
8712874251.497007 -0.8046832037291267 0.1941943245336359 0.003072146702233847 -0.5588963844163449 0.0030721467022280166 -0.5588963844163423 -0.8033211355196539 -0.19987457813262244
8913173652.69461 -0.8007576278510243 0.21673390934519116 -0.008444607225806583 -0.5561837116985001 -0.008444607225805097 -0.5561837116984999 -0.8077377453447422 -0.18923889181184
9113473053.892216 -0.7959530542699059 0.23912431102539367 -0.01979248689700646 -0.5536046250247455 -0.01979248689699657 -0.5536046250247472 -0.8117175215648018 -0.1786628524068815
9313772455.08982 -0.7902770141819959 0.2613543684388501 -0.031003552831765306 -0.5511591417340045 -0.031003552831796562 -0.5511591417340038 -0.8152758608495521 -0.1681482111857894
9514071856.287426 -0.7837345060744552 0.283412805153289 -0.042108842183817025 -0.5488459998068536 -0.042108842183828425 -0.5488459998068541 -0.8184264310960967 -0.1576960860402261
9714371257.485031 -0.7763280896976988 0.30528797553112424 -0.05313849901406529 -0.5466627379095187 -0.05313849901407252 -0.5466627379095189 -0.8211812479071348 -0.14730710245702222
9914670658.682636 -0.7680579768025749 0.3269676196008764 -0.06412189915682096 -0.5446057514312795 -0.06412189915681003 -0.5446057514312777 -0.823550745292235 -0.13698152099072952
10114970059.88024 -0.7589221193299598 0.34843862295979455 -0.07508776916258598 -0.542670326288427 -0.07508776916260546 -0.5426703262884239 -0.8255438404772584 -0.1267193538025147
10315269461.077845 -0.7489162960957149 0.3696867782271886 -0.08606429887513774 -0.5408506518886054 -0.08606429887512312 -0.5408506518886094 -0.8271679928788476 -0.11652047258434409
10515568862.27545 -0.7380341993550621 0.3906965447991517 -0.09707924721630287 -0.539139814305346 -0.09707924721628523 -0.5391398143053513 -0.8284292574431997 -0.10638470998068254
10715868263.473055 -0.7262675229745632 0.4114508038516711 -0.1081600407169932 -0.5375297704003158 -0.10816004071700568 -0.5375297704003159 -0.8293323326702603 -0.09631195644975626
10916167664.67066 -0.7136060543011248 0.43193060571008357 -0.11933386424831684 -0.5360113033491013 -0.11933386424832325 -0.5360113033491002 -0.8298806037566411 -0.08630225436548516
11116467065.868265 -0.7000377722039575 0.45211490686256905 -0.13062774327963844 -0.5345739597735455 -0.13062774327962767 -0.5345739597735485 -0.8300761813965767 -0.0763558910504345
11316766467.065868 -0.6855489541970504 0.4719802940445819 -0.14206861681551178 -0.533205968457593 -0.1420686168154985 -0.5332059684575987 -0.8299199368905601 -0.0664734923416605
11517065868.263474 -0.6701242960301435 0.4915006929831643 -0.15368339994193178 -0.5318941404265214 -0.15368339994195077 -0.5318941404265167 -0.8294115343300098 -0.05665611822577994
11717365269.461079 -0.6537470476805024 0.5106470595735202 -0.16549903464242438 -0.5306237500034768 -0.1654990346424155 -0.530623750003478 -0.8285494607590809 -0.04690536202757165
11917664670.658684 -0.6363991702970281 0.529387051481734 -0.17754252721931826 -0.5293783963249302 -0.17754252721932923 -0.5293783963249264 -0.8273310553688862 -0.037223454598185324
12117964071.856289 -0.6180615193490364 0.5476846784554907 -0.1898409702746989 -0.5281398447053645 -0.1898409702746964 -0.5281398447053695 -0.8257525389590139 -0.027613374917620188
12318263473.053894 -0.598714060025627 0.565499929995664 -0.20242154675835125 -0.5268878472010131 -0.20242154675835874 -0.5268878472010118 -0.8238090451134477 -0.018078968492247372
12518562874.251497 -0.5783361218242025 0.5827883795329335 -0.21531151307658958 -0.5255999417417457 -0.2153115130765956 -0.5255999417417427 -0.8214946547880935 -0.008625074892000699
12718862275.449102 -0.5569067002605397 0.5995007649009887 -0.22853815766596328 -0.5242512292996182 -0.2285381576659732 -0.5242512292996111 -0.8188024363012902 0.000742334285394719
12919161676.646708 -0.5344048147287772 0.6155825457446931 -0.24212873076890248 -0.5228141287577488 -0.24212873076890915 -0.5228141287577484 -0.8157244930628291 0.010016005816043366
13119461077.844313 -0.5108099327296818 0.6309734396027151 -0.25611034039884817 -0.5212581094646029 -0.2561103403988415 -0.5212581094646058 -0.8122520217763073 0.019187242535252308
13319760479.041918 -0.48610247195137846 0.6456069398216181 -0.27050980865384233 -0.5195494019339038 -0.27050980865384117 -0.519549401933904 -0.8083753843085997 0.028245727404623028
13520059880.239521 -0.46026439300247124 0.6594098202651446 -0.2853534816330016 -0.5176506878219108 -0.28535348163299973 -0.5176506878219153 -0.8040841969413188 0.03717933332145444
13720359281.437126 -0.43327989690902036 0.6723016340602345 -0.30066698524535995 -0.51552077122522 -0.3006669852453594 -0.5155207712252228 -0.7993674413024258 0.045973918396327
13920658682.634731 -0.40513624272818 0.6841942164666233 -0.3164749181974823 -0.5131142345484306 -0.3164749181974741 -0.5131142345484359 -0.7942136019173658 0.054613106927094375
14120958083.832336 -0.37582470169656257 0.6949912054628132 -0.33280047244356337 -0.5103810837560192 -0.3328004724435667 -0.5103810837560214 -0.788610836006536 0.06307805697177242
14321257485.029942 -0.3453416650822761 0.7045875979151466 -0.3496649704346687 -0.5072663898114903 -0.349664970434668 -0.5072663898114885 -0.7825471818733969 0.07134721631158242
14521556886.227547 -0.3136899231444728 0.71286936433652 -0.36708730770028686 -0.5037099355967548 -0.3670873077002833 -0.503709935596759 -0.7760108129386849 0.07939606974643298
14721856287.42515 -0.28088013208614965 0.7197131513258624 -0.3850832887408137 -0.4996458806646225 -0.38508328874080916 -0.4996458806646261 -0.7689903451412428 0.08719688212898714
14922155688.622755 -0.24693248427155176 0.7249861078615226 -0.40366484406951303 -0.4950024598786003 -0.4036648440695128 -0.49500245987859925 -0.7614752059682071 0.09471844337671778
15122455089.82036 -0.211878593884296 0.7285458796920142 -0.4228391167054529 -0.4897017363810588 -0.42283911670545665 -0.48970173638105574 -0.7534560737135142 0.10192582394989556
15322754491.017965 -0.17576360511513636 0.7302408250285032 -0.4426074077551027 -0.4836594344229046 -0.4426074077550998 -0.48365943442290177 -0.7449253955586772 0.10878015199644829
15523053892.21557 -0.1386485223260496 0.7299105143680553 -0.4629639732333743 -0.47678488334426344 -0.46296397323336935 -0.4767848833442662 -0.7358779925709297 0.11523842655510602
15723353293.413176 -0.10061275078520229 0.7273865871441286 -0.4838946683497731 -0.4689811102976288 -0.4838946683497727 -0.4689811102976314 -0.7263117585117886 0.12125338487709804
15923652694.610779 -0.061756821811159726 0.7224940473541017 -0.505375441547343 -0.4601451259110426 -0.5053754415473473 -0.4601451259110357 -0.7162284572043953 0.12677344600137225
16123952095.808384 -0.02220525685185141 0.7150530883642413 -0.527370689086484 -0.45016845360184027 -0.5273706890864862 -0.45016845360183755 -0.7056346198411871 0.13174275706754807
16324251497.00599 0.017890499417374892 0.7048815423713264 -0.549831492376366 -0.4389379590635784 -0.5498314923763634 -0.4389379590635803 -0.6945425387146084 0.13610137323341095
16524550898.203594 0.05834917673722247 0.6917980507009515 -0.5726937749418416 -0.4263370407002335 -0.5726937749418279 -0.4263370407002499 -0.68297134713045 0.1397856060997796
16724850299.4012 0.09895694249651843 0.675626044971368 -0.5958764340985543 -0.4122472433305665 -0.5958764340985536 -0.412247243330568 -0.6709481664497463 0.14272857870221817
16925149700.598804 0.13946500487166144 0.6561986134596103 -0.6192795240131455 -0.39655035487804163 -0.6192795240131381 -0.39655035487804824 -0.6585092901562082 0.14486102667307194
17125449101.796408 0.17958777215069666 0.6333642988294715 -0.6427825913016147 -0.37913103729962244 -0.6427825913016124 -0.37913103729962494 -0.6457013616048842 0.14611238419682293
17325748502.994015 0.21900182581442781 0.606993829772632 -0.6662432904889374 -0.3598800268114687 -0.6662432904889383 -0.35988002681147335 -0.6325824870150423 0.14641218879240253
17526047904.19162 0.25734600082252873 0.5769877276507063 -0.689496432476979 -0.338697912717252 -0.6894964324769869 -0.3386979127172348 -0.6192232090970792 0.1456918295844974
17726347305.38922 0.29422289057658135 0.5432846486404282 -0.7123536416300073 -0.31549946736930157 -0.7123536416300186 -0.31549946736929446 -0.6057072507495569 0.14388664845371116
17926646706.586826 0.32920209822599517 0.505870222969109 -0.7346038121249436 -0.2902184513336215 -0.7346038121249466 -0.2902184513336214 -0.5921319244574389 0.140938381420013
18126946107.78443 0.36182553132525935 0.46478603940695057 -0.7560145568608512 -0.26281275840550633 -0.7560145568608523 -0.2628127584055108 -0.5786080939182185 0.13679789852257834
18327245508.982037 0.39161497438593035 0.42013830302809185 -0.7763348270217423 -0.2332696974056144 -0.7763348270217424 -0.23326969740561043 -0.5652595730734713 0.13142816491893866
18527544910.17964 0.4180820663298511 0.3721055797100469 -0.7952988421191999 -0.20161113684214635 -0.7952988421191975 -0.20161113684213974 -0.5522218573938819 0.12480730581347718
18727844311.377247 0.4407406538977532 0.3209449487053063 -0.8126314051528667 -0.16789817243603972 -0.8126314051528671 -0.16789817243604013 -0.5396401058959464 0.11693161653914694
18928143712.574852 0.4591212907311357 0.2669958350272501 -0.8280545842758845 -0.13223492654595795 -0.8280545842758864 -0.13223492654595176 -0.5276663318855683 0.10781832164698629
19128443113.772457 0.4727874167423309 0.21068080731962313 -0.8412956240476797 -0.09477106461345672 -0.8412956240476805 -0.09477106461345354 -0.5164558158976341 0.09750785950224927
19328742514.970062 0.48135250495446397 0.1525027222899757 -0.8520958142614226 -0.055702628584953735 -0.8520958142614208 -0.05570262858496996 -0.5061628231735699 0.08606545852913147
19529041916.167667 0.4844972338525889 0.09303778389319856 -0.8602199062840301 -0.015270849930631492 -0.8602199062840278 -0.015270849930651406 -0.49693578462299165 0.0735817841956931
19729341317.365273 0.4819855692145858 0.03292436185036853 -0.8654655443720781 0.026241281000201306 -0.8654655443720803 0.02624128100020674 -0.48891217585086305 0.06017247631557099
19929640718.562874 0.47367855759317484 -0.027152238624142032 -0.8676720933804667 0.06851475121221018 -0.8676720933804664 0.06851475121221297 -0.48221339260524976 0.045976464893707714
20129940119.76048 0.4595446741584592 -0.08647848092247992 -0.8667282141449253 0.11120243370044454 -0.8667282141449283 0.11120243370044908 -0.4769399615053027 0.031153045456353404
20330239520.958084 0.4396657453775135 -0.1443338295289726 -0.8625775773292007 0.15393882845834694 -0.862577577329197 0.15393882845836643 -0.4731674324446589 0.015877802461399762
20530538922.15569 0.41423777557976565 -0.20001326197631275 -0.8552222196207958 0.19635110502598058 -0.8552222196207971 0.196351105025975 -0.47094326804478515 0.00033757873640194447
20730838323.353294 0.38356641590442914 -0.2528496249164248 -0.8447232245714404 0.23807076970785743 -0.8447232245714426 0.23807076970784946 -0.470284976282931 -0.015275215372237846
20931137724.5509 0.348057274255225 -0.30223436434046963 -0.8311986338013844 0.27874520312826473 -0.8311986338013918 0.27874520312826073 -0.4711796318808087 -0.030768591792371153
21131437125.748505 0.3082017137253112 -0.3476352883559208 -0.8148187334778754 0.31804831855514215 -0.8148187334778814 0.31804831855513754 -0.4735848129129638 -0.04595688312485571
21331736526.94611 0.26455916265899126 -0.3886102963455817 -0.7957990832121465 0.3556896786238329 -0.7957990832121499 0.3556896786238217 -0.4774308575609093 -0.060666173382942744
21532035928.143715 0.21773721266307877 -0.4248163906228417 -0.774391830043782 0.39142156430348324 -0.774391830043787 0.391421564303473 -0.48262423850173497 -0.07473893919342384
21732335329.34132 0.1683708838134705 -0.4560137198154392 -0.7508759579467941 0.4250436910309234 -0.7508759579467905 0.4250436910309203 -0.489051772672033 -0.08803766507824834
21932634730.538925 0.11710238715750157 -0.4820648268797986 -0.7255471544775355 0.4564054832720587 -0.7255471544775393 0.45640548327205427 -0.49658534033864504 -0.10044729952800141
22132934131.73653 0.06456253533787615 -0.5029296359729774 -0.6987079347270215 0.48540602127575916 -0.6987079347270173 0.4854060212757626 -0.5050867814024544 -0.11187652434147624
