! Created with skrf (http://scikit-rf.org).
# Hz S RI R 50.0 
!freq ReS11 ImS11 ReS21 ImS21 ReS12 ImS12 ReS22 ImS22
100000000.0 0.0006243840454512358 -0.0006119516043643341 0.9993573231980161 -0.0031185646074881313 0.9993573231979486 -0.0031185645714012942 0.0006257901804538929 -0.0006130299915742302
775757575.7575758 0.0004519631373285767 -0.0047436551013417105 0.9990043274305982 -0.024188383308591622 0.999004327430614 -0.024188383307158796 0.0005367087618824965 -0.00475414552932226
1451515151.5151515 6.0288117619708274e-05 -0.008861155356453248 0.998171232700073 -0.04524247137263504 0.998171232700042 -0.04524247137334564 0.00035668997309976216 -0.008891272513223927
2127272727.2727273 -0.0005591927218476683 -0.012953166241470537 0.9968681878679554 -0.06626940008419976 0.9968681878678838 -0.06626940008538339 7.636762821631039e-05 -0.013021685397814958
2803030303.030303 -0.0014143654978895708 -0.017008143902362372 0.9951055154408244 -0.08725840468213478 0.9951055154408055 -0.08725840468239011 -0.00031335490260069363 -0.01714171280436846
3478787878.787879 -0.0025031784526281927 -0.021014722904521513 0.9928844406003617 -0.10819857476793956 0.9928844406004358 -0.10819857476732063 -0.0008120572893481492 -0.021247971842977786
4154545454.5454545 -0.003823051145159323 -0.02496164984394922 0.9902064921243235 -0.12907904812801307 0.9902064921244706 -0.1290790481268473 -0.0014192013995733244 -0.02533709848770719
4830303030.30303 -0.0053708807357295855 -0.028837808231190577 0.9870735000049853 -0.14988902141452615 0.9870735000049778 -0.14988902141454916 -0.002134132254481554 -0.02940575218550967
5506060606.060606 -0.007138770869748101 -0.03263240871508517 0.983483359245651 -0.17061716936112195 0.983483359245679 -0.17061716936100707 -0.002951966092263328 -0.033451619493329234
6181818181.818182 -0.009125427848359485 -0.03633462206724006 0.979441320822477 -0.19125305899891296 0.9794413208223713 -0.1912530589994439 -0.0038746368173012426 -0.03747103272418154
6857575757.575758 -0.01132766187445158 -0.03993384117582654 0.9749515236759269 -0.211786298464218 0.9749515236758279 -0.21178629846466532 -0.004902552654598818 -0.04146044827196003
7533333333.333333 -0.013740364994897258 -0.04341973976424142 0.9700169726525232 -0.23220642192029164 0.9700169726525512 -0.23220642192018642 -0.006034620414960535 -0.04541665799583
8209090909.090909 -0.016357956269672302 -0.04678224632549747 0.9646409551725218 -0.2525030730145495 0.9646409551724129 -0.25250307301494823 -0.007269637522313981 -0.04933649858411682
8884848484.848484 -0.019174395000260455 -0.0500115658301687 0.958827036173942 -0.27266601435589033 0.9588270361739388 -0.2726660143558978 -0.00860629411671318 -0.05321685571372589
9560606060.60606 -0.022183194982875454 -0.05309820068499803 0.9525790526568275 -0.292685136709878 0.9525790526567299 -0.2926851367101863 -0.010043175335970473 -0.05705466809920693
10236363636.363636 -0.025385926096199274 -0.056031414362020825 0.9459095290754923 -0.31255270521636747 0.9459095290755786 -0.31255270521608697 -0.011586719358332914 -0.06084418643721548
10912121212.121212 -0.028782484291545674 -0.05880062771458923 0.9388299586969394 -0.3322613989301229 0.9388299586970853 -0.33226139892971 -0.013241812789667665 -0.06457947567966821
11587878787.878788 -0.032349328602792216 -0.061400053435022674 0.9313292390787117 -0.35179767113964167 0.9313292390787572 -0.3517976711395201 -0.014991761670306789 -0.06826247520053683
12263636363.636364 -0.0360783430912161 -0.06382157537449897 0.923412214405778 -0.371152015848845 0.9234122144057716 -0.3711520158488603 -0.01683471840774106 -0.07189040194476794
12939393939.39394 -0.03996105114076231 -0.06605746671588221 0.9150839673792085 -0.39031509625692323 0.9150839673792195 -0.39031509625690347 -0.018768745759541128 -0.07546054581708111
13615151515.151516 -0.04398863480341888 -0.06810040554505249 0.9063498117460103 -0.40927775180421827 0.906349811745989 -0.40927775180427245 -0.020791820095208743 -0.07897027279202704
14290909090.90909 -0.04815195480338079 -0.06994348939675023 0.8972152845798503 -0.42803100482498413 0.897215284579803 -0.42803100482507717 -0.02290183476980347 -0.08241702785691589
14966666666.666666 -0.052441571140015616 -0.07158024875349908 0.8876861383394155 -0.4465660667888076 0.887686138339385 -0.44656606678887617 -0.025096603605991835 -0.08579833778664436
15642424242.424242 -0.05684776422889891 -0.07300465946520726 0.8777683327241452 -0.46487434413463496 0.8777683327240644 -0.4648743441347929 -0.027373864468658162 -0.08911181374173693
16318181818.181818 -0.06136055652196978 -0.07421115407994128 0.867468026355741 -0.48294744368016473 0.8674680263556916 -0.48294744368025816 -0.02973128292440772 -0.09235515368841334
16993939393.939394 -0.0659697345434112 -0.07519463206521469 0.8567915683074581 -0.5007771776072161 0.8567915683072657 -0.5007771776075559 -0.032166455978852655 -0.09552614464124037
17669696969.696968 -0.07066487128312403 -0.07595046890997784 0.8457454895058794 -0.5183555680193144 0.845745489505837 -0.5183555680193825 -0.03467691587588452 -0.0986226647221959
18345454545.454544 -0.07543534888151252 -0.07647452409767798 0.834336494031038 -0.5356748510665568 0.834336494031126 -0.5356748510664302 -0.03726013395547307 -0.10164268503694067
19021212121.21212 -0.0802703815525141 -0.07676314794897315 0.8225714503361138 -0.5527274806427089 0.8225714503360705 -0.5527274806427682 -0.03991352455237107 -0.10458427136688905
19696969696.969696 -0.08515903867576888 -0.07681318733412001 0.8104573824152423 -0.5695061316471306 0.8104573824152719 -0.5695061316470935 -0.04263444893625558 -0.10744558568014986
20372727272.727272 -0.09009026800494326 -0.076621990247721 0.7980014609368224 -0.5860037028254289 0.7980014609367712 -0.5860037028255018 -0.04542021927157255 -0.11022488745532719
21048484848.484848 -0.09505291893221682 -0.07618740927090972 0.785210994372361 -0.6022133191796611 0.7852109943724472 -0.6022133191795437 -0.04826810259878972 -0.11292053482807102
21724242424.242424 -0.10003576574950528 -0.07550780390932632 0.7720934201375066 -0.6181283339644961 0.7720934201375019 -0.6181283339645056 -0.051175324819835624 -0.1155309855529838
22400000000.0 -0.10502753085353807 -0.07458204183516075 0.7586562957703805 -0.6337423302691897 0.7586562957703069 -0.6337423302692717 -0.05413907468283611 -0.11805479779139273
23075757575.757576 -0.11001690783933103 -0.07340949904135405 0.7449072901681745 -0.649049122194434 0.7449072901682132 -0.6490491221943959 -0.05715650775677584 -0.1204906307204512
23751515151.515152 -0.11499258442798066 -0.07199005892370897 0.7308541749011548 -0.6640427556345975 0.73085417490121 -0.664042755634541 -0.060224750385825095 -0.12283724497176629
24427272727.272728 -0.11994326518183825 -0.07032411032163136 0.7165048156258506 -0.6787175086720114 0.7165048156258734 -0.6787175086719934 -0.0633409036179685 -0.12509350290063495
25103030303.030304 -0.12485769395468026 -0.0684125445274139 0.7018671636135437 -0.6930678915978761 0.7018671636135426 -0.6930678915978751 -0.06650204709806931 -0.1272583686903416
25778787878.78788 -0.12972467603117419 -0.06625675130076446 0.6869492474147719 -0.7070886465683013 0.6869492474147048 -0.707088646568366 -0.06970524291866742 -0.12933090829559302
26454545454.545456 -0.13453309991466555 -0.0638586139090186 0.6717591646751394 -0.7207747469092411 0.6717591646750912 -0.7207747469092907 -0.07294753942203117 -0.13131028923083043
27130303030.303032 -0.1392719587155769 -0.06122050322619995 0.6563050741180382 -0.7341213960851187 0.6563050741180962 -0.7341213960850631 -0.07622597494589171 -0.13319578020728212
27806060606.060604 -0.14393037110397705 -0.05834527091844132 0.6405951877106124 -0.7471240263430744 0.6405951877106066 -0.7471240263430798 -0.07953758150698544 -0.1349867506227203
28481818181.81818 -0.1484976017909578 -0.05523624175371578 0.6246377630256287 -0.7597782970485805 0.6246377630257663 -0.7597782970484656 -0.0828793884175717 -0.13668266991331623
29157575757.575756 -0.1529630814987357 -0.05189720506316476 0.6084410958133047 -0.7720800927270484 0.6084410958131569 -0.7720800927271716 -0.08624842582882188 -0.13828310677004832
29833333333.333332 -0.15731642639075666 -0.04833240539464675 0.5920135127911289 -0.7840255208306098 0.5920135127910923 -0.7840255208306431 -0.08964172819333331 -0.13978772822360538
30509090909.090908 -0.1615474569319602 -0.04454653239113195 0.5753633646697055 -0.7956109092383115 0.5753633646696024 -0.7956109092383905 -0.0930563376494523 -0.14119629861192218
31184848484.848484 -0.1656462161496517 -0.04054470993269597 0.5584990194147625 -0.8068328035161546 0.5584990194148086 -0.8068328035161235 -0.09648930731508208 -0.1425086784254493
31860606060.60606 -0.16960298727110323 -0.036332484578928265 0.5414288557621345 -0.8176879639451139 0.5414288557620454 -0.8176879639451747 -0.09993770449366497 -0.14372482304583634
32536363636.363636 -0.173408310716382 -0.031915813349223304 0.524161256986515 -0.8281733623401418 0.5241612569865954 -0.8281733623400898 -0.10339861378428443 -0.144844781378351
33212121212.121212 -0.1770530004230397 -0.027301050879241645 0.5067046049352284 -0.8382861786729446 0.506704604935248 -0.8382861786729393 -0.10686914009680953 -0.14586869438711342
33887878787.878788 -0.180528159489844 -0.022494935994849228 0.4890672743297303 -0.8480237975172912 0.4890672743297637 -0.8480237975172723 -0.11034641156912597 -0.14679679353914146
34563636363.63636 -0.1838251951175742 -0.017504577735111784 0.4712576273378559 -0.8573838043352778 0.4712576273377746 -0.857383804335327 -0.11382758238031597 -0.14762939916207532
35239393939.393936 -0.1869358328399962 -0.012337440871256244 0.45328400842374994 -0.866363981618166 0.45328400842362426 -0.8663639816182312 -0.11730983546447968 -0.14836691872347582
35915151515.15151 -0.18985213002941234 -0.007001330952997818 0.4351547394746535 -0.8749623049009053 0.43515473947459293 -0.8749623049009371 -0.12079038512001983 -0.14900984503748715
36590909090.90909 -0.192566488668794 -0.0015043789222757395 0.4168781152057321 -0.8831769386672655 0.4168781152057916 -0.8831769386672383 -0.1242664795130536 -0.1495587544037252
37266666666.666664 -0.1950716673850384 0.004144974667294802 0.3984623988462302 -0.8910062321595097 0.39846239884624995 -0.8910062321595016 -0.127735403077354 -0.150014304686714
37942424242.42424 -0.19736079273585608 0.009937995790319924 0.3799158181021668 -0.8984487151116374 0.3799158181020668 -0.8984487151116783 -0.13119447880842405 -0.15037723333844655
38618181818.181816 -0.19942736974839334 0.015865673413723535 0.36124656139773614 -0.9055030934196581 0.36124656139783656 -0.905503093419617 -0.13464107045132062 -0.1506483553740034
39293939393.93939 -0.2012652917065239 0.021918736246545438 0.34246277439219036 -0.9121682447650802 0.3424627743921134 -0.9121682447651123 -0.13807258458567165 -0.15082856130157443
39969696969.69697 -0.20286884918905937 0.028087669744380206 0.32357255676697333 -0.918443214207413 0.3235725567670553 -0.9184432142073897 -0.14148647260457006 -0.1509188150141441
40645454545.454544 -0.20423273835707498 0.03436273333374906 0.3045839592840619 -0.9243272097581482 0.304583959284054 -0.924327209758153 -0.14488023259173508 -0.15092015164995437
41321212121.21212 -0.20535206849697474 0.04073397782381635 0.2855049811063854 -0.9298195979523698 0.2855049811062726 -0.9298195979524079 -0.14825141109596524 -0.15083367542252307
41996969696.969696 -0.20622236881947523 0.047191262973750384 0.2663435673774784 -0.9349198994307735 0.26634356737736425 -0.9349198994308062 -0.15159760480490606 -0.15066055742821516
42672727272.72727 -0.20683959452250916 0.0537242751865749 0.24710760705581794 -0.9396277845443101 0.24710760705585452 -0.9396277845442974 -0.1549164621209133 -0.1504020334353154
43348484848.48485 -0.2072001321238684 0.06032254529873566 0.22780493099550625 -0.9439430689953778 0.22780493099542864 -0.9439430689953915 -0.15820568463818596 -0.15005940165818743
44024242424.242424 -0.2073008040717352 0.0669754664363149 0.20844331026712487 -0.9478657095266613 0.20844331026706928 -0.9478657095266793 -0.16146302852649383 -0.1496340205208834
44700000000.0 -0.20713887263829284 0.0736723119144149 0.18903045471272964 -0.951395799669265 0.18903045471273627 -0.9513957996692647 -0.1646863058205913 -0.14912730641502364
45375757575.757576 -0.20671204310979563 0.08040225314885542 0.16957401172588354 -0.9545335655609352 0.16957401172592262 -0.9545335655609305 -0.16787338561944198 -0.1485407314544495
46051515151.51515 -0.20601846628026496 0.08715437755826035 0.1500815652498978 -0.9572793618445985 0.15008156524991934 -0.9572793618445923 -0.17102219519732625 -0.1478758212302462
46727272727.27273 -0.20505674026024628 0.09391770643190808 0.1305606349846621 -0.9596336676569039 0.13056063498474021 -0.9596336676568952 -0.17413072102878036 -0.14713415257070794
47403030303.030304 -0.20382591161036853 0.10068121273973342 0.11101867579431378 -0.9615970827160807 0.11101867579429867 -0.9615970827160825 -0.1771970097303574 -0.1463173513066683
48078787878.78788 -0.20232547581353888 0.10743383886429571 0.09146307730590719 -0.9631703235170654 0.09146307730596877 -0.9631703235170612 -0.1802191689217409 -0.1454270900479141
48754545454.545456 -0.2005553770947252 0.11416451423189695 0.07190116369155956 -0.9643542196422689 0.07190116369146779 -0.9643542196422794 -0.18319536800927178 -0.14446508597024207
49430303030.30303 -0.19851600760262464 0.12086217282518047 0.0523401936205503 -0.9651497101951744 0.05234019362042964 -0.9651497101951825 -0.18612383889347126 -0.14343309861817194
50106060606.06061 -0.19620820596443742 0.12751577055738245 0.03278736037744173 -0.9655578403632564 0.03278736037749147 -0.9655578403632575 -0.18900287660501236 -0.14233292772334163
50781818181.818184 -0.19363325522629893 0.1341143024904127 0.013249792132112885 -0.9655797581166241 0.013249792132039258 -0.9655797581166237 -0.19183083987068078 -0.14116641104145194
51457575757.57576 -0.1907928801923209 0.14064681987966557 -0.006265447649039748 -0.9652167110480018 -0.006265447649175454 -0.9652167110480052 -0.19460615161178452 -0.13993542220902241
52133333333.333336 -0.18768924417453828 0.1471024470318452 -0.02575135965560696 -0.9644700433586727 -0.025751359655591447 -0.9644700433586744 -0.1973272993794264 -0.1386418686216942
52809090909.09091 -0.18432494516652273 0.15347039795634107 -0.04520100806485227 -0.963341192995263 -0.045201008064749804 -0.9633411929952689 -0.1999928357273737 -0.13728768933524363
53484848484.84849 -0.1807030114531631 0.15973999279930334 -0.06460751976031502 -0.9618316889410985 -0.06460751976034226 -0.9618316889410921 -0.2026013785265559 -0.13587485298946003
54160606060.606064 -0.17682689666898493 0.1659006740458622 -0.08396408344832594 -0.959943148665292 -0.08396408344816367 -0.9599431486653017 -0.2051516112229585 -0.13440535575804763
54836363636.36363 -0.17270047431704796 0.17194202247628865 -0.10326394868155093 -0.9576772757328919 -0.10326394868157289 -0.9576772757328892 -0.20764228304242852 -0.1328812193221579
55512121212.12121 -0.16832803176243402 0.17785377286392426 -0.12250042480164351 -0.9550358575778616 -0.12250042480159683 -0.9550358575778668 -0.2100722091434763 -0.1313044888707405
56187878787.878784 -0.16371426370854494 0.18362582940528077 -0.14166687980939108 -0.9520207634411185 -0.1416668798093651 -0.9520207634411231 -0.2124402707219369 -0.1296772311270232
56863636363.63636 -0.1588642651728848 0.18924828086684206 -0.16075673917322456 -0.9486339424748098 -0.16075673917326586 -0.9486339424748026 -0.21474541506918465 -0.1280015324003645
57539393939.393936 -0.15378352396916478 0.19471141544131484 -0.179763484587713 -0.944877422013605 -0.1797634845876407 -0.944877422013619 -0.21698665558503033 -0.12627949666611293
58215151515.15151 -0.1484779127109689 0.2000057353008042 -0.19868065268783736 -0.9407533060136138 -0.19868065268774296 -0.9407533060136323 -0.2191630717504753 -0.12451324367052712
58890909090.90909 -0.1429536803454774 0.2051219708368134 -0.21750183373438448 -0.9362637736586092 -0.2175018337343137 -0.9362637736586228 -0.22127380905823257 -0.12270490706244636
59566666666.666664 -0.13721744322985824 0.21005109457863566 -0.2362206702754702 -0.9314110781331474 -0.23622067027545915 -0.9314110781331553 -0.22331807890682454 -0.12085663255173247
60242424242.42424 -0.13127617575966635 0.21478433477803702 -0.25483085579696596 -0.9261975455616891 -0.25483085579699116 -0.9261975455616824 -0.22529515845729448 -0.1189705760920223
60918181818.181816 -0.1251372005610163 0.21931318865330574 -0.27332613336953304 -0.9206255741122996 -0.2733261333694782 -0.9206255741123137 -0.22720439045571458 -0.11704890208967933
61593939393.93939 -0.11880817825544729 0.22362943528139892 -0.2917002943021873 -0.9146976332631904 -0.29170029430221794 -0.9146976332631812 -0.2290451830226494 -0.11509378163711183
62269696969.69697 -0.11229709680919618 0.22772514813004988 -0.30994717681249107 -0.9084162632297126 -0.3099471768124955 -0.9084162632297066 -0.23081700941063335 -0.11310739076983549
62945454545.454544 -0.10561226047519284 0.2315927072204942 -0.3280606647198421 -0.9017840745497276 -0.32806066471978795 -0.9017840745497488 -0.2325194077320376 -0.11109190874780958
63621212121.21212 -0.09876227833851581 0.2352248109114258 -0.3460346861738657 -0.8948037478238635 -0.3460346861738819 -0.8948037478238602 -0.23415198065720735 -0.10904951635822625
64296969696.969696 -0.09175605247458306 0.2386144872954525 -0.3638632124242567 -0.8874780336075527 -0.3638632124242742 -0.8874780336075461 -0.2357143950851113 -0.10698239424139021
64972727272.72727 -0.08460276573036185 0.24175510519822252 -0.3815402566410248 -0.879809752451436 -0.3815402566409931 -0.8798097524514507 -0.23720638178669692 -0.10489272123719279
65648484848.48485 -0.07731186913610552 0.24464038477223415 -0.39905987279368055 -0.8718017950857655 -0.3990598727936751 -0.8718017950857713 -0.2386277350223845 -0.10278267275160656
66324242424.242424 -0.0698930689608751 0.24726440767415056 -0.416416154596991 -0.863457122744599 -0.4164161545969631 -0.8634571227446101 -0.23997831213399765 -0.10065441914355988
67000000000.0 -0.062356313416304814 0.24962162681800146 -0.43360323453187105 -0.8547787676249455 -0.4336032345319151 -0.8547787676249233 -0.24125803311139665 -0.09851012412947914
