! Created with skrf (http://scikit-rf.org).
# Hz S RI R 50.0 
!freq ReS11 ImS11 ReS21 ImS21 ReS12 ImS12 ReS22 ImS22
100000000.0 0.0009458834149378374 5.290150802321911e-05 0.9990416911286881 -0.002955771189397716 0.9990416911286881 -0.0029557711893438018 0.0009458834149376123 5.290150809137471e-05
775757575.7575758 0.0009287145518168589 0.0004108399504247834 0.998753977000729 -0.022926984230609775 0.9987539770007284 -0.022926984230605327 0.0009287145518168701 0.0004108399504239237
1451515151.5151515 0.0009634094286662436 0.0007675143542634571 0.998029646260942 -0.04288625051527931 0.9980296462609417 -0.042886250515275164 0.0009634094286660942 0.0007675143542673375
2127272727.2727273 0.0010310564933286824 0.001121266525597856 0.9968878835680557 -0.06282450619857861 0.9968878835680557 -0.06282450619858052 0.0010310564933287642 0.0011212665255963877
2803030303.030303 0.0011130024118087686 0.0014719515634078343 0.995347758472994 -0.08273420655613829 0.995347758472994 -0.08273420655613836 0.0011130024118088107 0.0014719515634058844
3478787878.787879 0.001209110140135102 0.0018189963639705937 0.9934099595371196 -0.10260738657811941 0.993409959537119 -0.10260738657812164 0.0012091101401346446 0.001818996363967737
4154545454.5454545 0.0013192197440893745 0.002161833879366229 0.9910753349863849 -0.12243609758378868 0.991075334986385 -0.1224360975837889 0.0013192197440895826 0.0021618338793664145
4830303030.30303 0.0014431486646237193 0.002499904030243403 0.9883448923199012 -0.14221241044760205 0.9883448923199007 -0.14221241044760174 0.0014431486646237152 0.002499904030243392
5506060606.060606 0.0015917669659755724 0.0028308011026891276 0.9852086754759709 -0.1619265573855667 0.9852086754759712 -0.1619265573855661 0.0015917669659762598 0.002830801102689341
6181818181.818182 0.0017573589779820392 0.003154694846372105 0.9816755010625636 -0.18157136893917908 0.9816755010625637 -0.18157136893917936 0.0017573589779819167 0.0031546948463722878
6857575757.575758 0.0019359222974437036 0.0034716050619621017 0.977750612397661 -0.20113954626307043 0.9777506123976613 -0.20113954626307087 0.0019359222974438513 0.0034716050619619243
7533333333.333333 0.0021271637110055826 0.0037810164944551013 0.9734356673525649 -0.2206232750850955 0.9734356673525647 -0.220623275085096 0.002127163711005408 0.0037810164944541854
8209090909.090909 0.0023307696120005977 0.004082426163430583 0.968732479959447 -0.24001477717188474 0.9687324799594471 -0.24001477717188424 0.0023307696120008284 0.0040824261634311056
8884848484.848484 0.0025464065133824175 0.004375344168538173 0.9636430196091713 -0.2593063134667576 0.9636430196091712 -0.2593063134667565 0.002546406513382537 0.004375344168539304
9560606060.60606 0.0027737215924227895 0.0046592944735291885 0.9581694101850499 -0.2784901872084879 0.9581694101850498 -0.27849018720848806 0.00277372159242281 0.004659294473529405
10236363636.363636 0.0030011877179654755 0.004937366633499646 0.9523252516053534 -0.297562350186914 0.9523252516053534 -0.2975623501869145 0.003001187717965342 0.0049373666334988926
10912121212.121212 0.00321921810077705 0.005213003776479986 0.9461223971246935 -0.3165191751778727 0.9461223971246936 -0.3165191751778726 0.003219218100777025 0.00521300377647975
11587878787.878788 0.003448367262612946 0.00547955778276201 0.9395422030159044 -0.33534682484754336 0.9395422030159045 -0.3353468248475435 0.003448367262613263 0.005479557782761975
12263636363.636364 0.0036882589744152987 0.0057365868135480355 0.9325873616001894 -0.35403778608517134 0.93258736160019 -0.3540377860851712 0.0036882589744154006 0.005736586813548263
12939393939.39394 0.003938499560634108 0.005983664565093905 0.9252607149634122 -0.3725846022227899 0.9252607149634127 -0.3725846022227898 0.003938499560634535 0.005983664565093732
13615151515.151516 0.0041986785396597864 0.006220380955092735 0.9175652537490708 -0.3909798760314144 0.917565253749071 -0.3909798760314141 0.004198678539659958 0.0062203809550930855
14290909090.90909 0.004468369291184109 0.006446342782669557 0.9095041158907095 -0.4092162726899184 0.9095041158907095 -0.40921627268991856 0.004468369291184103 0.0064463427826694
14966666666.666666 0.004747129749407979 0.0066611743609162775 0.9010805852844723 -0.42728652272532885 0.901080585284472 -0.4272865227253288 0.004747129749407688 0.006661174360916211
15642424242.424242 0.005034503120957587 0.0068645181209718385 0.8922980904025394 -0.44518342492330826 0.8922980904025395 -0.4451834249233081 0.0050345031209575505 0.006864518120971974
16318181818.181818 0.005330018626346214 0.007056035186681058 0.8831602028482067 -0.4628998492076145 0.8831602028482066 -0.46289984920761484 0.005330018626346232 0.007056035186680895
16993939393.939394 0.005633192263767001 0.007235405918911032 0.8736706358533972 -0.480428739487348 0.8736706358533974 -0.48042873948734804 0.005633192263767043 0.007235405918910949
17669696969.696968 0.005943527593977179 0.007402330428676206 0.863833242719426 -0.4977631164708247 0.8638332427194254 -0.49776311647082494 0.005943527593976857 0.007402330428675649
18345454545.454544 0.006260516544997814 0.007556529058242659 0.8536520152018461 -0.5148960804449491 0.8536520152018463 -0.5148960804449496 0.006260516544997656 0.00755652905824241
19021212121.21212 0.006583640235321802 0.007697742829465043 0.8431310818402524 -0.531820814018963 0.8431310818402529 -0.5318208140189633 0.006583640235321846 0.007697742829465066
19696969696.969696 0.006912369814292149 0.007825733858638812 0.832274706233907 -0.5485305848315042 0.8322747062339069 -0.5485305848315041 0.006912369814292056 0.007825733858639033
20372727272.727272 0.0072461673182887265 0.007940285737221798 0.8210872852641034 -0.5650187482199118 0.8210872852641032 -0.565018748219912 0.007246167318288775 0.007940285737221789
21048484848.484848 0.007584486541338445 0.00804120387782685 0.8095733472641903 -0.5812787498507566 0.8095733472641898 -0.5812787498507563 0.007584486541338414 0.008041203877827011
21724242424.242424 0.007926773918735938 0.008128315824943399 0.797737550138189 -0.5973041283105905 0.7977375501381888 -0.5973041283105903 0.007926773918735806 0.00812831582494334
22400000000.0 0.008272469422247533 0.008201471529908112 0.7855846794289725 -0.6130885176559561 0.7855846794289728 -0.6130885176559562 0.008272469422247708 0.008201471529908185
23075757575.757576 0.008621007465452399 0.008260543589699455 0.77311964633697 -0.6286256499217053 0.7731196463369696 -0.6286256499217053 0.00862100746545253 0.008260543589699635
23751515151.515152 0.008971817817756191 0.008305427449185552 0.760347485690392 -0.6439093575867139 0.7603474856903919 -0.6439093575867137 0.008971817817756427 0.008305427449185856
24427272727.272728 0.009324326525606448 0.008336041566526323 0.7472733538679821 -0.6589335759961139 0.7472733538679821 -0.6589335759961137 0.009324326525606403 0.008336041566526542
25103030303.030304 0.009677956839421657 0.008352327541473293 0.7339025266753018 -0.673692345739177 0.7339025266753019 -0.6736923457391768 0.009677956839421851 0.0083523275414732
25778787878.78788 0.010032130144743459 0.008354250206388015 0.7202403971755822 -0.6881798149820324 0.7202403971755822 -0.6881798149820324 0.010032130144743367 0.008354250206387736
26454545454.545456 0.010386266896111017 0.008341797679845749 0.7062924734761812 -0.7023902417544063 0.7062924734761812 -0.7023902417544061 0.010386266896111033 0.00834179767984585
27130303030.303032 0.010739787552158259 0.008314981382757432 0.6920643764716908 -0.7163179961896217 0.6920643764716907 -0.7163179961896216 0.010739787552158311 0.008314981382757533
27806060606.060604 0.011092113510432898 0.00827383601700713 0.6775618375447502 -0.7299575627171108 0.6775618375447503 -0.7299575627171112 0.011092113510432693 0.008273836017006729
28481818181.81818 0.011442668040429819 0.008218419506648575 0.6627906962256356 -0.7433035422067227 0.6627906962256354 -0.7433035422067225 0.011442668040429807 0.008218419506648733
29157575757.575756 0.011790877213354804 0.008148812901789159 0.6477568978116882 -0.7563506540641368 0.6477568978116883 -0.7563506540641369 0.011790877213354839 0.008148812901789319
29833333333.333332 0.012136170827114212 0.008065120245314273 0.632466490947666 -0.7690937382767308 0.632466490947666 -0.7690937382767309 0.012136170827114148 0.00806512024531413
30509090909.090908 0.012477983325062397 0.007967468402699771 0.6169256251680941 -0.7815277574092501 0.6169256251680943 -0.7815277574092504 0.012477983325062371 0.007967468402699742
31184848484.848484 0.012815754707028322 0.007856006855196593 0.6011405484027058 -0.7936477985486908 0.6011405484027059 -0.7936477985486909 0.012815754707028377 0.007856006855196402
31860606060.60606 0.01314893143117062 0.007730907456734727 0.5851176044460593 -0.8054490751977961 0.585117604446059 -0.805449075197796 0.013148931431170376 0.007730907456734777
32536363636.363636 0.013476967305214813 0.0075923641549579405 0.5688632303924245 -0.8169269291166233 0.5688632303924247 -0.8169269291166236 0.013476967305214752 0.007592364154957699
33212121212.121212 0.013799324365660602 0.007440592676847245 0.5523839540370357 -0.8280768321116431 0.5523839540370358 -0.8280768321116432 0.013799324365660436 0.007440592676847306
33887878787.878788 0.014115473743541789 0.007275830179459872 0.5356863912448002 -0.8388943877718619 0.5356863912448002 -0.8388943877718618 0.014115473743541777 0.007275830179459693
34563636363.63636 0.014424896515376708 0.007098334866349499 0.5187772432875671 -0.8493753331514889 0.5187772432875669 -0.8493753331514889 0.014424896515376599 0.007098334866349476
35239393939.393936 0.014727084537940211 0.006908385570305717 0.5016632941510433 -0.8595155403986896 0.5016632941510432 -0.8595155403986893 0.014727084537940338 0.006908385570305947
35915151515.15151 0.015021541265538093 0.006706281303088431 0.4843514078124614 -0.86931101832998 0.48435140781246133 -0.8693110183299801 0.015021541265538028 0.006706281303088387
36590909090.90909 0.015307782548477842 0.006492340772892336 0.4668485254900889 -0.8787579139498585 0.4668485254900888 -0.8787579139498586 0.015307782548477705 0.006492340772892438
37266666666.666664 0.015585337411478033 0.006266901870333417 0.4491616628656729 -0.8878525139152719 0.4491616628656728 -0.8878525139152719 0.01558533741147799 0.006266901870333469
37942424242.42424 0.015853748810765813 0.00603032112377883 0.4312979072809145 -0.8965912459445555 0.4312979072809144 -0.8965912459445551 0.015853748810766056 0.006030321123779026
38618181818.181816 0.016112574368677045 0.005782973124916844 0.41326441490906046 -0.9049706801704841 0.41326441490906063 -0.9049706801704845 0.01611257436867691 0.005782973124916685
39293939393.93939 0.01636138708458077 0.0055252499254823135 0.3950684079027001 -0.9129875304371144 0.3950684079027002 -0.9129875304371143 0.016361387084580622 0.005525249925482374
39969696969.69697 0.016599776021017754 0.005257560406127136 0.37671717151885087 -0.9206386555400948 0.3767171715188509 -0.920638655540095 0.01659977602101775 0.005257560406127163
40645454545.454544 0.016827346963950208 0.004980329618437753 0.3582180512224174 -0.9279210604101651 0.3582180512224174 -0.9279210604101651 0.016827346963950114 0.004980329618437623
41321212121.21212 0.01704372305609109 0.004693998101170744 0.3395784497690982 -0.9348318972395532 0.3395784497690981 -0.9348318972395531 0.01704372305609105 0.004693998101170789
41996969696.969696 0.017248545402309398 0.004399021171803643 0.32080582426881876 -0.9413684665510287 0.3208058242688188 -0.941368466551029 0.017248545402309315 0.004399021171803526
42672727272.72727 0.017441473646150077 0.004095868194534559 0.3019076832307628 -0.9475282182093612 0.30190768323076256 -0.9475282182093605 0.017441473646150278 0.004095868194534728
43348484848.48485 0.01762218651656736 0.003785021825915086 0.2828915835910666 -0.9533087523749633 0.2828915835910665 -0.9533087523749628 0.017622186516567714 0.0037850218259152775
44024242424.242424 0.017790382344000995 0.0034669772393152993 0.26376512772424787 -0.9587078203995149 0.2637651277242478 -0.9587078203995147 0.01779038234400113 0.003466977239315298
44700000000.0 0.017945779544989077 0.0031422413294723236 0.24453596043942458 -0.9637233256633696 0.24453596043942444 -0.9637233256633693 0.017945779544988976 0.003142241329472361
45375757575.757576 0.018088117074549208 0.0028113318983918147 0.22521176596238823 -0.9683533243545671 0.22521176596238823 -0.9683533243545672 0.018088117074549017 0.0028113318983917926
46051515151.51515 0.018217154845622956 0.0024747768239053404 0.20580026490458317 -0.9725960261892953 0.2058002649045831 -0.972596026189295 0.01821715484562297 0.002474776823905398
46727272727.27273 0.01833267411491471 0.002133113212212808 0.1863092112200439 -0.9764497950736419 0.18630921122004387 -0.9764497950736417 0.018332674114914824 0.0021331132122128548
47403030303.030304 0.01843447783452963 0.001786886535764415 0.1667463891513462 -0.9799131497065109 0.16674638915134618 -0.9799131497065108 0.018434477834529492 0.0017868865357644013
48078787878.78788 0.01852239096884781 0.001436649757857187 0.14711961016560796 -0.982984764123575 0.1471196101656079 -0.9829847641235748 0.018522390968847776 0.001436649757857208
48754545454.545456 0.018596260776152066 0.001082962445345798 0.12743670988159453 -0.9856634681821572 0.12743670988159447 -0.9856634681821574 0.01859626077615202 0.0010829624453458035
49430303030.30303 0.01865595705455558 0.0007263898708793469 0.10770554498896592 -0.9879482479869449 0.10770554498896588 -0.9879482479869444 0.018655957054555593 0.0007263898708793454
50106060606.06061 0.01870137235184962 0.00036750210609774893 0.08793399016070454 -0.9898382462564482 0.08793399016070455 -0.9898382462564485 0.018701372351849512 0.0003675021060977078
50781818181.818184 0.018732422138946606 6.87310723213264e-06 0.06812993495976342 -0.9913327626301423 0.06812993495976345 -0.9913327626301424 0.018732422138946637 6.873107232131953e-06
51457575757.57576 0.018749044946651132 -0.0003549202054336983 0.0483012807409734 -0.9924312539162127 0.048301280740973375 -0.9924312539162119 0.018749044946651385 -0.0003549202054336667
52133333333.333336 0.01875120246553546 -0.0007172988727760169 0.028455937549242152 -0.9931333342798737 0.02845593754924214 -0.9931333342798735 0.018751202465535462 -0.0007172988727760193
52809090909.09091 0.01873887960877688 -0.0010796828252438364 0.00860182101507925 -0.9934387753722163 0.00860182101507925 -0.9934387753722161 0.018738879608776637 -0.0010796828252438349
53484848484.84849 0.01871208453786267 -0.0014414918129938168 -0.01125315075151288 -0.9933475063995502 -0.011253150751512885 -0.9933475063995505 0.01871208453786291 -0.0014414918129938181
54160606060.606064 0.018670848651116893 -0.0018021463362680604 -0.03110106026775358 -0.992859614133244 -0.03110106026775358 -0.9928596141332441 0.018670848651116952 -0.0018021463362680673
54836363636.36363 0.018615226535078747 -0.0021610685745336333 -0.05093399378436981 -0.9919753428600389 -0.050933993784369816 -0.9919753428600389 0.01861522653507903 -0.0021610685745336515
55512121212.12121 0.018545295878812654 -0.002517683312905807 -0.07074404439041318 -0.9906950942728634 -0.07074404439041318 -0.9906950942728633 0.018545295878812675 -0.0025176833129057982
56187878787.878784 0.018461157351283872 -0.002871418864381142 -0.09052331511557803 -0.9890194273021544 -0.09052331511557807 -0.9890194273021549 0.018461157351283734 -0.002871418864381138
56863636363.63636 0.018362934442004427 -0.0032217079864133944 -0.11026392202898064 -0.9869490578877262 -0.1102639220289807 -0.9869490578877265 0.018362934442004143 -0.003221707986413327
57539393939.393936 0.01825077326520016 -0.0035679887903737753 -0.1299579973333624 -0.9844848586912178 -0.12995799733336244 -0.984484858691218 0.018250773265200127 -0.0035679887903737927
58215151515.15151 0.01812484232781247 -0.003909705642449155 -0.14959769245367735 -0.981627858749188 -0.1495976924536773 -0.9816278587491879 0.018124842327812613 -0.0039097056424491836
58890909090.90909 0.017985332261707024 -0.004246310054544514 -0.16917518111902075 -0.978379243066913 -0.16917518111902077 -0.9783792430669132 0.017985332261707065 -0.004246310054544516
59566666666.666664 0.01783245552051129 -0.004577261563771183 -0.18868266243685466 -0.9747403521529721 -0.18868266243685458 -0.9747403521529718 0.017832455520511336 -0.004577261563771245
60242424242.42424 0.01766644604156966 -0.00490202859912333 -0.20811236395848565 -0.9707126814947094 -0.20811236395848567 -0.9707126814947092 0.01766644604156985 -0.004902028599123413
60918181818.181816 0.017487558873549424 -0.005220089333960385 -0.22745654473474147 -0.9662978809746801 -0.22745654473474147 -0.9662978809746801 0.017487558873549424 -0.005220089333960367
61593939393.93939 0.017296069770286988 -0.005530932522938856 -0.2467074983607967 -0.9614977542281957 -0.24670749836079656 -0.9614977542281952 0.017296069770286922 -0.005530932522938881
62269696969.69697 0.01709227475152947 -0.0058340583220630625 -0.26585755600908934 -0.9563142579421021 -0.2658575560090894 -0.9563142579421019 0.017092274751529475 -0.005834058322062943
62945454545.454544 0.016876489631255508 -0.006128979090542547 -0.2848990894492736 -0.9507495010949357 -0.28489908944927367 -0.9507495010949356 0.016876489631255473 -0.006128979090542523
63621212121.21212 0.016649049514336756 -0.006415220173184733 -0.3038245140541377 -0.9448057441386182 -0.30382451405413774 -0.9448057441386182 0.016649049514336767 -0.006415220173184788
64296969696.969696 0.016410308262333407 -0.006692320662070708 -0.32262629179043045 -0.9384853981218653 -0.32262629179043056 -0.9384853981218655 0.016410308262333466 -0.006692320662070662
64972727272.72727 0.016160637929269802 -0.00695983413629993 -0.3412969341935186 -0.9317910237555009 -0.3412969341935186 -0.931791023755501 0.016160637929269583 -0.006959834136299843
65648484848.48485 0.015900428168291257 -0.007217329378624603 -0.3598290053248065 -0.924725330419884 -0.3598290053248063 -0.9247253304198835 0.015900428168291382 -0.0072173293786246965
66324242424.242424 0.01563008561014403 -0.0074643910678291285 -0.3782151247108398 -0.9172911751146698 -0.3782151247108396 -0.9172911751146695 0.015630085610143955 -0.007464391067829177
67000000000.0 0.015350033214458464 -0.007700620445745196 -0.3964479702630106 -0.9094915613511522 -0.3964479702630106 -0.9094915613511522 0.015350033214458374 -0.0077006204457450884
