! Created with skrf (http://scikit-rf.org).
# Hz S RI R 50.0 
!freq ReS11 ImS11 ReS12 ImS12 ReS13 ImS13
! ReS14 ImS14
! ReS21 ImS21 ReS22 ImS22 ReS23 ImS23
! ReS24 ImS24
! ReS31 ImS31 ReS32 ImS32 ReS33 ImS33
! ReS34 ImS34
! ReS41 ImS41 ReS42 ImS42 ReS43 ImS43
! ReS44 ImS44
!
100000000.0 4.025863817153086e-05 -4.310082609135127e-05 1.9791458779847166e-06 0.0002137832049696228 0.9999587775319274 -0.0003688061790326346 -1.7659059512633493e-06 -4.283753123882765e-05
 1.979573225646065e-06 0.00021317061502309977 4.026647263255523e-05 7.442263011531197e-05 -1.7685125972418808e-06 -4.345094240172241e-05 0.9999595257798157 -0.0002702474133630517
 0.9999587775319299 -0.0003688061803432739 -1.765905953736996e-06 -4.283752996218499e-05 4.025863816858877e-05 -4.310082463619821e-05 1.9791458809174475e-06 0.00021378320337946393
 -1.7685125955143726e-06 -4.345094439821284e-05 0.9999595257798128 -0.00027024741107304994 1.9795732233726056e-06 0.00021317061701576373 4.0266472635330786e-05 7.442262799278656e-05
200000000.0 4.039474300876478e-05 -8.620194073474742e-05 2.8320891985538155e-06 0.00042756548888411145 0.9999574789155443 -0.0007376111662010375 -2.301719269835674e-06 -8.567449620148744e-05
 2.831523504654675e-06 0.0004263403169504987 4.0812988021721175e-05 0.00014884459748607236 -2.3062572638540366e-06 -8.690131884342347e-05 0.9999587041559626 -0.0005404939996363749
 0.9999574789155439 -0.0007376111660002084 -2.301719270207412e-06 -8.567449624349521e-05 4.039474300976398e-05 -8.62019409027001e-05 2.8320891992374655e-06 0.00042756548892758774
 -2.306257264198768e-06 -8.690131914291426e-05 0.999958704155962 -0.0005404939996352712 2.8315235050271423e-06 0.00042634031710920477 4.0812988023219976e-05 0.00014884459748618322
300000000.0 4.05174787177498e-05 -0.00012930334841367692 3.82299458798782e-06 0.0006413467432241389 0.9999559949875605 -0.0011064148254533615 -2.871605041452581e-06 -0.000128510863384381
 3.821063594897517e-06 0.000639508987238145 4.141815042446595e-05 0.0002232658546427775 -2.878447205128146e-06 -0.00013035109472444477 0.9999577565243888 -0.0008107396647725947
 0.9999559949875612 -0.0011064148256805773 -2.8716050419719704e-06 -0.00012851086332439383 4.0517478717472244e-05 -0.0001293033482586514 3.822994588061513e-06 0.0006413467432039368
 -2.8784472053462208e-06 -0.00013035109496095263 0.9999577565243882 -0.0008107396647393946 3.8210635951972815e-06 0.0006395089874993645 4.141815042496555e-05 0.00022326585424475577
400000000.0 4.062684480793388e-05 -0.000172405048445618 4.951860751226031e-06 0.0008551268554794771 0.9999543257494934 -0.0014752170215907043 -3.4755625020041394e-06 -0.0001713465989078854
 4.948192200602229e-06 0.0008526765173822279 4.208195891142186e-05 0.0002976863432974212 -3.4850816544143715e-06 -0.0001738002367282261 0.9999566828862706 -0.0010809843086992588
 0.9999543257494934 -0.0014752170215503017 -3.4755625016634462e-06 -0.00017134659910990175 4.0626844807156726e-05 -0.0001724050485083005 4.951860751151929e-06 0.0008551268556593386
 -3.485081655688892e-06 -0.0001738002367445144 0.9999566828862706 -0.001080984308992319 4.948192200983801e-06 0.0008526765173607288 4.208195891119981e-05 0.0002976863434760081
500000000.0 4.0722840781826086e-05 -0.00021550704200556437 6.218686278284164e-06 0.0010689057145833473 0.9999524712029945 -0.001844017619067662 -4.113590844634204e-06 -0.00021418167021923558
 6.212907913875961e-06 0.0010658427962503465 4.2804412486219245e-05 0.00037210601175651035 -4.126159805471263e-06 -0.0002172487116778117 0.9999554832428927 -0.0013512278355406972
 0.9999524712029951 -0.0018440176189170963 -4.113590845836993e-06 -0.00021418167014999146 4.072284078071586e-05 -0.00021550704216613688 6.218686279822183e-06 0.0010689057145055031
 -4.1261598061698476e-06 -0.0002172487114743618 0.9999554832428899 -0.0013512278353833887 6.212907914946435e-06 0.0010658427959838806 4.280441248877276e-05 0.00037210601157564895
600000000.0 4.378336532345761e-05 -0.0002586148008104773 7.396984679887727e-06 0.0012826790809372076 0.999947453446919 -0.002212811011703542 -4.559202251107908e-06 -0.00025701191610026934
 7.388536478807833e-06 0.001279003584716683 4.656111402240315e-05 0.0004465189993601592 -4.575006081367068e-06 -0.00026069235880179424 0.999951181990419 -0.001621464341513521
 0.9999474534469194 -0.002212811011714058 -4.5592022514306766e-06 -0.0002570119160391688 4.3783365323124546e-05 -0.00025861480079978163 7.396984680060602e-06 0.0012826790809054409
 -4.575006079988617e-06 -0.00026069235850488277 0.9999511819904191 -0.0016214643414058584 7.388536478659854e-06 0.0012790035845208843 4.6561114021681504e-05 0.00044651899929481283
700000000.0 4.683048497372555e-05 -0.00030172467808073887 8.713227493257504e-06 0.0014964495951356772 0.9999422504171689 -0.002581600711518338 -5.038869567455103e-06 -0.00029984005511922597
 8.701737202015259e-06 0.0014921615235358138 5.037642452154767e-05 0.0005209291229751199 -5.058281087227029e-06 -0.0003041338966501435 0.9999467547685772 -0.001891697599613793
 0.9999422504171698 -0.0025816007115979124 -5.038869567372047e-06 -0.00029984005512377057 4.6830484973059416e-05 -0.0003017246780153331 8.713227493304867e-06 0.0014964495950949724
 -5.05828108674087e-06 -0.0003041338968011151 0.9999467547685768 -0.0018916975994410384 8.701737202442375e-06 0.0014921615236675176 5.0376424521325625e-05 0.0005209291227917991
800000000.0 4.9864197027349455e-05 -0.0003448366743686814 1.01674110572632e-05 0.0017102171461062768 0.9999368621173533 -0.0029503865832428934 -5.552589619782071e-06 -0.00034266605495234036
 1.015250642467451e-05 0.0017053165025297978 5.425034046308008e-05 0.0005953363282609085 -5.575981650984683e-06 -0.00034757329188515255 0.9999422015810862 -0.0021619275126687847
 0.9999368621173517 -0.0029503865831735383 -5.5525896208645556e-06 -0.0003426660549242664 4.98641970280711e-05 -0.00034483667442806575 1.0167411058287634e-05 0.0017102171460785455
 -5.575981651338065e-06 -0.0003475732918142232 0.999942201581087 -0.0021619275125545675 1.0152506424478797e-05 0.0017053165024420818 5.4250340462747015e-05 0.0005953363282119534
900000000.0 5.2884498772332034e-05 -0.0003879507908753413 1.1759531595126026e-05 0.0019239816224565676 0.9999312885512133 -0.0033191684914860684 -6.1003591953720156e-06 -0.0003854898822432292
 1.1740840372700847e-05 0.0019184684096676659 5.81828582603694e-05 0.0006697405616024094 -6.128104556178031e-06 -0.0003910105114436254 0.9999375224317715 -0.0024321539830691862
 0.9999312885512145 -0.003319168491582557 -6.100359194217683e-06 -0.0003854898822736113 5.288449877122181e-05 -0.00038795079081399347 1.1759531594232975e-05 0.001923981622459433
 -6.128104556853999e-06 -0.0003910105113960079 0.9999375224317726 -0.0024321539830976452 1.1740840372342386e-05 0.0019184684096528032 5.818285825959224e-05 0.0006697405616364997
1000000000.0 5.589138747691402e-05 -0.0004310670278839868 1.3489585211674014e-05 0.0021377429126717543 0.9999255297226339 -0.003687946301092781 -6.682175032847538e-06 -0.00042831150396419797
 1.3466735155590791e-05 0.0021316171344250194 6.217397426377946e-05 0.0007441417686536915 -6.7146465457521905e-06 -0.0004344455218982888 0.9999327173245635 -0.0027023769133303365
 0.9999255297226342 -0.00368794630102031 -6.682175032645595e-06 -0.0004283115041029356 5.5891387476580956e-05 -0.00043106702798650985 1.3489585211816456e-05 0.0021377429128004418
 -6.714646545391361e-06 -0.00043444552176739317 0.9999327173245629 -0.0027023769136772726 1.3466735155844184e-05 0.002131617134290666 6.217397426366844e-05 0.0007441417689448072
1100000000.0 5.719996218567225e-05 -0.000474178897564148 1.519749844429449e-05 0.0023515062222744113 0.9999212705401331 -0.004056726365507598 -7.137967539979614e-06 -0.0004711362038223915
 1.516998457874826e-05 0.0023447678824157895 6.456010425565095e-05 0.000818546655544795 -7.175405264632957e-06 -0.0004778836070306933 0.9999294498460574 -0.0029726029658797316
 0.999921270540133 -0.004056726365465207 -7.137967540394435e-06 -0.00047113620380618724 5.7199962186005315e-05 -0.0004741788975791952 1.5197498444916804e-05 0.0023515062222862655
 -7.17540526395097e-06 -0.0004778836069651482 0.9999294498460574 -0.0029726029657685584 1.5169984578218791e-05 0.002344767882346368 6.456010425576197e-05 0.0008185466553891942
1200000000.0 5.8495147842507755e-05 -0.0005172917095453958 1.7043350075387206e-05 0.0025652670896938617 0.9999168260762734 -0.004425503240334288 -7.627814321391477e-06 -0.000513959598610928
 1.7010800165217324e-05 0.002557916192362385 6.700485463634331e-05 0.0008929496369840082 -7.670591068034807e-06 -0.0005213203831274973 0.999926056388942 -0.003242826512133202
 0.999916826076273 -0.004425503240340925 -7.627814320954064e-06 -0.0005139595986236249 5.8495147842951845e-05 -0.0005172917095939205 1.7043350074976612e-05 0.0025652670897136328
 -7.670591068444185e-06 -0.00052132038315719 0.9999260563889413 -0.0032428265121150425 1.7010800165624394e-05 0.002557916192376527 6.700485463673189e-05 0.000892949636969277
1300000000.0 5.977694311254389e-05 -0.0005604054649282011 1.902713716666168e-05 0.002779025403633414 0.9999121963342272 -0.004794276790108654 -8.151713450161988e-06 -0.0005567816553819866
 1.898917898374575e-05 0.0027710619532998896 6.950822308376958e-05 0.0009673506591748426 -8.200202029919117e-06 -0.0005647558171312754 0.9999225369560465 -0.003513047454884961
 0.999912196334228 -0.004794276790089685 -8.151713450605352e-06 -0.0005567816553670585 5.977694311204429e-05 -0.0005604054649645462 1.9027137167041484e-05 0.0027790254036354593
 -8.20020203010321e-06 -0.0005647558170978026 0.9999225369560449 -0.003513047454758216 1.8989178983849505e-05 0.0027710619532794424 6.950822308465776e-05 0.000967350659041376
1400000000.0 6.104534664758132e-05 -0.000603520164325552 2.11488566681136e-05 0.0029927810528185364 0.9999073813173054 -0.005163046879491059 -8.709662961491264e-06 -0.0005996023412002798
 2.1105117986517954e-05 0.0029842050540538822 7.207020721394786e-05 0.001041749667959977 -8.764236180963448e-06 -0.0006081898756668579 0.9999188915503018 -0.0037832656964439182
 0.9999073813173042 -0.0051630468795342815 -8.709662962107611e-06 -0.0005996023412309121 6.10453466484695e-05 -0.0006035201642795736 2.1148856668870405e-05 0.0029927810528403843
 -8.76423618115435e-06 -0.0006081898756782728 0.9999188915503019 -0.0037832656965054827 2.1105117986384913e-05 0.0029842050540707537 7.207020721411439e-05 0.0010417496680793256
1500000000.0 6.230035709203774e-05 -0.0006466358084438223 2.3408505413428398e-05 0.0032065339259105766 0.9999023810289502 -0.0055318133732880454 -9.301660846529932e-06 -0.0006424216229912374
 2.3358614012751832e-05 0.0031973453835593517 7.469080458027966e-05 0.0011161466097540365 -9.362691508909397e-06 -0.0006516225254665237 0.9999151201747458 -0.004053481139731061
 0.99990238102895 -0.005531813373309177 -9.301660846828487e-06 -0.0006424216230100642 6.230035709114956e-05 -0.0006466358084279643 2.3408505413878606e-05 0.003206533925920412
 -9.362691507986864e-06 -0.0006516225254795498 0.9999151201747445 -0.004053481139769631 2.3358614012099268e-05 0.003197345383556988 7.469080458072375e-05 0.0011161466098378232
1600000000.0 6.354197307245624e-05 -0.000689752398087218 2.5806080120392457e-05 0.003420283911602303 0.9998971954727439 -0.005900576136116665 -9.927705053963432e-06 -0.0006852394677974731
 2.5749663782838083e-05 0.003410482830729232 7.737001267432708e-05 0.0011905414304103812 -9.995565959539344e-06 -0.0006950537332908037 0.9999112228325167 -0.00432369368709418
 0.9998971954727447 -0.005900576136102088 -9.927705053391963e-06 -0.0006852394677426949 6.354197307217868e-05 -0.0006897523980973206 2.580608011986003e-05 0.0034202839115538963
 -9.995565959083425e-06 -0.0006950537333206064 0.9999112228325163 -0.004323693687030759 2.5749663783027544e-05 0.0034104828307606632 7.737001267477117e-05 0.0011905414303495221
1700000000.0 6.477019320777488e-05 -0.0007328699341044543 2.834157739059879e-05 0.003634030898453481 0.9998918246524052 -0.0062693350325780176 -1.0587793489973191e-05 -0.0007280558424934852
 2.8278263907664123e-05 0.0036236172846228244 8.01078289232593e-05 0.00126493407558592 -1.0662857437389625e-05 -0.0007384834659792954 0.9999071995268602 -0.004593903240889642
 0.9998918246524044 -0.00626933503264482 -1.0587793489969581e-05 -0.0007280558425339924 6.477019320827448e-05 -0.000732869934031103 2.8341577390782245e-05 0.0036340308985068617
 -1.0662857438497476e-05 -0.0007384834660911284 0.99990719952686 -0.004593903240914783 2.8278263908210395e-05 0.0036236172847428343 8.010782892414747e-05 0.001264934075644391
1800000000.0 6.598501610494134e-05 -0.0007759884170609028 3.101499371378263e-05 0.0038477747752409044 0.9998862685717858 -0.0066380899274789615 -1.1281924020907348e-05 -0.0007708707141716591
 3.09444108803574e-05 0.003836748634207145 8.290425069601426e-05 0.0013393244916408698 -1.1364563804478759e-05 -0.000781911690151735 0.9999030502611226 -0.004864109703959465
 0.9998862685717869 -0.006638089927502504 -1.128192402110213e-05 -0.0007708707142158415 6.598501610483032e-05 -0.0007759884170481868 3.101499371365801e-05 0.003847774775299433
 -1.136456380416696e-05 -0.0007819116901918983 0.9999030502611228 -0.004864109704034942 3.094441088041375e-05 0.003836748634231386 8.290425069612528e-05 0.001339324491758255
1900000000.0 6.718644035758059e-05 -0.0008191078477880762 3.382632546225491e-05 0.004061515430719045 0.9998805272348774 -0.007006840685472252 -1.2010094470949796e-05 -0.0008136840498550813
 3.3748101078821524e-05 0.004049876768367723 8.575927529547167e-05 0.001413712624584094 -1.2100682879630412e-05 -0.0008253383726215826 0.9998987750387556 -0.005134312978790468
 0.9998805272348772 -0.0070068406854327785 -1.2010094471063461e-05 -0.0008136840498965338 6.71864403571365e-05 -0.0008191078478163866 3.3826325462532715e-05 0.00406151543074653
 -1.2100682879221299e-05 -0.0008253383725469926 0.9998987750387545 -0.005134312978948558 3.3748101078634784e-05 0.004049876768287484 8.57592752966374e-05 0.0014137126247029523
2000000000.0 6.83744645467721e-05 -0.0008622282271437627 3.677556889362132e-05 0.004275252753453243 0.9998746006458045 -0.007375587171241843 -1.277230261993079e-05 -0.0008564958164499833
 3.6689330766162975e-05 0.004263001575933628 8.867289996533634e-05 0.0014880984203228258 -1.2871212440147883e-05 -0.0008687634801869762 0.9998943738633119 -0.005404512967892912
 0.9998746006458037 -0.007375587171275589 -1.2772302619534882e-05 -0.0008564958164936486 6.837446454721618e-05 -0.0008622282271212613 3.677556889347303e-05 0.004275252753470887
 -1.287121244061482e-05 -0.0008687634801777647 0.9998943738633135 -0.005404512967887045 3.668933076576208e-05 0.0042630015759430595 8.867289996478123e-05 0.0014880984203232462
2100000000.0 6.954908724476905e-05 -0.0009053495556786276 3.986272015049488e-05 0.004488986632198453 0.9998684888088287 -0.007744329249531093 -1.3568546207391704e-05 -0.0008993059810539569
 3.9768096091522586e-05 0.00447612294611784 9.164512188403195e-05 0.0015624818248721412 -1.3676150221872562e-05 -0.0009121869795280771 0.9998898467384536 -0.005674709573854367
 0.9998684888088291 -0.007744329249481814 -1.3568546207122706e-05 -0.000899305981048125 6.954908724449149e-05 -0.0009053495557339394 3.986272015027911e-05 0.004488986632188193
 -1.367615022216479e-05 -0.0009121869794579573 0.9998898467384538 -0.005674709573800283 3.976809609165636e-05 0.004476122946041435 9.164512188364338e-05 0.0015624818248431362
2200000000.0 7.071030700989134e-05 -0.0009484718342705893 4.308777526026e-05 0.004702716955625094 0.9998621917283493 -0.008113066785012713 -1.439882293117642e-05 -0.0009421145105901042
 4.298439308954345e-05 0.004689240767698794 9.46759381701967e-05 0.0016368627842989498 -1.4515493917441729e-05 -0.0009556088374518689 0.9998851936679397 -0.00594490269917707
 0.9998621917283493 -0.008113066784983393 -1.439882293120446e-05 -0.0009421145106120722 7.07103070092252e-05 -0.0009484718343152833 4.308777526042697e-05 0.004702716955643999
 -1.4515493918216604e-05 -0.0009556088373800456 0.9998851936679398 -0.005944902699224918 4.298439308963595e-05 0.004689240767625301 9.467593817058528e-05 0.0016368627843238938
2300000000.0 7.185812238885703e-05 -0.000991595063661995 4.645073013531117e-05 0.0049164436124634016 0.9998557094088998 -0.008481799642492462 -1.5263130446318616e-05 -0.0009849213721088348
 4.6338217678885993e-05 0.004902354929645271 9.776534587963015e-05 0.0017112412446047619 -1.538924117866379e-05 -0.0009990290207522613 0.9998804146556374 -0.006215092246527879
 0.9998557094089009 -0.00848179964249849 -1.5263130446602023e-05 -0.0009849213721319504 7.185812238769129e-05 -0.0009915950636243571 4.645073013586433e-05 0.004916443612467333
 -1.538924117896987e-05 -0.0009990290207987683 0.9998804146556374 -0.006215092246562082 4.6338217679334846e-05 0.004902354929703424 9.77653458798522e-05 0.0017112412446314742
2400000000.0 7.299253191539457e-05 -0.0010347192445082781 4.995158057467732e-05 0.005130166491453918 0.9998490418551519 -0.008850527686523533 -1.6161466367440993e-05 -0.0010277265326872264
 4.9829565663865886e-05 0.005115465321177726 0.00010091334200607038 0.0017856171518764842 -1.629738961273584e-05 -0.0010424474961566598 0.999875509705515 -0.00648527811855854
 0.9998490418551517 -0.008850527686529835 -1.6161466366992086e-05 -0.0010277265326719852 7.299253191522803e-05 -0.001034719244481416 4.99515805741332e-05 0.005130166491430931
 -1.629738961292954e-05 -0.0010424474961799335 0.9998755097055152 -0.0064852781184893266 4.982956566418383e-05 0.005115465321199384 0.00010091334200584834 0.001785617151809368
2500000000.0 7.411353411529431e-05 -0.0010778443775210245 5.359032225812702e-05 0.005343885481216833 0.9998421890719108 -0.009219250782010573 -1.709382826445093e-05 -0.0010705299592393331
 5.34584327351498e-05 0.005328571831106928 0.00010411992348036136 0.0018599904520528211 -1.7239936786991138e-05 -0.0010858642304633704 0.9998704788216466 -0.006755460217752304
 0.9998421890719102 -0.009219250782008925 -1.7093828264713685e-05 -0.0010705299592342402 7.411353411507227e-05 -0.0010778443775299029 5.3590322258436984e-05 0.005343885481216773
 -1.723993678747097e-05 -0.0010858642304773908 0.9998704788216464 -0.006755460217695396 5.345843273502265e-05 0.005328571831143593 0.00010411992348019483 0.0018599904520174779
2600000000.0 7.522112749824839e-05 -0.0011209704635739895 5.73669507545078e-05 0.005557600470568389 0.9998351510641195 -0.009587968793593164 -1.8060213668377957e-05 -0.0011133316188317918
 5.722481446523197e-05 0.00554167434845629 0.00010738508717128559 0.0019343610911709075 -1.821688022521968e-05 -0.0011292791904577004 0.9998653220082077 -0.007025638446584796
 0.9998351510641187 -0.009587968793605009 -1.8060213668583938e-05 -0.0011133316188736066 7.522112749841492e-05 -0.0011209704635590486 5.736695075490714e-05 0.005557600470609946
 -1.821688022619742e-05 -0.001129279190462347 0.9998653220082077 -0.0070256384466803375 5.722481446625353e-05 0.0055416743484599865 0.00010738508717161865 0.0019343610912474361
2700000000.0 7.631531056517815e-05 -0.0011640975032463806 6.128146151664277e-05 0.005771311348253677 0.9998279278368556 -0.009956681586037925 -1.906062006688285e-05 -0.0011561314785519079
 6.112870631677284e-05 0.005754772762240099 0.00011070882988822861 0.0020087290155529785 -1.9228217411814198e-05 -0.0011726923428883955 0.9998600392694785 -0.007295812708006323
 0.9998279278368563 -0.00995668158604572 -1.906062006695344e-05 -0.001156131478528145 7.631531056506713e-05 -0.001164097503232275 6.128146151652584e-05 0.005771311348229227
 -1.922821741132071e-05 -0.001172692342867189 0.9998600392694791 -0.007295812707975821 6.112870631673495e-05 0.0057547727622243765 0.00011070882988728492 0.0020087290155029977
2800000000.0 7.739608180401536e-05 -0.0012072254973422192 6.533384987981772e-05 0.0059850180029240255 0.9998205193953349 -0.010325389024116014 -2.009504490478487e-05 -0.0011989295053137386
