! Created with skrf (http://scikit-rf.org).
# Hz S RI R 50.0 
!freq ReS11 ImS11 ReS12 ImS12 ReS13 ImS13
! ReS14 ImS14
! ReS21 ImS21 ReS22 ImS22 ReS23 ImS23
! ReS24 ImS24
! ReS31 ImS31 ReS32 ImS32 ReS33 ImS33
! ReS34 ImS34
! ReS41 ImS41 ReS42 ImS42 ReS43 ImS43
! ReS44 ImS44
!
100000000.0 0.037513753530746874 0.0309215576505502 0.0016154498355010094 0.015296100474039984 0.9620193261575831 -0.05885255121011678 -0.0015204164976059518 -0.010507071295182278
 0.0015934791853514092 0.01416098918382144 0.03812512972609777 0.048923565364074294 -0.0015461637281964284 -0.01164400166525315 0.9618329988244769 -0.056680122440751546
 0.9620193261575826 -0.058852551210112625 -0.001520416497605669 -0.010507071295174603 0.037513753530746985 0.03092155765053944 0.001615449835500797 0.015296100474033812
 -0.0015461637281958763 -0.011644001665251057 0.9618329988244776 -0.05668012244075578 0.0015934791853507739 0.014160989183819132 0.038125129726097495 0.04892356536406368
200000000.0 0.04408562876009231 0.061075243121316035 0.005679281515610606 0.029956815621303055 0.9541771737516022 -0.11693433297288969 -0.0053160169539998615 -0.020382055662458525
 0.005597836706888464 0.027691057575344805 0.047551550241717755 0.09667455734200744 -0.005412246985581855 -0.022660079313085064 0.9522915536367068 -0.11218924894166167
 0.9541771737516024 -0.11693433297288688 -0.005316016953999761 -0.020382055662457432 0.044085628760092144 0.061075243121314265 0.005679281515610493 0.029956815621302098
 -0.0054122469855818305 -0.022660079313084554 0.9522915536367066 -0.11218924894166168 0.00559783670688851 0.02769105757534416 0.047551550241717866 0.09667455734199923
300000000.0 0.05450006572374749 0.08982538154137723 0.012117565432013637 0.04344246667309044 0.941685704663034 -0.17361036676625274 -0.011312393720048278 -0.029087958081194194
 0.011942023801033978 0.040054114661249 0.0625455676493768 0.14225801107310113 -0.01152711057479857 -0.03251491144128593 0.9371092159901582 -0.1655341047184108
 0.9416857046630338 -0.17361036676625555 -0.011312393720048582 -0.029087958081194073 0.054500065723747715 0.08982538154137928 0.012117565432013921 0.0434424666730908
 -0.011527110574799179 -0.03251491144128696 0.9371092159901566 -0.1655341047184133 0.011942023801034537 0.040054114661250154 0.06254556764937874 0.14225801107310548
400000000.0 0.06840316864457002 0.11661821171721488 0.02055792746098581 0.05531328555569513 0.924893334301645 -0.22832730771582968 -0.01913639975588907 -0.03618776323067303
 0.02025744533589543 0.05081269349123034 0.08249982079090551 0.18483092388734987 -0.019522014385965063 -0.040773838320828315 0.9168931273565983 -0.21587337511714624
 0.9248933343016454 -0.22832730771582843 -0.01913639975588906 -0.03618776323067317 0.06840316864456936 0.1166182117172137 0.020557927460985795 0.055313285555695486
 -0.019522014385965118 -0.040773838320828135 0.9168931273565983 -0.2158733751171471 0.020257445335895217 0.05081269349123013 0.08249982079090518 0.1848309238873516
500000000.0 0.08535432229753287 0.14100555333873932 0.030546394398291835 0.06525682613021275 0.9042331022993166 -0.2806369932180891 -0.02833299510564512 -0.041371877471440596
 0.03009452618832901 0.059655032953361144 0.10666470908065206 0.22374547988575821 -0.028947186614295642 -0.04712796191647732 0.8923925913865118 -0.26256092986202884
 0.9042331022993157 -0.2806369932180899 -0.028332995105645187 -0.04137187747144164 0.08535432229753342 0.14100555333874037 0.030546394398291876 0.06525682613021366
 -0.028947186614295867 -0.04712796191647663 0.8923925913865108 -0.2625609298620344 0.030094526188329085 0.05965503295336032 0.10666470908065268 0.2237454798857646
600000000.0 0.10515124673477844 0.16248631260754576 0.04152808718732777 0.07308022790411728 0.8798957089975803 -0.33003748182802334 -0.038345490061491884 -0.044450506423723654
 0.040902898464273134 0.0663869184947917 0.13449905276681 0.25836669502036097 -0.03925175868813252 -0.051386049599913136 0.8641482235293731 -0.30496345117290957
 0.8798957089975799 -0.33003748182802317 -0.03834549006149171 -0.044450506423724015 0.10515124673477882 0.16248631260754523 0.04152808718732754 0.0730802279041177
 -0.0392517586881322 -0.051386049599912574 0.8641482235293735 -0.3049634511729095 0.04090289846427275 0.06638691849479103 0.1344990527668088 0.25836669502036164
700000000.0 0.12695015858737474 0.18097698893329583 0.05306957646190401 0.07876516531295494 0.8527136462727465 -0.3764440555148678 -0.048738934416077254 -0.04540848684319432
 0.05225279827854889 0.07098754104401514 0.16482646771971027 0.2886333912127129 -0.05000575341552571 -0.053530328979400826 0.8333360100167966 -0.3430214379493093
 0.8527136462727469 -0.3764440555148678 -0.04873893441607689 -0.045408486843194054 0.12695015858737485 0.18097698893329617 0.05306957646190358 0.0787651653129548
 -0.05000575341552641 -0.05353032897939994 0.8333360100167952 -0.34302143794931217 0.052252798278549735 0.07098754104401435 0.16482646771971166 0.28863339121271664
800000000.0 0.15024747387936027 0.19637567421820193 0.06473003536072315 0.08238525066087037 0.8231762028210877 -0.41975265430817865 -0.059070492314492934 -0.04432282566213819
 0.06370609263643719 0.07352670807533103 0.19685236423500552 0.31451592788524174 -0.0607706748436189 -0.053633773442852 0.8007499814777921 -0.3767069163717706
 0.8231762028210883 -0.41975265430817876 -0.0590704923144931 -0.044322825662138576 0.1502474738793601 0.19637567421820173 0.0647300353607233 0.08238525066087045
 -0.060770674843618755 -0.0536337734428521 0.8007499814777934 -0.3767069163717718 0.06370609263643695 0.07352670807533129 0.1968523642350048 0.3145159278852427
900000000.0 0.17457185258870828 0.2086685172114313 0.07613284533649126 0.08409990282815047 0.7917382306954015 -0.4599462925573823 -0.06896125313554642 -0.0413565802757125
 0.07488755641038009 0.07415926039229828 0.22986329973796926 0.3361314308030301 -0.07117090779321389 -0.05185452474861843 0.7671029452112025 -0.4061386733675789
 0.7917382306954022 -0.459946292557382 -0.06896125313554653 -0.04135658027571264 0.17457185258870783 0.20866851721143104 0.0761328453364914 0.08409990282815061
 -0.07117090779321324 -0.05185452474861864 0.7671029452112019 -0.40613867336757975 0.07488755641037964 0.07415926039229831 0.22986329973796976 0.3361314308030299
1000000000.0 0.19949662844995064 0.21791096752819222 0.08697694544220119 0.0841268914216053 0.7588076804227615 -0.4970761401800684 -0.07810758529862705 -0.036731440812104964
 0.08549612690389793 0.07309804501252573 0.2632471859135266 0.3537049954041999 -0.0809049819930037 -0.04840888571036415 0.7330062785214608 -0.43154345962457313
 0.7588076804227617 -0.4970761401800681 -0.07810758529862702 -0.03673144081210494 0.1994966284499507 0.21791096752819164 0.08697694544220103 0.08412689142160534
 -0.08090498199300378 -0.04840888571036382 0.7330062785214604 -0.4315434596245744 0.08549612690389806 0.07309804501252554 0.2632471859135269 0.3537049954042005
1100000000.0 0.22466065396547297 0.22419575977962078 0.0970249595009875 0.08273040188202024 0.7247242444668334 -0.5312291637534854 -0.08626907012964859 -0.030715893089001918
 0.09529304013972843 0.07060229903195472 0.29651420945779156 0.3675161257270179 -0.08973356862008758 -0.0435597641889544 0.6989489403743844 -0.4532024149945047
 0.7247242444668329 -0.531229163753485 -0.08626907012964799 -0.0307158930890021 0.2246606539654733 0.22419575977962042 0.09702495950098697 0.0827304018820204
 -0.08973356862008819 -0.04355976418895426 0.6989489403743843 -0.4532024149945042 0.09529304013972911 0.07060229903195445 0.29651420945779144 0.3675161257270189
1200000000.0 0.24972148261425076 0.2276767816746345 0.10614323817832444 0.08015970146167664 0.6898073830244194 -0.562552197837708 -0.09330907464752945 -0.023563790270428257
 0.10414207121730756 0.0669168137173643 0.3292487895130821 0.3779166326232707 -0.09752013080489294 -0.03755576316844583 0.6653456936289266 -0.4714689982166915
 0.6898073830244192 -0.562552197837707 -0.0933090746475295 -0.02356379027042802 0.2497214826142512 0.22767678167463323 0.10614323817832438 0.08015970146167649
 -0.09752013080489288 -0.037555763168445264 0.6653456936289277 -0.47146899821669075 0.10414207121730745 0.06691681371736379 0.329248789513081 0.3779166326232699
1300000000.0 0.27440265593743973 0.22851773714995777 0.11424611576200905 0.07667089922691134 0.6543079053471728 -0.5912000710625496 -0.09913855992269377 -0.015536271310943879
 0.11195393131655966 0.062293769395537185 0.36114863508152817 0.3852569985285136 -0.10417498900408091 -0.030653115252817466 0.6324978920954265 -0.48669532553129047
 0.654307905347173 -0.5912000710625495 -0.09913855992269358 -0.01553627131094386 0.2744026559374397 0.22851773714995777 0.11424611576200877 0.07667089922691131
 -0.10417498900408156 -0.030653115252817147 0.6324978920954276 -0.48669532553129136 0.11195393131656016 0.062293769395537185 0.3611486350815273 0.38525699852851425
1400000000.0 0.29847179886817216 0.22689404326463686 0.12130156582525992 0.07250325983439947 0.6184301564130075 -0.6173373595936982 -0.10372188278672191 -0.006878092730511508
 0.11869214700384487 0.05696924255349537 0.39199475702881786 0.3898835993307133 -0.10966132004745523 -0.023092190585930476 0.6006235154657762 -0.4992293997123738
 0.6184301564130074 -0.6173373595936984 -0.10372188278672184 -0.006878092730511182 0.2984717988681724 0.22689404326463697 0.12130156582525989 0.07250325983439916
 -0.10966132004745545 -0.02309219058593076 0.6006235154657777 -0.4992293997123719 0.11869214700384506 0.05696924255349571 0.39199475702881637 0.3898835993307114
1500000000.0 0.32173517776635624 0.22298546669996439 0.12732002927614752 0.06787199355319476 0.5823374242455777 -0.6411307662231615 -0.10706563890511489 0.002189528604194224
 0.12436209417040059 0.05115607648644018 0.4216376246312674 0.3921262764382119 -0.11398421206745726 -0.015090390603302948 0.5698710141740091 -0.5094026822142089
 0.5823374242455782 -0.6411307662231616 -0.10706563890511514 0.002189528604194162 0.32173517776635585 0.22298546669996466 0.12732002927614774 0.06787199355319481
 -0.11398421206745693 -0.015090390603302598 0.5698710141740085 -0.5094026822142095 0.12436209417040028 0.05115607648643991 0.42163762463126836 0.3921262764382124
1600000000.0 0.3440321409345043 0.2169710636824309 0.1323438819922832 0.06296455454925602 0.5461574703693165 -0.6627437763273492 -0.10920814909600268 0.011472560631778688
 0.12900065218665652 0.04504020632139569 0.4499837358078737 0.39229077586846706 -0.11718034290030496 -0.006838496748807904 0.5403327408641059 -0.5175225325249673
 0.5461574703693164 -0.6627437763273492 -0.10920814909600285 0.01147256063177848 0.34403214093450424 0.21697106368243102 0.13234388199228336 0.06296455454925606
 -0.11718034290030499 -0.0068384967488077115 0.5403327408641059 -0.5175225325249675 0.12900065218665652 0.0450402063213955 0.44998373580787393 0.39229077586846695
1700000000.0 0.36522988818866164 0.20902591915308139 0.13643813940358474 0.057939558917628184 0.5099877396539964 -0.6823330835894872 -0.11021018699529961 0.02080517742870755
 0.1326670673684362 0.03877956544209886 0.4769834790286056 0.39065488831186174 -0.11930887148519777 0.0015003989221293568 0.5120570905159595 -0.523868348739573
 0.5099877396539962 -0.682333083589487 -0.11021018699529975 0.020805177428707203 0.36522988818866176 0.20902591915308122 0.13643813940358474 0.05793955891762855
 -0.11930887148519803 0.0015003989221299711 0.512057090515959 -0.5238683487395739 0.13266706736843642 0.03877956544209853 0.4769834790286065 0.39065488831186235
1800000000.0 0.38521879572097856 0.19931922196102553 0.13968265204162608 0.052927519595230385 0.4739000267209901 -0.7000463191930049 -0.11014720294281434 0.030048959351820503
 0.1354352770081581 0.03250478435232749 0.5026206918789362 0.38746722927966165 -0.1204437939968222 0.00979017037262877 0.4850589442940405 -0.5286903485312135
 0.4739000267209904 -0.7000463191930048 -0.11014720294281426 0.030048959351820413 0.38521879572097817 0.19931922196102583 0.13968265204162594 0.05292751959523041
 -0.12044379399682213 0.009790170372629105 0.4850589442940404 -0.528690348531214 0.135435277008158 0.03250478435232719 0.5026206918789362 0.38746722927966215
1900000000.0 0.4039083752693458 0.18801329145864631 0.1421658169580495 0.048032736928107035 0.4379445239901886 -0.7160206966750632 -0.109103069981665 0.03909093302364171
 0.13738771977974062 0.026321032168965974 0.52690400523506 0.3829477823260369 -0.12066779105651988 0.017919791478922902 0.4593283282102616 -0.5322101135973154
 0.43794452399018863 -0.7160206966750631 -0.10910306998166494 0.03909093302364166 0.40390837526934575 0.1880132914586465 0.14216581695804958 0.048032736928107014
 -0.1206677910565198 0.01791979147892255 0.45932832821026104 -0.532210113597315 0.13738771977974068 0.02632103216896617 0.5269040052350604 0.38294778232603677
2000000000.0 0.42122385847700916 0.17526325782541152 0.1439796938221404 0.043335836824857976 0.4021532653847021 -0.7303822715047625 -0.10716524192156096 0.04784095909873883
 0.13861052441398056 0.020310501450354557 0.5498598734515813 0.37728952903306834 -0.1200674585122353 0.025800826786867008 0.4348373862454868 -0.5346222213730086
 0.402153265384702 -0.7303822715047623 -0.10716524192156121 0.04784095909873891 0.42122385847700927 0.17526325782541152 0.14397969382214057 0.04333583682485788
 -0.12006745851223512 0.02580082678686734 0.43483738624548596 -0.5346222213730094 0.13861052441398047 0.020310501450354308 0.5498598734515825 0.377289529033069
2100000000.0 0.4371033517217686 0.1612171778760645 0.1452163462103204 0.03889658860411367 0.36654302625560686 -0.7432455938698144 -0.10442114528736565 0.05622883566053457
 0.13918990133415154 0.014535174825440166 0.5715270948513873 0.37066067308544404 -0.11872974712788154 0.03336464106629532 0.4115458636847329 -0.5360964714641135
 0.366543026255607 -0.7432455938698145 -0.10442114528736565 0.05622883566053461 0.4371033517217688 0.16121717787606446 0.14521634621032042 0.03889658860411364
 -0.11872974712788145 0.03336464106629531 0.4115458636847328 -0.5360964714641131 0.13918990133415143 0.014535174825440266 0.5715270948513875 0.3706606730854439
2200000000.0 0.4514954888942309 0.14601643335582914 0.14596520536622387 0.03475675121420274 0.3311177589836496 -0.7547135984842894 -0.10095560392647229 0.06420136864533738
 0.13920953907066624 0.009039626438709923 0.591952591726918 0.36320711783084975 -0.116739413708424 0.040559575169343304 0.38940533149777284 -0.5367803663458086
 0.33111775898364953 -0.7547135984842896 -0.10095560392647224 0.06420136864533738 0.4514954888942312 0.1460164333558292 0.14596520536622393 0.03475675121420276
 -0.11673941370842386 0.04055957516934312 0.38940533149777257 -0.5367803663458086 0.1392095390706661 0.00903962643870998 0.5919525917269179 0.36320711783085013
2300000000.0 0.46435750829358546 0.12979630859748353 0.14631125775276738 0.03094278724871832 0.29587064628945026 -0.7648776253101903 -0.09684909929517321 0.07171957010040848
 0.1387488112393293 0.0038537003812191073 0.6111882206101829 0.3550549743606389 -0.11417729020568818 0.0473482466880921 0.36836238104171404 -0.5368016235403377
 0.29587064628945026 -0.7648776253101904 -0.09684909929517324 0.0717195701004087 0.4643575082935854 0.12979630859748365 0.14631125775276732 0.03094278724871817
 -0.11417729020568823 0.04734824668809212 0.3683623810417145 -0.5368016235403378 0.13874881123932933 0.0038537003812192765 0.6111882206101826 0.3550549743606387
2400000000.0 0.4756536871367087 0.11268668047444269 0.14633387638804252 0.027468351271982872 0.26078584840408137 -0.7738175015224449 -0.09217668833477857 0.07875607819521635
 0.1378816182278812 -0.0010050258266823542 0.62928840455537 0.346312963487284 -0.11111919575583193 0.053705068185230284 0.34836099736435966 -0.5362705828618857
 0.2607858484040814 -0.7738175015224449 -0.09217668833477875 0.07875607819521649 0.4756536871367084 0.11268668047444266 0.14633387638804268 0.027468351271982768
 -0.11111919575583196 0.053705068185230326 0.3483609973643601 -0.5362705828618861 0.13788161822788117 -0.0010050258266823444 0.6292884045553697 0.3463129634872841
2500000000.0 0.4853540781490098 0.09481277843338026 0.14610614093679958 0.02433650638020917 0.22584001092311407 -0.7816016404974915 -0.08700742606167292 0.08529284575349627
 0.13667571231091974 -0.005529038089585378 0.6463084084414618 0.3370746355681674 -0.10763534120842883 0.059614029432760465 0.32934429010681054 -0.5352824329271977
 0.22584001092311412 -0.7816016404974917 -0.08700742606167296 0.08529284575349608 0.48535407814900977 0.09481277843338018 0.14610614093679974 0.02433650638020936
 -0.10763534120842874 0.05961402943276023 0.3293442901068102 -0.5352824329271975 0.13667571231091963 -0.005529038089585209 0.6463084084414619 0.33707463556816764
2600000000.0 0.493433504421936 0.07629598872385442 0.145694517755122 0.02154165497038646 0.19100359029725905 -0.7882871308314621 -0.08140416646306378 0.09131911235786166
 0.13519238072709827 -0.009718956881561897 0.662303109165504 0.3274203728198912 -0.10379010153580005 0.06506675890359674 0.31125573011660573 -0.5339192218671314
 0.19100359029725902 -0.7882871308314618 -0.08140416646306373 0.09131911235786166 0.493433504421936 0.07629598872385453 0.14569451775512193 0.021541654970386452
 -0.10379010153580014 0.06506675890359681 0.31125573011660557 -0.5339192218671316 0.13519238072709838 -0.009718956881562076 0.662303109165504 0.3274203728198916
2700000000.0 0.49987077968253174 0.05725468710253638 0.1451587957516463 0.019071190291262488 0.15624204499968167 -0.7939197998179565 -0.07542364019797666 0.0968296548908878
 0.13348638554849956 -0.013581876457539454 0.6773261414517971 0.31741916485511484 -0.09964205579476318 0.07006085987181064 0.29404001099502575 -0.5322516433088053
 0.15624204499968175 -0.793919799817957 -0.07542364019797668 0.0968296548908878 0.4998707796825319 0.057254687102536415 0.1451587957516464 0.01907119029126254
 -0.09964205579476325 0.07006085987181063 0.29404001099502564 -0.5322516433088051 0.1334863855484996 -0.013581876457539445 0.6773261414517971 0.3174191648551148
2800000000.0 0.5046481306907546 0.037805090116841196 0.14455219569501562 0.016906887759715904 0.12151693307321769 -0.7985342433763355 -0.06911672959995692 0.10182329948222608
 0.1316060806356028 -0.017129953800127006 0.6914293251978845 0.3071301639496137 -0.09524421572561766 0.07459850470388853 0.2776436295620639 -0.5303406045245496
 0.12151693307321776 -0.7985342433763356 -0.069116729599957 0.10182329948222622 0.5046481306907543 0.03780509011684123 0.14455219569501565 0.016906887759715827
 -0.09524421572561767 0.07459850470388835 0.27764362956206445 -0.53034060452455 0.13160608063560286 -0.017129953800126912 0.6914293251978842 0.30713016394961357
2900000000.0 0.5077508065146518 0.01806211791355427 0.14392158901926222 0.015026061781533361 0.08678695111218722 -0.8021538195814393 -0.06252888010233375 0.10630167170735802
 0.12959364416570873 -0.020379222442361313 0.7046623013274688 0.2966040353028614 -0.09064438216431656 0.07868526477975442 0.2620152581145335 -0.5282385924538278
 0.0867869511121872 -0.802153819581439 -0.06252888010233382 0.10630167170735784 0.5077508065146521 0.018062117913554235 0.14392158901926236 0.015026061781533416
 -0.09064438216431656 0.0786852647797545 0.26201525811453313 -0.5282385924538276 0.12959364416570882 -0.02037922244236143 0.7046623013274691 0.2966040353028615
3000000000.0 0.5091668660269207 -0.001859737702417907 0.14330777731872982 0.013402516821943265 0.05200894561855006 -0.8047906067641348 -0.05570060249790876 0.11026815964425644
 0.12748538020800138 -0.023348603496752267 0.7170723201693912 0.2858841217043131 -0.08588558325581631 0.08232915110839731 0.24710596422744965 -0.5259908575095115
 0.05200894561855007 -0.8047906067641346 -0.05570060249790878 0.1102681596442564 0.5091668660269204 -0.0018597377024179226 0.14330777731872985 0.01340251682194328
