! Created with skrf (http://scikit-rf.org).
# Hz S RI R 50.0 
!freq ReS11 ImS11 ReS12 ImS12 ReS13 ImS13
! ReS14 ImS14
! ReS21 ImS21 ReS22 ImS22 ReS23 ImS23
! ReS24 ImS24
! ReS31 ImS31 ReS32 ImS32 ReS33 ImS33
! ReS34 ImS34
! ReS41 ImS41 ReS42 ImS42 ReS43 ImS43
! ReS44 ImS44
!
100000000.0 0.0001035023236766186 -0.00012104624544430473 4.756030372370797e-06 0.0002991930797784888 0.9998942892990408 -0.0005387508141348858 -3.856813286814455e-06 -3.221027588888921e-05
 4.757279527099084e-06 0.00029895334127908726 0.00010299189129764352 6.982871271500211e-05 -3.863661798220277e-06 -3.2450511925479075e-05 0.9998961058385586 -0.00037705940216674425
 0.9998942892990402 -0.0005387508143330775 -3.8568132861050806e-06 -3.2210276364130634e-05 0.00010350232367667411 -0.00012104624552522849 4.756030372257923e-06 0.00029919308010362394
 -3.863661797944523e-06 -3.245051181214862e-05 0.9998961058385605 -0.0003770594025779574 4.757279527034872e-06 0.00029895334109454 0.0001029918912965333 6.98287134517524e-05
775757575.7575758 0.00010183424410104003 -0.0009390098564984206 1.8295010909241843e-05 0.0023209393154841372 0.9998677586316509 -0.004179294917998047 -4.552126315697982e-06 -0.00024986280759803044
 1.8274016139539485e-05 0.0023190796198261565 0.00011042977530117959 0.0005416722833616223 -4.586734240383614e-06 -0.0002517263392004126 0.9998782317437509 -0.0029250006374787886
 0.9998677586316522 -0.004179294917971988 -4.55212631523848e-06 -0.0002498628075481848 0.00010183424410009634 -0.0009390098564896962 1.8295010908304533e-05 0.002320939315436493
 -4.58673423929628e-06 -0.0002517263391526459 0.999878231743752 -0.002925000637483167 1.8274016138685706e-05 0.0023190796197565568 0.00011042977530029141 0.0005416722833021324
1451515151.5151515 9.604665073126295e-05 -0.001756918154954595 4.347291475817104e-05 0.004342489487815136 0.9998222211728662 -0.007819560877185522 -5.0978840925466025e-06 -0.0004674976672712798
 4.3418328356330444e-05 0.004339010068522345 0.00012211625422214878 0.0010134457268660268 -5.170095036558396e-06 -0.0004709842455004255 0.9998485502323329 -0.00547276958523081
 0.9998222211728665 -0.007819560877157444 -5.097884092351737e-06 -0.0004674976672558788 9.604665073087437e-05 -0.0017569181549799457 4.347291475793316e-05 0.004342489487798059
 -5.170095036477277e-06 -0.00047098424544422704 0.9998485502323333 -0.005472769585230131 4.341832835602654e-05 0.0043390100684526905 0.00012211625422187122 0.001013445726823064
2127272727.2727273 8.56610248078371e-05 -0.002574730327621232 8.068849389844171e-05 0.006363748745255992 0.9997581596459715 -0.0114594179923143 -5.89519914551259e-06 -0.0006851162821047588
 8.058935453144199e-05 0.006358649921828373 0.00013756683255089497 0.0014851240444608805 -6.01523786280032e-06 -0.0006902255828826063 0.999807547084149 -0.00802028858587346
 0.9997581596459713 -0.011459417992315393 -5.895199145879555e-06 -0.0006851162821006803 8.56610248082812e-05 -0.0025747303276229235 8.068849389868612e-05 0.006363748745249592
 -6.015237862575727e-06 -0.0006902255828584927 0.9998075470841497 -0.008020288585852815 8.058935453148422e-05 0.006358649921813647 0.0001375668325500068 0.0014851240444282929
2803030303.030303 7.020573512517281e-05 -0.0033924037848620512 0.00013033420458467571 0.008384621902317885 0.9996760516329463 -0.015098737405020149 -7.3398791024937e-06 -0.0009027197088253768
 0.00013017993298053068 0.008377904076303946 0.00015630330589266883 0.001956684462375906 -7.518345562015323e-06 -0.0009094513290827104 0.9997557023367825 -0.01056748222523074
 0.9996760516329461 -0.015098737405016166 -7.3398791024939325e-06 -0.0009027197088229787 7.020573512644956e-05 -0.0033924037848603807 0.00013033420458426223 0.008384621902314763
 -7.518345562588865e-06 -0.0009094513290764782 0.9997557023367816 -0.010567482225219405 0.0001301799329814307 0.008377904076299705 0.0001563033058930019 0.001956684462379947
3478787878.787879 4.968258345400267e-05 -0.00420989647295591 0.00019240566911383046 0.010405013927809171 0.9995759030091256 -0.018737389807369446 -9.431876381367304e-06 -0.0011203091098698345
 0.0001921856903899835 0.010396677583901535 0.0001783244982580534 0.0024281035827912033 -9.679366492962094e-06 -0.0011286625689806299 0.9996930195407997 -0.013114274492070699
 0.9995759030091267 -0.01873738980735396 -9.431876380653467e-06 -0.0011203091098609015 4.968258345389165e-05 -0.004209896472964033 0.00019240566911264651 0.010405013927798499
 -9.679366492965252e-06 -0.0011286625689730747 0.9996930195407998 -0.013114274492065335 0.00019218569039007927 0.010396677583888236 0.0001783244982574983 0.0024281035827845975
4154545454.5454545 2.409383238533014e-05 -0.005027166365871069 0.00026689758530705466 0.01242482984979893 0.999457720917669 -0.022375245972187728 -1.2171199154376175e-05 -0.0013378856459155463
 0.00026660132980026847 0.012414875555754976 0.00020362904037635188 0.002899358021622128 -1.2498303998245486e-05 -0.00134786038567084 0.9996195029824089 -0.015660589423061422
 0.9994577209176683 -0.02237524597219836 -1.217119915365149e-05 -0.0013378856459087536 2.4093832385774228e-05 -0.00502716636586101 0.00026689758530622687 0.012424829849798286
 -1.2498303998162561e-05 -0.0013478603856798387 0.9996195029824095 -0.015660589423053886 0.00026660132979976366 0.012414875555764157 0.00020362904037585228 0.0028993580216117344
4830303030.30303 -6.557795161732383e-06 -0.0058441714714106115 0.0003538037274611375 0.014443974766803269 0.9993215137682385 -0.02601217676871531 -1.555791127723564e-05 -0.0015554504746885184
 0.00035342063156373237 0.014432403173461046 0.00023221536988715652 0.00337042441053756 -1.5975216333642523e-05 -0.0015670458593609366 0.9995351576826927 -0.018206351111588852
 0.9993215137682372 -0.026012176768725297 -1.55579112769674e-05 -0.0015554504746919892 -6.557795161732383e-06 -0.0058441714714008355 0.0003538037274615205 0.014443974766805957
 -1.5975216333754867e-05 -0.0015670458593631106 0.9995351576826923 -0.018206351111608038 0.0003534206315635994 0.014432403173470432 0.0002322153698880447 0.0033704244105532116
5506060606.060606 -4.225950268077483e-05 -0.006660860834564322 0.00045261203361933575 0.01646236560967804 0.9991672815290554 -0.029648062176427965 -1.908714681437459e-05 -0.001773016503783325
 0.0004521310577967567 0.016449177462311004 0.00026410195772680334 0.003841288125096276 -1.960474842410662e-05 -0.0017862318316934638 0.9994399691274507 -0.02075149244088299
 0.9991672815290564 -0.02964806217643284 -1.908714681376876e-05 -0.001773016503776707 -4.22595026811079e-05 -0.00666086083455816 0.00045261203361881663 0.01646236560967332
 -1.9604748423977687e-05 -0.0017862318316895103 0.9994399691274503 -0.020751492440880495 0.0004521310577967502 0.016449177462306702 0.00026410195772724743 0.0038412881250916376
6181818181.818182 -8.301386825398938e-05 -0.007477195958371302 0.0005636502633475139 0.018479903201848467 0.9989950413629678 -0.03328276989453752 -2.309491358634026e-05 -0.001990580432806021
 0.0005630606968637937 0.01846509932420656 0.000299273580648296 0.004311922529888162 -2.3723222034046395e-05 -0.002005414920585646 0.9993339570825481 -0.023295934339589517
 0.9989950413629661 -0.033282769894550396 -2.3094913586639675e-05 -0.0019905804328087242 -8.301386825326773e-05 -0.007477195958359072 0.0005636502633480988 0.01847990320185569
 -2.3723222034302483e-05 -0.0020054149206074827 0.9993339570825484 -0.02329593433959363 0.0005630606968636167 0.018465099324227047 0.000299273580648296 0.0043119225299050904
6857575757.575758 -0.00012881996100450044 -0.00829313764175275 0.0006870788098759967 0.020496489458889898 0.9988048086507297 -0.03691616852300905 -2.7750833894213213e-05 -0.0022081399426584947
 0.0006863701124923107 0.02048007075418011 0.0003377213701938331 0.004782301744876615 -2.8500413513348558e-05 -0.0022245927262808576 0.999217135501993 -0.025839598553735355
 0.9988048086507298 -0.0369161685230078 -2.7750833894452514e-05 -0.002208139942650982 -0.00012881996100466697 -0.00829313764175386 0.0006870788098762425 0.020496489458879878
 -2.8500413513409083e-05 -0.0022245927262763434 0.9992171355019934 -0.025839598553723246 0.0006863701124919393 0.0204800707541783 0.00033772137019427717 0.004782301744866272
7533333333.333333 -0.00017967319066020115 -0.009108644093998607 0.0008228878065988256 0.022512029868444257 0.9985965968060617 -0.04054812946791024 -3.305522500050216e-05 -0.0024256961645414323
 0.0008220494474798384 0.022493997322474684 0.0003794430267393678 0.005252402480532753 -3.3936631498916976e-05 -0.002443766302846831 0.9990895122982824 -0.028382409488088532
 0.9985965968060626 -0.040548129467903954 -3.30552249999804e-05 -0.002425696164538644 -0.00017967319066025667 -0.00910864409400429 0.0008228878065981416 0.022512029868442862
 -3.3936631499291276e-05 -0.002443766302847091 0.9990895122982815 -0.028382409488083425 0.0008220494474807053 0.022493997322474035 0.0003794430267397564 0.00525240248053871
8209090909.090909 -0.00023556851069206353 -0.009923673589894027 0.0009710664705240719 0.02452643004393963 0.9983704204991932 -0.04417852430908703 -3.900845908749658e-05 -0.0026432502206227473
 0.0009700879290685726 0.024506784725073 0.00042443605878333956 0.005722201472320276 -4.003223878465789e-05 -0.0026629366953802866 0.9989510961131385 -0.0309242916477882
 0.9983704204991928 -0.044178524309088654 -3.900845908792808e-05 -0.002643250220622125 -0.00023556851069217455 -0.00992367358989209 0.0009710664705249313 0.024526430043940478
 -4.0032238784697926e-05 -0.00266293669537253 0.9989510961131396 -0.030924291647791296 0.0009700879290682929 0.02450678472506693 0.0004244360587830065 0.005722201472326273
8884848484.848484 -0.00029650041942885785 -0.010738184475935095 0.001131603104201659 0.02653959573562428 0.9981262956541603 -0.04780722481568117 -4.561096304410692e-05 -0.0028608032228749653
 0.0011304738708581698 0.026518338794588828 0.00047269778326181067 0.006191675482522413 -4.67876521093253e-05 -0.0028821049389440656 0.9988018963159957 -0.033465169647173186
 0.99812629565416 -0.047807224815682725 -4.561096304404429e-05 -0.0028608032228740277 -0.0002965004194290799 -0.010738184475933743 0.0011316031042016925 0.026539595735625504
 -4.678765210897449e-05 -0.0028821049389490903 0.9988018963159959 -0.03346516964717137 0.001130473870857632 0.026518338794592006 0.0004726977832613666 0.0061916754825209665
9560606060.60606 -0.0003624629612690722 -0.01155213517650767 0.0013044850978001404 0.02855143284161955 0.9978642394458854 -0.05143410296149267 -5.286321821580187e-05 -0.003078356271952973
 0.0013031946748959166 0.0285285655114298 0.0005242253258843643 0.006660801302098914 -5.420334191265951e-05 -0.003101272057382533 0.9986419230023508 -0.03600496821844515
 0.9978642394458863 -0.051434102961491306 -5.28632182161704e-05 -0.0030783562719589853 -0.0003624629612692942 -0.011552135176509116 0.0013044850978005825 0.028551432841624015
 -5.4203341912464435e-05 -0.0031012720573770896 0.9986419230023504 -0.036004968218461 0.0013031946748959249 0.028528565511424984 0.0005242253258846974 0.006660801302110793
10236363636.363636 -0.0004350420143097722 -0.012365410497230167 0.0014895356447518816 0.030561908454795346 0.9975858638838535 -0.05505910475626966 -6.060310711655418e-05 -0.0032959714334372904
 0.0014880733882210464 0.030537432057662798 0.0005774435988458171 0.0071296333070028205 -6.21170187134863e-05 -0.003320500046866905 0.9984727594232348 -0.03854368980722388
 0.9975858638838528 -0.05505910475627378 -6.060310711661551e-05 -0.0032959714334385897 -0.0004350420143092726 -0.012365410497226979 0.0014895356447518736 0.030561908454797282
 -6.211701871350331e-05 -0.0033205000468676986 0.9984727594232347 -0.03854368980722479 0.0014880733882209967 0.030537432057665258 0.0005774435988454285 0.007129633307006257
10912121212.121212 -0.0005155962321607976 -0.013177887079225367 0.0016866019025725282 0.03257099668743102 0.9972925559458007 -0.058682184773611215 -6.869367999064668e-05 -0.003513717570602983
 0.0016849570454098408 0.032544912635393775 0.0006310013404648429 0.007598234600024033 -7.039158216570976e-05 -0.00353985770225045 0.998295765691761 -0.041081345709901074
 0.9972925559458009 -0.05868218477360982 -6.869367999051709e-05 -0.003513717570601526 -0.0005155962321605201 -0.013177887079224824 0.001686601902572331 0.03257099668742814
 -7.039158216564677e-05 -0.003539857702254628 0.9982957656917613 -0.041081345709897826 0.001684957045410085 0.032544912635399804 0.0006310013404643988 0.0075982346000193005
11587878787.878788 -0.0006011569830399743 -0.013989651686944554 0.0018959731736200433 0.03457849789935721 0.9969813732010226 -0.06230308747691531 -7.743923283638315e-05 -0.0037314897715434612
 0.0018941352590077843 0.03455080767389111 0.0006878188183815359 0.008066447314415462 -7.933161288671235e-05 -0.0037592400227783145 0.9981080297239262 -0.04361772626709022
 0.9969813732010233 -0.06230308747691525 -7.74392328363328e-05 -0.0037314897715447874 -0.0006011569830403074 -0.013989651686946148 0.0018959731736197605 0.03457849789935431
 -7.93316128863541e-05 -0.0037592400227780282 0.9981080297239271 -0.043617726267086564 0.0018941352590068237 0.03455080767389043 0.0006878188183813694 0.008066447314406719
12263636363.636364 -0.0006917162120791964 -0.014800663174014378 0.0021176334789748106 0.03658431864931565 0.9966523375905139 -0.0659216857827048 -8.684076395095243e-05 -0.003949289025751174
 0.0021155920652590633 0.036555023813440425 0.0007478927098171217 0.008534248319371725 -8.89380951907371e-05 -0.003978647921777493 0.9979095642175457 -0.04615275672157523
 0.9966523375905132 -0.06592168578270796 -8.684076395105225e-05 -0.0039492890257443285 -0.0006917162120788634 -0.014800663174009868 0.0021176334789749195 0.036584318649312206
 -8.89380951910016e-05 -0.003978647921783119 0.997909564217546 -0.04615275672156152 0.0021155920652591595 0.03655502381344475 0.0007478927098163446 0.00853424831936251
12939393939.39394 -0.0007872654189971517 -0.015610880506519249 0.0023515659395457345 0.03858836569559678 0.9963054722885354 -0.06953785288635646 -9.689932361594347e-05 -0.0041671163018425425
 0.0023493106010500963 0.03855746789373131 0.0008112195018521451 0.009001614518160169 -9.921206463190558e-05 -0.0041980822919111035 0.9977003825871682 -0.04868636247373776
 0.9963054722885352 -0.06953785288635302 -9.689932361502799e-05 -0.004167116301839864 -0.0007872654189973738 -0.015610880506523076 0.0023515659395447423 0.038588365695594276
 -9.92120646317712e-05 -0.004198082291907903 0.997700382587168 -0.04868636247373387 0.00234931060105023 0.038557467893728645 0.0008112195018520341 0.00900161451815719
13615151515.151516 -0.0008877956599708803 -0.016420262769041946 0.0025977527790626326 0.04059054600683645 0.995940801698372 -0.07315146227712796 -0.00010761601365544184 -0.0043849725465223335
 0.002595273106893114 0.04055804696456248 0.0008777954918390285 0.009468522850024348 -0.00011015460756502362 -0.004417544004085323 0.9974804989617396 -0.05121846909015591
 0.9959408016983726 -0.07315146227713301 -0.00010761601365555976 -0.004384972546522502 -0.0008877956599706582 -0.01642026276903603 0.002597752779062501 0.04059054600683697
 -0.00011015460756546143 -0.004417544004090247 0.997480498961739 -0.051218469090155164 0.0025952731068935196 0.04055804696456796 0.0008777954918391395 0.00946852285002086
14290909090.90909 -0.000993297549586658 -0.017228769170535063 0.0028561753272342352 0.042590766772784866 0.9955583514478619 -0.07676238775319541 -0.00011899198698214642 -0.004602858683516595
 0.0028534609300807905 0.04255666829665479 0.0009476167878251229 0.00993495029204217 -0.00012176686068987671 -0.004637033906440734 0.9972499281821439 -0.05374900231205395
 0.9955583514478621 -0.07676238775319197 -0.00011899198698164016 -0.004602858683511702 -0.0009932975495870466 -0.01722876917053747 0.0028561753272336463 0.042590766772779676
 -0.00012176686068914154 -0.004637033906435081 0.9972499281821443 -0.053749002312050626 0.002853460930079991 0.04255666829664928 0.0009476167878245123 0.00993495029203764
14966666666.666666 -0.001103761262898073 -0.018036359050310376 0.0031268140230476067 0.04458893541494989 0.9951581483847065 -0.08037050343652472 -0.00013102844710656802 -0.004820775612497343
 0.003123854527984459 0.04455323939223248 0.0010206793090030142 0.010400873861020895 -0.0001340500105706834 -0.004856552823276867 0.997008685798628 -0.05627788806379455
 0.9951581483847061 -0.0803705034365261 -0.00013102844710682657 -0.004820775612492248 -0.0011037612628968518 -0.018036359050308922 0.003126814023047607 0.04458893541494484
 -0.00013405001056949724 -0.004856552823276366 0.9970086857986279 -0.056277888063788764 0.0031238545279842914 0.044553239392232075 0.0010206793090024036 0.010400873861013127
15642424242.424242 -0.001219176537564981 -0.018842991883843297 0.003409648418233194 0.046584959597266495 0.994740220571571 -0.08397568378771536 -0.0001437266476406198 -0.005038724208077071
 0.0034064334715170233 0.04654766799575799 0.0010969787861832558 0.010866270615328313 -0.00014700529313517257 -0.005076101554056152 0.996756788068097 -0.05880505246127943
 0.9947402205715714 -0.08397568378771508 -0.00014372664764060513 -0.005038724208080804 -0.0012191765375654806 -0.018842991883842888 0.003409648418233071 0.04658495959726881
 -0.00014700529313554068 -0.005076101554056856 0.9967567880680961 -0.05880505246128432 0.003406433471516702 0.04654766799575994 0.0010969787861841995 0.010866270615331219
16318181818.181818 -0.0013395326761037607 -0.019648627288647483 0.0037046571808741725 0.048578747236666775 0.9943045972809659 -0.08757780362072122 -0.0001570878917681824 -0.005256705318789835
 0.0037011764487350184 0.048539862104407715 0.0011765107622890292 0.011331117656810098 -0.000160633993157389 -0.00529568087236517 0.9964942519512996 -0.061330421820348494
 0.9943045972809659 -0.08757780362072076 -0.00015708789176833863 -0.005256705318793601 -0.0013395326761030946 -0.019648627288647927 0.0037046571808740983 0.04857874723667047
 -0.00016063399315715992 -0.005295680872364216 0.9964942519512991 -0.06133042182035678 0.003701176448734503 0.048539862104407805 0.0011765107622895843 0.011331117656816051
16993939393.939394 -0.0014648185482057374 -0.0204532250300499 0.004011818099169716 0.05057020651356772 0.9938513089899101 -0.09117673811751728 -0.00017111353170187196 -0.005474719766038756
 0.004008061268599567 0.05052972997859955 0.0012592705928662906 0.011795392132581259 -0.0001749374437083265 -0.005515291524908077 0.9962210951098937 -0.06385392266507409
 0.9938513089899108 -0.09117673811751656 -0.00017111353170098584 -0.005474719766035828 -0.001464818548205793 -0.020453225030050162 0.0040118180991689 0.050570206513565266
 -0.00017493744370883726 -0.005515291524906832 0.9962210951098937 -0.06385392266506935 0.004008061268600019 0.050529729978598614 0.001259270592866124 0.011795392132578502
17669696969.696968 -0.0015950225931686823 -0.021256745026931548 0.00433110808534626 0.05255924588231331 0.993380387374393 -0.0947723628426376 -0.000185804968114408 -0.0056927683431169385
 0.0043270648648883565 0.052517180152422405 0.0013452534466196764 0.012259071236884453 -0.00018991702560077622 -0.005734934230537316 0.9959373359033918 -0.06637548173602223
 0.993380387374394 -0.09477236284263581 -0.0001858049681142612 -0.005692768343114682 -0.0015950225931689044 -0.021256745026934185 0.004331108085345987 0.05255924588231074
 -0.00018991702560090058 -0.005734934230536284 0.9959373359033923 -0.0663754817360185 0.004327064864888299 0.05251718015242114 0.0013452534466196764 0.012259071236882968
18345454545.454544 -0.0017301328224029744 -0.022059147357439107 0.004662503179722119 0.05454577408157531 0.9928918653036163 -0.0983645537576381 -0.0002011636495576843 -0.005910851814221385
 0.0046581633002464595 0.05450212144401261 0.0014344543059739423 0.012722132212965061 -0.00020557416680158403 -0.005954609679247732 0.9956429933859908 -0.06889502599850374
