! Created with skrf (http://scikit-rf.org).
# Hz S RI R 50.0 
!freq ReS11 ImS11 ReS12 ImS12 ReS13 ImS13
! ReS14 ImS14
! ReS21 ImS21 ReS22 ImS22 ReS23 ImS23
! ReS24 ImS24
! ReS31 ImS31 ReS32 ImS32 ReS33 ImS33
! ReS34 ImS34
! ReS41 ImS41 ReS42 ImS42 ReS43 ImS43
! ReS44 ImS44
!
100000000.0 4.020067593518695e-05 -7.453540260886652e-05 1.627212760347206e-06 0.00014205093172355287 0.9999582427141461 -0.00040510497044813644 -1.1383132407319516e-06 5.783700441113414e-06
 1.6078856743819435e-06 0.0001365155014992812 3.897912684874827e-05 9.23201330172809e-05 -1.1598618115829986e-06 2.467177722391032e-07 0.9999603400662701 -0.0003224213121506706
 0.9999582427141468 -0.00040510497015607623 -1.1383132405739156e-06 5.78370016178765e-06 4.020067593529797e-05 -7.453540274447159e-05 1.6272127595293906e-06 0.0001420509318920471
 -1.1598618123487451e-06 2.4671809049071994e-07 0.9999603400662688 -0.00032242131259149634 1.6078856746994326e-06 0.00013651550127762914 3.897912685107974e-05 9.232013356761195e-05
200000000.0 4.037757369673711e-05 -0.00014907077139761186 2.419746101886584e-06 0.0002841009055289179 0.9999562589330041 -0.000810208314217494 -1.3370226255249456e-06 1.1567660029996278e-05
 2.3763960028014866e-06 0.00027303007210782205 3.96254991256173e-05 0.00018463958638157926 -1.3832823937360497e-06 4.937227650300056e-07 0.9999589397221722 -0.0006448414925047292
 0.9999562589330038 -0.0008102083143037039 -1.3370226252116738e-06 1.1567660109681854e-05 4.037757369712569e-05 -0.00014907077128627363 2.419746101357239e-06 0.00028410090544379364
 -1.38328239436357e-06 4.937229595977054e-07 0.9999589397221718 -0.0006448414925745781 2.376396003141614e-06 0.000273030071894919 3.962549912506219e-05 0.00018463958660141166
300000000.0 4.049325940841397e-05 -0.00022360605299176733 3.315521325230664e-06 0.00042614983914687125 0.99995408609209 -0.0012153099159896057 -1.5340502736862746e-06 1.735187949999662e-05
 3.244219604212411e-06 0.00040954363287461947 4.033058021818414e-05 0.00027695831681102045 -1.6089511267254017e-06 7.410172922037087e-07 0.9999574075046744 -0.0009672604606972146
 0.9999540860920906 -0.0012153099160480336 -1.5340502742963947e-06 1.7351879698941686e-05 4.0493259407969884e-05 -0.00022360605292145856 3.3155213254343653e-06 0.00042614983895471843
 -1.6089511260930213e-06 7.41017249689492e-07 0.9999574075046735 -0.0009672604602824881 3.2442196040645682e-06 0.0004095436329029737 4.033058021801761e-05 0.0002769583163131882
400000000.0 4.054773332151651e-05 -0.00029814119425374463 4.314537210335769e-06 0.0005681976494559642 0.9999517241929441 -0.0016204096601340839 -1.7293958607991003e-06 2.313635983054471e-05
 4.2113552947568585e-06 0.0005460561046553047 4.109436932264732e-05 0.0003692762800931045 -1.8368676609735207e-06 9.886047596586733e-07 0.9999557434149702 -0.0012896781356337085
 0.9999517241929448 -0.0016204096602209076 -1.729395860891442e-06 2.3136359837910137e-05 4.0547733321294466e-05 -0.0002981411940994763 4.314537210286719e-06 0.0005681976494344605
 -1.8368676609592196e-06 9.886046918373483e-07 0.9999557434149684 -0.0012896781355984765 4.211355295044132e-06 0.0005460561047367235 4.109436932414612e-05 0.0003692762800591239
500000000.0 4.0540995739413166e-05 -0.00037267614168577917 5.416792459500624e-06 0.0007102442540193269 0.999949173237207 -0.0020255074313758944 -1.923059059181848e-06 2.8921101316767028e-05
 5.2778018178063845e-06 0.0006825674076898568 4.191686559562591e-05 0.000461593434111297 -2.0670316417745826e-06 1.2364885204693365e-06 0.9999539474543273 -0.0016120944388551928
 0.9999491732372063 -0.002025507431372756 -1.9230590601450764e-06 2.892110141119645e-05 4.0540995739801744e-05 -0.00037267614168887283 5.416792460514759e-06 0.0007102442539450237
 -2.0670316416941636e-06 1.236488532420426e-06 0.9999539474543259 -0.0016120944386580171 5.277801817758403e-06 0.0006825674077042846 4.1916865596458575e-05 0.000461593433884872
600000000.0 4.32067953091142e-05 -0.0004472161274918197 6.454254801408525e-06 0.000852287738987162 0.9999436994740872 -0.002430597828985217 -1.9470068028003488e-06 3.470793612823304e-05
 6.2753894892944545e-06 0.0008190756315241289 4.546261393439943e-05 0.0005539032422347105 -2.131272650469706e-06 1.486502758330968e-06 0.9999493550770566 -0.0019345027962117522
 0.9999436994740869 -0.0024305978289423736 -1.9470068032103085e-06 3.470793618738113e-05 4.3206795308947665e-05 -0.0004472161274892653 6.454254802198437e-06 0.0008522877389272095
 -2.131272650501407e-06 1.4865027661840037e-06 0.9999493550770568 -0.001934502796077955 6.275389489134446e-06 0.0008190756315160242 4.546261393478801e-05 0.0005539032421198887
700000000.0 4.5811352298585906e-05 -0.0005217575747956706 7.594947279871457e-06 0.0009943292424149524 0.9999380366867359 -0.002835684261044466 -1.969263767353673e-06 4.049564418537411e-05
 7.3722788532783824e-06 0.0009555819173815139 4.9067035131633574e-05 0.0006462099902385143 -2.1977527494051087e-06 1.7374298857345745e-06 0.9999446308631985 -0.002256907456595285
 0.999938036686736 -0.0028356842609689797 -1.9692637675220615e-06 4.0495644230998014e-05 4.5811352298141816e-05 -0.000521757574888627 7.594947280243293e-06 0.0009943292423522947
 -2.197752749331148e-06 1.7374299365845407e-06 0.9999446308631978 -0.0022569074564464473 7.372278853160438e-06 0.0009555819173398401 4.906703513246624e-05 0.0006462099901441208
800000000.0 4.835466569869107e-05 -0.000596300430473412 8.83886737262062e-06 0.0011363686816954373 0.9999321848778487 -0.0032407666121959822 -1.989828320522561e-06 4.628422609368874e-05
 8.568467436439083e-06 0.001092086185583176 5.273012611761718e-05 0.0007385136350319475 -2.26647029426632e-06 1.9892733219888558e-06 0.999939774816134 -0.0025793083401608997
 0.9999321848778489 -0.0032407666122602134 -1.9898283200125185e-06 4.628422607363488e-05 4.8354665698024935e-05 -0.0005963004303922359 8.838867372422918e-06 0.0011363686817042098
 -2.266470293583189e-06 1.9892732838365097e-06 0.9999397748161345 -0.0025793083400960882 8.568467435837634e-06 0.0010920861856234762 5.273012611717309e-05 0.0007385136349529449
900000000.0 5.083673455102966e-05 -0.0006708446411424214 1.0186012480371398e-05 0.001278405974290128 0.9999261440502207 -0.003645844767073947 -2.008698827444077e-06 5.207368250256051e-05
 9.863952690832455e-06 0.0012285883567831148 5.6451883782226986e-05 0.0008308141338522928 -2.3374236373959967e-06 2.2420361638613917e-06 0.9999347869393178 -0.0029017053671474263
 0.9999261440502214 -0.003645844767093698 -2.008698827236406e-06 5.207368247465885e-05 5.083673455047455e-05 -0.0006708446411100293 1.0186012480220727e-05 0.0012784059743090929
 -2.337423637120671e-06 2.2420360821036507e-06 0.9999347869393178 -0.0029017053670462823 9.863952690495971e-06 0.001228588356862222 5.645188378194943e-05 0.000830814133756962
1000000000.0 5.325755794810538e-05 -0.0007453901535210397 1.1636379928567883e-05 0.001420441037467352 0.9999199142067463 -0.004050918610213074 -2.025873653743832e-06 5.7864014155022e-05
 1.1258731996402365e-05 0.0013650883516189295 6.0232304978646845e-05 0.0009231114433955507 -2.410611128440375e-06 2.4957215989631445e-06 0.9999296672362723 -0.003224098457471203
 0.9999199142067463 -0.004050918610268629 -2.0258736531895054e-06 5.7864014122243434e-05 5.325755794799436e-05 -0.0007453901534618097 1.1636379928104983e-05 0.0014204410374931218
 -2.4106111285504088e-06 2.4957215338164955e-06 0.9999296672362724 -0.0032240984575544083 1.1258731996373563e-05 0.0013650883516977365 6.023230497848031e-05 0.0009231114435015987
1100000000.0 5.3860469752864404e-05 -0.0008199303482005415 1.3071203884685728e-05 0.0015624768473338066 0.9999152520242058 -0.004455994592493609 -1.9225914268488774e-06 6.365216308143446e-05
 1.2633942405211117e-05 0.0015015891496763288 6.239656945705718e-05 0.0010154133399683202 -2.3671739369976776e-06 2.7472738087125154e-06 0.9999260905300038 -0.003546495350397772
 0.9999152520242061 -0.004455994592471136 -1.922591426624666e-06 6.365216309709625e-05 5.386046975269787e-05 -0.0008199303482201582 1.3071203884388868e-05 0.001562476847314679
 -2.3671739371408122e-06 2.7472738620541375e-06 0.9999260905300039 -0.0035464953504126045 1.2633942405112648e-05 0.0015015891496223857 6.239656945705718e-05 0.001015413339954019
1200000000.0 5.4402162377453767e-05 -0.0008944705444836169 1.4609253240315316e-05 0.001704510818486004 0.9999104008072015 -0.004861067225991125 -1.8176201560010686e-06 6.944063271397842e-05
 1.4108450044583656e-05 0.001638088168297048 6.461952021097339e-05 0.00110771338279205 -2.3259773934191694e-06 2.999198957351858e-06 0.9999223819765045 -0.0038688895682322485
 0.9999104008072015 -0.004861067226038062 -1.8176201562310592e-06 6.944063270728789e-05 5.440216237728723e-05 -0.0008944705444334194 1.4609253240534991e-05 0.0017045108184834427
 -2.3259773932697663e-06 2.9991989176684693e-06 0.9999223819765051 -0.003868889568246525 1.4108450044144281e-05 0.001638088168324569 6.461952021069584e-05 0.0011077133827927116
1300000000.0 5.488263609709776e-05 -0.0009690106889326028 1.625052587443289e-05 0.0018465428683831092 0.9999053605583168 -0.005266136395413625 -1.7109591517621746e-06 7.522942361953814e-05
 1.5682252855464848e-05 0.001774585328245837 6.69011554021437e-05 0.001200011528793704 -2.2870207718204136e-06 3.251500229847592e-06 0.9999185415782028 -0.004191281031124722
 0.9999053605583172 -0.005266136395382523 -1.7109591519012439e-06 7.522942362760894e-05 5.488263609670918e-05 -0.0009690106889558333 1.625052587441111e-05 0.0018465428683746607
 -2.287020771386115e-06 3.251500278239343e-06 0.9999185415782028 -0.00419128103111985 1.568225285499842e-05 0.0017745853281958904 6.690115540186614e-05 0.0012000115287656705
1400000000.0 5.530189123670315e-05 -0.0010435507285156305 1.7995019587425706e-05 0.001988572914334099 0.9999001312802349 -0.005671201985196401 -1.6026077217032792e-06 8.101853662286347e-05
 1.7355348705015647e-05 0.0019110805498209022 6.924147315140461e-05 0.0012923077349290201 -2.2503033440406725e-06 3.5041809358724272e-06 0.999914569337599 -0.00451366965895196
 0.9999001312802343 -0.005671201985193171 -1.6026077222361786e-06 8.101853660476024e-05 5.530189123770235e-05 -0.0010435507285141256 1.799501958781237e-05 0.0019885729143495337
 -2.2503033447759734e-06 3.5041809284896677e-06 0.9999145693375987 -0.004513669658938354 1.7355348705833705e-05 0.0019110805498293837 6.924147315173768e-05 0.0012923077349353581
1500000000.0 5.565992817679888e-05 -0.001118090609888728 1.984273210486829e-05 0.002130600873675409 0.9998947129757361 -0.006076263879972275 -1.4925651740177957e-06 8.68079724036425e-05
 1.9127735390084245e-05 0.002047573753746359 7.16404715435659e-05 0.0013846019581228875 -2.215824379511153e-06 3.7572442328628273e-06 0.999910465257263 -0.004836055371763089
 0.9998947129757358 -0.006076263879954079 -1.4925651742525463e-06 8.680797238319604e-05 5.5659928176632345e-05 -0.001118090609911567 1.984273210514096e-05 0.00213060087369645
 -2.215824379935129e-06 3.7572442656284368e-06 0.999910465257263 -0.004836055371723307 1.9127735390348655e-05 0.0020475737537149936 7.164047154434305e-05 0.0013846019581341636
1600000000.0 5.595674734421019e-05 -0.001192630279850611 2.1793661075477813e-05 0.0022726266638133266 0.9998891056477008 -0.006481321964375575 -1.3808308144753165e-06 9.259773162894713e-05
 2.099941063038909e-05 0.0021840648603760034 7.409814862463504e-05 0.0014768941553269296 -2.183583143059679e-06 4.010693365726522e-06 0.9999062293398369 -0.005158438089642873
 0.9998891056477003 -0.00648132196434579 -1.3808308145978822e-06 9.259773162612437e-05 5.595674734432121e-05 -0.0011926302798857618 2.179366107558122e-05 0.0022726266638138123
 -2.1835831430341766e-06 4.0106933916439516e-06 0.9999062293398361 -0.005158438089617622 2.0999410630383002e-05 0.002184064860355382 7.409814862480157e-05 0.001476894155306941
1700000000.0 5.619234921999672e-05 -0.001267169685147919 2.3847804070804985e-05 0.002414650202058698 0.9998833092991073 -0.006886376122985149 -1.267403947758828e-06 9.838781506238016e-05
 2.2970372072615934e-05 0.002320553790306303 7.661450240009637e-05 0.0015691842834561916 -2.1535788963356102e-06 4.264531613887533e-06 0.999901861588032 -0.0054808177325921005
 0.9998833092991073 -0.006886376122972241 -1.2674039481507713e-06 9.838781506643957e-05 5.6192349220385296e-05 -0.001267169685144182 2.3847804070924017e-05 0.0024146502020526
 -2.153578896793922e-06 4.264531621557785e-06 0.9999018615880317 -0.005480817732615157 2.2970372073018234e-05 0.0023205537902961128 7.661450240054046e-05 0.0015691842834671182
1800000000.0 5.6366734336066315e-05 -0.0013417087726011767 2.600515858648473e-05 0.0025566714057807804 0.9998773239330341 -0.00729142624035599 -1.1522838782543286e-06 0.00010417822339385031
 2.5040617292100462e-05 0.0024570404640617237 7.918953083901892e-05 0.0016614722994330825 -2.12581089886469e-06 4.518762097858652e-06 0.9998973620046314 -0.005803194220621498
 0.9998773239330336 -0.007291426240351673 -1.1522838784090967e-06 0.00010417822338891668 5.636673433617734e-05 -0.0013417087726019803 2.600515858656513e-05 0.0025566714057752285
 -2.125810899089313e-06 4.518762122645821e-06 0.9998973620046316 -0.005803194220686118 2.5040617292336656e-05 0.002457040464035448 7.918953083901892e-05 0.0016614722994879403
1900000000.0 5.6479903274619936e-05 -0.0014162474889297446 2.826572204168059e-05 0.0026986901923317114 0.9998711495526571 -0.007696472201154558 -1.0354699077728666e-06 0.0001099689573600073
 2.7210143788480016e-05 0.002593524802105112 8.182323186983753e-05 0.001753758160320844 -2.1002784061570194e-06 4.773388104778861e-06 0.999892730592491 -0.006125567473861551
 0.9998711495526558 -0.007696472201164685 -1.0354699075556704e-06 0.00010996895735380035 5.647990327489749e-05 -0.0014162474889094683 2.8265722041484716e-05 0.002698690192340822
 -2.1002784061495194e-06 4.773388072607208e-06 0.9998927305924911 -0.006125567473859798 2.7210143788538485e-05 0.0025935248021452017 8.182323186978202e-05 0.0017537581603508732
2000000000.0 5.653185667064964e-05 -0.0014907857809053474 3.062949177814466e-05 0.0028407064791064135 0.99986478616125 -0.008101513889954413 -9.169613375986504e-07 0.00011576001763441052
 2.9478948988322896e-05 0.002730006725087726 8.451560338346154e-05 0.0018460418228850829 -2.0769806701065688e-06 5.028412829977902e-06 0.9998879673545344 -0.006447937412152373
 0.9998647861612502 -0.008101513889935059 -9.169613376883461e-07 0.00011576001761939313 5.653185667037208e-05 -0.0014907857809194772 3.062949177845052e-05 0.0028407064791189465
 -2.0769806702674034e-06 5.028412831681573e-06 0.9998879673545342 -0.006447937412143522 2.947894898868764e-05 0.002730006725090091 8.451560338351705e-05 0.0018460418228657721
2100000000.0 5.652259520821934e-05 -0.0015653235953562673 3.309646506275253e-05 0.002982720183438302 0.999858233762189 -0.00850655119133605 -7.967574677534423e-07 0.00012155140496487803
 3.184703024592674e-05 0.002866486153461893 8.726664323316369e-05 0.0019383232441640586 -2.055916940476416e-06 5.283839519560305e-06 0.9998830722937577 -0.006770303955736547
 0.9998582337621892 -0.008506551191347559 -7.967574680172964e-07 0.00012155140494694113 5.652259520821934e-05 -0.001565323595352781 3.309646506283443e-05 0.002982720183452838
 -2.055916940506831e-06 5.283839514861386e-06 0.9998830722937586 -0.006770303955760228 3.184703024584956e-05 0.0028664861534607265 8.72666432327196e-05 0.0019383232441694586
2200000000.0 5.6452119625294284e-05 -0.0016398608789883475 3.5666639084756964e-05 0.0031247312227159433 0.9998514923589457 -0.008911583989962554 -6.748575974738297e-07 0.0001273431200378648
 3.431438484064874e-05 0.0030029630077708183 9.007634923180463e-05 0.002030602381100337 -2.0370864625456033e-06 5.5396713731854315e-06 0.9998780454132286 -0.007092667024514663
 0.9998514923589454 -0.008911583989946131 -6.748575973104709e-07 0.00012734311999977642 5.645211962518326e-05 -0.0016398608790037456 3.5666639084572325e-05 0.0031247312227559933
 -2.0370864626731406e-06 5.539671366872441e-06 0.999878045413229 -0.00709266702459547 3.431438484072965e-05 0.003002963007783966 9.007634923130503e-05 0.0020306023811652893
2300000000.0 5.632043070885606e-05 -0.0017143975786256989 3.834001095681605e-05 0.0032667395143359656 0.9998445619550917 -0.009316612170393626 -5.512610238080219e-07 0.00013313516354254324
 3.688100997862962e-05 0.00313943720860057 9.294471915505254e-05 0.002122879190711341 -2.020488479848448e-06 5.795911600231392e-06 0.9998728867160839 -0.007415026538678803
 0.9998445619550913 -0.009316612170393576 -5.512610235317494e-07 0.0001331351635383518 5.632043070880055e-05 -0.001714397578620696 3.834001095679642e-05 0.003266739514341241
 -2.020488479734745e-06 5.795911612244779e-06 0.999872886716084 -0.007415026538663621 3.688100997851502e-05 0.0031394372085958044 9.294471915494151e-05 0.0021228791907110006
2400000000.0 5.61275292983443e-05 -0.001788933641035345 4.111657771561419e-05 0.0034087449756467205 0.9998374425542971 -0.0097216356172952 -4.2596704314509655e-07 0.0001389275362093674
 3.9546902792936224e-05 0.003275908676398715 9.587175073877408e-05 0.002215153629824646 -2.0061222309884185e-06 6.0525634342526526e-06 0.9998675962055329 -0.00773738241810892
 0.9998374425542969 -0.009721635617303482 -4.259670428533784e-07 0.000138927536203837 5.612752929856635e-05 -0.0017889336410300842 4.1116577715490766e-05 0.0034087449756548954
 -2.0061222311453043e-06 6.0525634159316145e-06 0.999867596205533 -0.0077373824181049735 3.954690279307542e-05 0.003275908676413338 9.587175073849652e-05 0.0022151536298127042
2500000000.0 5.5873416284712984e-05 -0.0018634690129728665 4.3996336321119795e-05 0.003550747524037736 0.999830134160331 -0.010126654215251038 -2.98974950703233e-07 0.00014472023873796439
 4.2312060342907426e-05 0.0034123773317940725 9.885744168131039e-05 0.0023074256555016912 -1.993986952654239e-06 6.309630099841081e-06 0.9998621738848547 -0.008059734582966094
 0.9998301341603307 -0.010126654215272658 -2.989749505418834e-07 0.00014472023873373188 5.5873416284768496e-05 -0.0018634690129542308 4.399633632127615e-05 0.003550747524050046
 -1.993986952713439e-06 6.309630088708412e-06 0.9998621738848552 -0.008059734582937662 4.2312060343076684e-05 0.003412377331805279 9.885744168114385e-05 0.002307425655462997
2600000000.0 5.555809260943123e-05 -0.0019380036412125676 4.6979283657060147e-05 0.0036927470768981733 0.9998226367770612 -0.010531667848920387 -1.7028404008324852e-07 0.00015051327182744788
 4.517647961479701e-05 0.0035488430953411233 0.0001019017896421448 0.0023996952245551864 -1.9840818779938835e-06 6.567114768947164e-06 0.9998566197574004 -0.008382082953248424
 0.9998226367770607 -0.010531667848921523 -1.702840403540568e-07 0.0001505132718209475 5.555809260898714e-05 -0.0019380036412156806 4.697928365759505e-05 0.0036927470769020547
 -1.9840818775732723e-06 6.567114772729542e-06 0.9998566197574007 -0.008382082953231257 4.5176479614462135e-05 0.0035488430953362223 0.00010190178964247787 0.0023996952245629102
2700000000.0 5.518155926481638e-05 -0.0020125374725842803 5.006541653103899e-05 0.0038347435516288253 0.9998149504084535 -0.010936676402915919 -3.989360502233861e-08 0.00015630663617832775
 4.814015751966808e-05 0.0036853058875074398 0.00010500479224290205 0.0024919622941647424 -1.9764062362192303e-06 6.825020696986307e-06 0.99985093382659 -0.008704427449078197
 0.9998149504084531 -0.010936676402915152 -3.989360482296823e-08 0.00015630663618021383 5.518155926487189e-05 -0.0020125374725811795 5.0065416531102174e-05 0.0038347435516270876
 -1.9764062366310044e-06 6.82502067028752e-06 0.9998509338265902 -0.008704427449078272 4.814015752013158e-05 0.0036853058875358337 0.00010500479224312409 0.0024919622941650477
2800000000.0 5.474381729630995e-05 -0.0020870704538131146 5.325473167290518e-05 0.003976736865599561 0.9998070750585737 -0.011341679761880982 9.21970644234039e-08 0.0001621003324936855
